date Sun Feb 11 09:48:42.045 PM 2024
base hex  timestamps absolute
internal events logged
Begin Triggerblock Sun Feb 11 10:07:42.686 PM 2024
 0.000000 Start of measurement
 0.000000 1  15              Rx   d 8 44 40 00 00 03 03 00 00
 0.000256 1  10              Rx   d 8 57 73 2A 00 71 04 32 00
 0.028202 1  14              Rx   d 8 18 63 30 58 42 24 00 00
 0.028458 1  16              Rx   d 8 01 00 01 00 00 00 00 00
 0.029653 1  11              Rx   d 8 DA D9 28 00 F9 01 32 00
 0.031018 1  18              Rx   d 8 00 00 00 00 00 00 00 00
 0.031231 1  15              Rx   d 8 44 40 00 00 03 03 00 00
 0.031487 1  16              Rx   d 8 01 00 00 00 00 00 00 00
 0.031786 1  18              Rx   d 8 00 00 00 00 00 00 00 00
 0.032042 1  14              Rx   d 8 18 63 30 58 01 00 00 00
 1.934250 1  15              Rx   d 8 44 40 00 00 03 03 00 00
 1.935445 1  10              Rx   d 8 40 74 2A 00 2C 00 32 00
 1.963178 1  14              Rx   d 8 18 63 EC 57 61 00 00 00
 1.963434 1  16              Rx   d 8 01 00 00 00 00 00 00 00
 1.964586 1  11              Rx   d 8 6B D6 28 00 02 00 2F 00
 1.964884 1  18              Rx   d 8 00 00 00 00 00 00 00 00
 3.853320 1  15              Rx   d 8 4C 40 00 00 03 03 00 00
 3.854525 1  10              Rx   d 8 64 74 2A 00 19 00 32 00
 3.882537 1  14              Rx   d 8 18 63 AC 57 60 00 00 00
 3.882796 1  16              Rx   d 8 01 00 00 00 00 00 00 00
 3.883914 1  11              Rx   d 8 6D D6 28 00 01 00 30 00
 3.884216 1  18              Rx   d 8 00 00 00 00 00 00 00 00
 5.752939 1  15              Rx   d 8 44 40 00 00 03 03 00 00
 5.754101 1  10              Rx   d 8 67 74 2A 00 08 00 32 00
 5.782114 1  14              Rx   d 8 18 63 6C 57 5F 00 00 00
 5.782372 1  16              Rx   d 8 01 00 00 00 00 00 00 00
 5.783534 1  11              Rx   d 8 71 D6 28 00 01 00 32 00
 5.783835 1  18              Rx   d 8 00 00 00 00 00 00 00 00
 7.672697 1  15              Rx   d 8 44 40 00 00 03 03 00 00
 7.673859 1  10              Rx   d 8 63 74 2A 00 10 00 32 00
 7.701871 1  14              Rx   d 8 14 63 6C 57 60 01 00 00
 7.702129 1  16              Rx   d 8 01 00 01 00 00 00 00 00
 7.703291 1  11              Rx   d 8 71 D6 28 00 02 00 30 00
 7.703592 1  18              Rx   d 8 00 00 00 00 00 00 00 00
 9.592454 1  15              Rx   d 8 44 40 00 00 03 03 00 00
 9.593616 1  10              Rx   d 8 65 74 2A 00 03 00 2F 00
 9.621672 1  14              Rx   d 8 18 63 74 57 60 00 00 00
 9.621930 1  16              Rx   d 8 01 00 00 00 00 00 00 00
 9.623092 1  11              Rx   d 8 71 D6 28 00 01 00 30 00
 9.623350 1  18              Rx   d 8 00 00 00 00 00 00 00 00
 11.512212 1  15              Rx   d 8 44 40 00 00 03 03 00 00
 11.513416 1  10              Rx   d 8 75 74 2A 00 0D 00 32 00
 11.541429 1  14              Rx   d 8 20 63 6C 57 60 00 00 00
 11.541687 1  16              Rx   d 8 01 00 00 00 00 00 00 00
 11.542849 1  11              Rx   d 8 72 D6 28 00 01 00 32 00
 11.543107 1  18              Rx   d 8 00 00 00 00 00 00 00 00
 13.432055 1  15              Rx   d 8 44 40 00 00 03 03 00 00
 13.433217 1  10              Rx   d 8 7D 74 2A 00 08 00 32 00
 13.461229 1  14              Rx   d 8 18 63 6C 57 60 01 00 00
 13.461488 1  16              Rx   d 8 01 00 01 00 00 00 00 00
 13.462649 1  11              Rx   d 8 71 D6 28 00 02 00 32 00
 13.462951 1  18              Rx   d 8 00 00 00 00 00 00 00 00
 15.351985 1  15              Rx   d 8 44 40 00 00 03 03 00 00
 15.353146 1  10              Rx   d 8 73 74 2A 00 05 00 32 00
 15.381159 1  14              Rx   d 8 20 63 6C 57 60 01 00 00
 15.381417 1  16              Rx   d 8 01 00 01 00 00 00 00 00
 15.382579 1  11              Rx   d 8 72 D6 28 00 01 00 31 00
 15.382837 1  18              Rx   d 8 00 00 00 00 00 00 00 00
 17.271828 1  15              Rx   d 8 44 40 00 00 03 03 00 00
 17.272990 1  10              Rx   d 8 73 74 2A 00 08 00 31 00
 17.301002 1  14              Rx   d 8 20 63 6C 57 60 02 00 00
 17.301304 1  16              Rx   d 8 01 00 01 00 00 00 00 00
 17.302422 1  11              Rx   d 8 72 D6 28 00 01 00 30 00
 17.302724 1  18              Rx   d 8 00 00 00 00 00 00 00 00
 19.191714 1  15              Rx   d 8 44 40 00 00 03 03 00 00
 19.192876 1  10              Rx   d 8 85 74 2A 00 06 00 32 00
 19.220889 1  14              Rx   d 8 14 63 6C 57 60 00 00 00
 19.221147 1  16              Rx   d 8 01 00 00 00 00 00 00 00
 19.222309 1  11              Rx   d 8 73 D6 28 00 01 00 30 00
 19.222610 1  18              Rx   d 8 00 00 00 00 00 00 00 00
 21.091648 1  15              Rx   d 8 44 40 00 00 03 03 00 00
 21.092810 1  10              Rx   d 8 86 74 2A 00 0A 00 32 00
 21.120865 1  14              Rx   d 8 18 63 74 57 5F 01 00 00
 21.121124 1  16              Rx   d 8 01 00 01 00 00 00 00 00
 21.122242 1  11              Rx   d 8 73 D6 28 00 01 00 31 00
 21.122544 1  18              Rx   d 8 00 00 00 00 00 00 00 00
 23.011405 1  15              Rx   d 8 44 40 00 00 03 03 00 00
 23.012567 1  10              Rx   d 8 7E 74 2A 00 06 00 31 00
 23.040623 1  14              Rx   d 8 20 63 6C 57 60 00 00 00
 23.040881 1  16              Rx   d 8 01 00 00 00 00 00 00 00
 23.042043 1  11              Rx   d 8 74 D6 28 00 01 00 31 00
 23.042301 1  18              Rx   d 8 00 00 00 00 00 00 00 00
 24.931292 1  15              Rx   d 8 44 40 00 00 03 03 00 00
 24.932454 1  10              Rx   d 8 7F 74 2A 00 05 00 31 00
 24.960466 1  14              Rx   d 8 20 63 6C 57 60 00 00 00
 24.960724 1  16              Rx   d 8 01 00 00 00 00 00 00 00
 24.961886 1  11              Rx   d 8 74 D6 28 00 01 00 32 00
 24.962144 1  18              Rx   d 8 00 00 00 00 00 00 00 00
 26.850963 1  15              Rx   d 8 44 40 00 00 03 03 00 00
 26.852125 1  10              Rx   d 8 85 74 2A 00 08 00 31 00
 26.880138 1  14              Rx   d 8 20 63 6C 57 60 00 00 00
 26.880396 1  16              Rx   d 8 01 00 00 00 00 00 00 00
 26.881558 1  11              Rx   d 8 74 D6 28 00 01 00 32 00
 26.881859 1  18              Rx   d 8 00 00 00 00 00 00 00 00
 28.770850 1  15              Rx   d 8 44 40 00 00 03 03 00 00
 28.772012 1  10              Rx   d 8 85 74 2A 00 0B 00 32 00
 28.800024 1  14              Rx   d 8 24 63 6C 57 60 00 00 00
 28.800282 1  16              Rx   d 8 01 00 00 00 00 00 00 00
 28.801444 1  11              Rx   d 8 75 D6 28 00 01 00 32 00
 28.801702 1  18              Rx   d 8 00 00 00 00 00 00 00 00
 30.690650 1  15              Rx   d 8 44 40 00 00 03 03 00 00
 30.691855 1  10              Rx   d 8 98 74 2A 00 0B 00 32 00
 30.719868 1  14              Rx   d 8 20 63 6C 57 60 00 00 00
 30.720126 1  16              Rx   d 8 01 00 00 00 00 00 00 00
 30.721287 1  11              Rx   d 8 75 D6 28 00 01 00 32 00
 30.721546 1  18              Rx   d 8 00 00 00 00 00 00 00 00
 32.610451 1  15              Rx   d 8 44 40 00 00 03 03 00 00
 32.611655 1  10              Rx   d 8 9A 74 2A 00 0B 00 32 00
 32.639668 1  14              Rx   d 8 20 63 6C 57 60 00 00 00
 32.639926 1  16              Rx   d 8 01 00 00 00 00 00 00 00
 32.641088 1  11              Rx   d 8 75 D6 28 00 01 00 32 00
 32.641346 1  18              Rx   d 8 00 00 00 00 00 00 00 00
 34.530337 1  15              Rx   d 8 44 40 00 00 03 03 00 00
 34.531542 1  10              Rx   d 8 92 74 2A 00 08 00 32 00
 34.559554 1  14              Rx   d 8 20 63 28 57 60 00 00 00
 34.559813 1  16              Rx   d 8 01 00 00 00 00 00 00 00
 34.560974 1  11              Rx   d 8 76 D6 28 00 01 00 31 00
 34.561233 1  18              Rx   d 8 00 00 00 00 00 00 00 00
 36.430258 1  15              Rx   d 8 4C 40 00 00 03 03 00 00
 36.431419 1  10              Rx   d 8 8C 74 2A 00 08 00 32 00
 36.459432 1  14              Rx   d 8 20 63 28 57 5F 00 00 00
 36.459690 1  16              Rx   d 8 01 00 00 00 00 00 00 00
 36.460852 1  11              Rx   d 8 77 D6 28 00 01 00 31 00
 36.461153 1  18              Rx   d 8 00 00 00 00 00 00 00 00
 38.350101 1  15              Rx   d 8 44 40 00 00 03 03 00 00
 38.351263 1  10              Rx   d 8 92 74 2A 00 0F 00 32 00
 38.379275 1  14              Rx   d 8 18 63 28 57 60 00 00 00
 38.379534 1  16              Rx   d 8 01 00 00 00 00 00 00 00
 38.380695 1  11              Rx   d 8 77 D6 28 00 01 00 31 00
 38.380954 1  18              Rx   d 8 00 00 00 00 00 00 00 00
 40.269828 1  15              Rx   d 8 44 40 00 00 03 03 00 00
 40.270990 1  10              Rx   d 8 91 74 2A 00 0F 00 32 00
 40.299003 1  14              Rx   d 8 18 63 28 57 60 00 00 00
 40.299304 1  16              Rx   d 8 01 00 00 00 00 00 00 00
 40.300423 1  11              Rx   d 8 78 D6 28 00 01 00 32 00
 40.300724 1  18              Rx   d 8 00 00 00 00 00 00 00 00
 42.189371 1  15              Rx   d 8 44 40 00 00 03 03 00 00
 42.190576 1  10              Rx   d 8 77 74 2A 00 1C 00 32 00
 42.218588 1  14              Rx   d 8 20 63 28 57 60 01 00 00
 42.218846 1  16              Rx   d 8 01 00 01 00 00 00 00 00
 42.220008 1  11              Rx   d 8 79 D6 28 00 01 00 32 00
 42.220266 1  18              Rx   d 8 00 00 00 00 00 00 00 00
 44.108999 1  15              Rx   d 8 44 40 00 00 03 03 00 00
 44.110161 1  10              Rx   d 8 48 74 2A 00 07 00 31 00
 44.138173 1  14              Rx   d 8 20 63 28 57 60 00 00 00
 44.138475 1  16              Rx   d 8 01 00 00 00 00 00 00 00
 44.139593 1  11              Rx   d 8 7A D6 28 00 01 00 30 00
 44.139895 1  18              Rx   d 8 00 00 00 00 00 00 00 00
 46.028584 1  15              Rx   d 8 44 40 00 00 03 03 00 00
 46.029746 1  10              Rx   d 8 68 74 2A 00 07 00 30 00
 46.057759 1  14              Rx   d 8 20 63 28 57 60 00 00 00
 46.058017 1  16              Rx   d 8 01 00 00 00 00 00 00 00
 46.059179 1  11              Rx   d 8 7D D6 28 00 01 00 31 00
 46.059437 1  18              Rx   d 8 00 00 00 00 00 00 00 00
 47.948256 1  15              Rx   d 8 44 40 00 00 03 03 00 00
 47.949460 1  10              Rx   d 8 7B 74 2A 00 07 00 32 00
 47.977473 1  14              Rx   d 8 20 63 28 57 60 00 00 00
 47.977731 1  16              Rx   d 8 01 00 00 00 00 00 00 00
 47.978893 1  11              Rx   d 8 7D D6 28 00 01 00 32 00
 47.979151 1  18              Rx   d 8 00 00 00 00 00 00 00 00
 49.868056 1  15              Rx   d 8 44 40 00 00 03 03 00 00
 49.869218 1  10              Rx   d 8 77 74 2A 00 07 00 31 00
 49.897230 1  14              Rx   d 8 20 63 28 57 60 00 00 00
 49.897532 1  16              Rx   d 8 01 00 00 00 00 00 00 00
 49.898693 1  11              Rx   d 8 7E D6 28 00 01 00 32 00
 49.898952 1  18              Rx   d 8 00 00 00 00 00 00 00 00
 60.083162 1  10              Rx   d 8 49 54 00 00 01 00 00 00
 61.889664 1  15              Rx   d 8 44 40 00 00 03 03 00 00
 61.890826 1  10              Rx   d 8 98 74 2A 00 09 00 32 00
 61.918752 1  14              Rx   d 8 18 63 34 57 5F 00 00 00
 61.919011 1  16              Rx   d 8 01 00 00 00 00 00 00 00
 61.920172 1  11              Rx   d 8 84 D6 28 00 01 00 31 00
 61.920474 1  18              Rx   d 8 00 00 00 00 00 00 00 00
 63.809421 1  15              Rx   d 8 44 40 00 00 03 03 00 00
 63.810583 1  10              Rx   d 8 91 74 2A 00 09 00 30 00
 63.838510 1  14              Rx   d 8 20 63 28 57 60 00 00 00
 63.838811 1  16              Rx   d 8 01 00 00 00 00 00 00 00
 63.839930 1  11              Rx   d 8 84 D6 28 00 01 00 32 00
 63.840231 1  18              Rx   d 8 00 00 00 00 00 00 00 00
 65.729504 1  15              Rx   d 8 44 40 00 00 03 03 00 00
 65.730666 1  10              Rx   d 8 94 74 2A 00 0C 00 32 00
 65.758597 1  14              Rx   d 8 14 63 28 57 60 00 00 00
 65.758855 1  16              Rx   d 8 01 00 00 00 00 00 00 00
 65.760017 1  11              Rx   d 8 85 D6 28 00 01 00 30 00
 65.760275 1  18              Rx   d 8 00 00 00 00 00 00 00 00
 67.649660 1  15              Rx   d 8 44 40 00 00 03 03 00 00
 67.650822 1  10              Rx   d 8 95 74 2A 00 05 00 31 00
 67.678753 1  14              Rx   d 8 20 63 34 57 60 00 00 00
 67.679011 1  16              Rx   d 8 01 00 00 00 00 00 00 00
 67.680173 1  11              Rx   d 8 84 D6 28 00 01 00 32 00
 67.680431 1  18              Rx   d 8 00 00 00 00 00 00 00 00
 69.569656 1  15              Rx   d 8 44 40 00 00 03 03 00 00
 69.570848 1  10              Rx   d 8 98 74 2A 00 04 00 31 00
 69.598822 1  14              Rx   d 8 20 63 28 57 60 00 00 00
 69.599080 1  16              Rx   d 8 01 00 00 00 00 00 00 00
 69.600242 1  11              Rx   d 8 84 D6 28 00 01 00 31 00
 69.600501 1  18              Rx   d 8 00 00 00 00 00 00 00 00
 71.489812 1  15              Rx   d 8 44 40 00 00 03 03 00 00
 71.490974 1  10              Rx   d 8 9B 74 2A 00 06 00 32 00
 71.518905 1  14              Rx   d 8 18 63 6C 57 60 00 00 00
 71.519163 1  16              Rx   d 8 01 00 00 00 00 00 00 00
 71.520325 1  11              Rx   d 8 85 D6 28 00 01 00 32 00
 71.520583 1  18              Rx   d 8 00 00 00 00 00 00 00 00
 73.409968 1  15              Rx   d 8 4C 40 00 00 03 03 00 00
 73.411130 1  10              Rx   d 8 94 74 2A 00 05 00 32 00
 73.440094 1  14              Rx   d 8 18 63 6C 57 60 00 00 00
 73.440352 1  16              Rx   d 8 01 00 00 00 00 00 00 00
 73.441514 1  11              Rx   d 8 86 D6 28 00 01 00 31 00
 73.441772 1  18              Rx   d 8 00 00 00 00 00 00 00 00
 75.309896 1  15              Rx   d 8 44 40 00 00 03 03 00 00
 75.311058 1  10              Rx   d 8 A4 74 2A 00 09 00 32 00
 75.338989 1  14              Rx   d 8 20 63 28 57 5F 00 00 00
 75.339247 1  16              Rx   d 8 01 00 00 00 00 00 00 00
 75.340409 1  11              Rx   d 8 86 D6 28 00 01 00 32 00
 75.340668 1  18              Rx   d 8 00 00 00 00 00 00 00 00
 77.229794 1  15              Rx   d 8 44 40 00 00 03 03 00 00
 77.230999 1  10              Rx   d 8 B0 74 2A 00 0B 00 32 00
 77.258887 1  14              Rx   d 8 18 63 6C 57 60 02 00 00
 77.259145 1  16              Rx   d 8 01 00 01 00 00 00 00 00
 77.260307 1  11              Rx   d 8 85 D6 28 00 01 00 31 00
 77.260565 1  18              Rx   d 8 00 00 00 00 00 00 00 00
 79.149648 1  15              Rx   d 8 44 40 00 00 03 03 00 00
 79.150853 1  10              Rx   d 8 A5 74 2A 00 09 00 32 00
 79.178741 1  14              Rx   d 8 18 63 28 57 60 01 00 00
 79.178999 1  16              Rx   d 8 01 00 01 00 00 00 00 00
 79.180161 1  11              Rx   d 8 85 D6 28 00 01 00 30 00
 79.180420 1  18              Rx   d 8 00 00 00 00 00 00 00 00
 81.069589 1  15              Rx   d 8 44 40 00 00 03 03 00 00
 81.070751 1  10              Rx   d 8 B9 74 2A 00 05 00 31 00
 81.098682 1  14              Rx   d 8 18 63 28 57 60 00 00 00
 81.098940 1  16              Rx   d 8 01 00 00 00 00 00 00 00
 81.100102 1  11              Rx   d 8 85 D6 28 00 01 00 31 00
 81.100360 1  18              Rx   d 8 00 00 00 00 00 00 00 00
 82.989443 1  15              Rx   d 8 44 40 00 00 03 03 00 00
 82.990648 1  10              Rx   d 8 BE 74 2A 00 04 00 32 00
 83.018536 1  14              Rx   d 8 18 63 28 57 60 00 00 00
 83.018837 1  16              Rx   d 8 01 00 00 00 00 00 00 00
 83.019956 1  11              Rx   d 8 85 D6 28 00 01 00 32 00
 83.020258 1  18              Rx   d 8 00 00 00 00 00 00 00 00
 84.909341 1  15              Rx   d 8 44 40 00 00 03 03 00 00
 84.910503 1  10              Rx   d 8 C1 74 2A 00 03 00 32 00
 84.938434 1  14              Rx   d 8 18 63 28 57 60 01 00 00
 84.938692 1  16              Rx   d 8 01 00 01 00 00 00 00 00
 84.939854 1  11              Rx   d 8 85 D6 28 00 01 00 31 00
 84.940112 1  18              Rx   d 8 00 00 00 00 00 00 00 00
 86.829238 1  15              Rx   d 8 44 40 00 00 03 03 00 00
 86.830443 1  10              Rx   d 8 C6 74 2A 00 05 00 32 00
 86.858331 1  14              Rx   d 8 18 63 28 57 60 01 00 00
 86.858633 1  16              Rx   d 8 01 00 01 00 00 00 00 00
 86.859795 1  11              Rx   d 8 85 D6 28 00 01 00 31 00
 86.860053 1  18              Rx   d 8 00 00 00 00 00 00 00 00
 88.749308 1  15              Rx   d 8 44 40 00 00 03 03 00 00
 88.750470 1  10              Rx   d 8 C6 74 2A 00 08 00 32 00
 88.779391 1  14              Rx   d 8 18 63 28 57 60 00 00 00
 88.779649 1  16              Rx   d 8 01 00 00 00 00 00 00 00
 88.780811 1  11              Rx   d 8 85 D6 28 00 01 00 31 00
 88.781069 1  18              Rx   d 8 00 00 00 00 00 00 00 00
 90.649465 1  15              Rx   d 8 44 40 00 00 03 03 00 00
 90.650626 1  10              Rx   d 8 C6 74 2A 00 05 00 32 00
 90.678558 1  14              Rx   d 8 18 63 28 57 5F 00 00 00
 90.678816 1  16              Rx   d 8 01 00 00 00 00 00 00 00
 90.679978 1  11              Rx   d 8 86 D6 28 00 01 00 32 00
 90.680236 1  18              Rx   d 8 00 00 00 00 00 00 00 00
 92.569534 1  15              Rx   d 8 44 40 00 00 03 03 00 00
 92.570696 1  10              Rx   d 8 CA 74 2A 00 03 00 2F 00
 92.598627 1  14              Rx   d 8 20 63 28 57 60 00 00 00
 92.598928 1  16              Rx   d 8 01 00 00 00 00 00 00 00
 92.600047 1  11              Rx   d 8 86 D6 28 00 01 00 31 00
 92.600349 1  18              Rx   d 8 00 00 00 00 00 00 00 00
 94.489647 1  15              Rx   d 8 44 40 00 00 03 03 00 00
 94.490809 1  10              Rx   d 8 CB 74 2A 00 03 00 30 00
 94.518740 1  14              Rx   d 8 20 63 28 57 60 01 00 00
 94.518998 1  16              Rx   d 8 01 00 01 00 00 00 00 00
 94.520160 1  11              Rx   d 8 85 D6 28 00 01 00 31 00
 94.520418 1  18              Rx   d 8 00 00 00 00 00 00 00 00
 96.409889 1  15              Rx   d 8 44 40 00 00 03 03 00 00
 96.411051 1  10              Rx   d 8 CD 74 2A 00 05 00 32 00
 96.438982 1  14              Rx   d 8 20 63 E8 56 60 00 00 00
 96.439240 1  16              Rx   d 8 01 00 00 00 00 00 00 00
 96.440402 1  11              Rx   d 8 86 D6 28 00 01 00 31 00
 96.440660 1  18              Rx   d 8 00 00 00 00 00 00 00 00
 98.330260 1  15              Rx   d 8 44 40 00 00 03 03 00 00
 98.331422 1  10              Rx   d 8 D0 74 2A 00 04 00 31 00
 98.359353 1  14              Rx   d 8 24 63 28 57 60 00 00 00
 98.359654 1  16              Rx   d 8 01 00 00 00 00 00 00 00
 98.360773 1  11              Rx   d 8 86 D6 28 00 01 00 31 00
 98.361074 1  18              Rx   d 8 00 00 00 00 00 00 00 00
 100.250717 1  15              Rx   d 8 44 40 00 00 03 03 00 00
 100.251879 1  10              Rx   d 8 C9 74 2A 00 03 00 31 00
 100.279810 1  14              Rx   d 8 20 63 28 57 60 00 00 00
 100.280068 1  16              Rx   d 8 01 00 00 00 00 00 00 00
 100.281230 1  11              Rx   d 8 87 D6 28 00 01 00 32 00
 100.281531 1  18              Rx   d 8 00 00 00 00 00 00 00 00
 102.171088 1  15              Rx   d 8 44 40 00 00 03 03 00 00
 102.172250 1  10              Rx   d 8 CD 74 2A 00 0B 00 32 00
 102.200181 1  14              Rx   d 8 24 63 28 57 60 01 00 00
 102.200439 1  16              Rx   d 8 01 00 01 00 00 00 00 00
 102.201601 1  11              Rx   d 8 86 D6 28 00 01 00 32 00
 102.201859 1  18              Rx   d 8 00 00 00 00 00 00 00 00
 104.091372 1  15              Rx   d 8 44 40 00 00 03 03 00 00
 104.092534 1  10              Rx   d 8 B5 74 2A 00 06 00 31 00
 104.121455 1  14              Rx   d 8 24 63 28 57 60 01 00 00
 104.121757 1  16              Rx   d 8 01 00 01 00 00 00 00 00
 104.122919 1  11              Rx   d 8 86 D6 28 00 01 00 31 00
 104.123177 1  18              Rx   d 8 00 00 00 00 00 00 00 00
 105.991559 1  15              Rx   d 8 4C 40 00 00 03 03 00 00
 105.992721 1  10              Rx   d 8 B8 74 2A 00 07 00 31 00
 106.020652 1  14              Rx   d 8 20 63 28 57 5F 00 00 00
 106.020910 1  16              Rx   d 8 01 00 00 00 00 00 00 00
 106.022072 1  11              Rx   d 8 87 D6 28 00 01 00 32 00
 106.022331 1  18              Rx   d 8 00 00 00 00 00 00 00 00
 107.911930 1  15              Rx   d 8 44 40 00 00 03 03 00 00
 107.913092 1  10              Rx   d 8 AF 74 2A 00 0D 00 32 00
 107.941023 1  14              Rx   d 8 20 63 28 57 60 00 00 00
 107.941324 1  16              Rx   d 8 01 00 00 00 00 00 00 00
 107.942486 1  11              Rx   d 8 87 D6 28 00 02 00 31 00
 107.942745 1  18              Rx   d 8 00 00 00 00 00 00 00 00
 109.832357 1  15              Rx   d 8 44 40 00 00 03 03 00 00
 109.833519 1  10              Rx   d 8 A1 74 2A 00 06 00 32 00
 109.861450 1  14              Rx   d 8 20 63 28 57 60 00 00 00
 109.861708 1  16              Rx   d 8 01 00 00 00 00 00 00 00
 109.862870 1  11              Rx   d 8 87 D6 28 00 02 00 32 00
 109.863128 1  18              Rx   d 8 00 00 00 00 00 00 00 00
 111.752728 1  15              Rx   d 8 44 40 00 00 03 03 00 00
 111.753890 1  10              Rx   d 8 A6 74 2A 00 04 00 31 00
 111.781864 1  14              Rx   d 8 20 63 28 57 60 00 00 00
 111.782122 1  16              Rx   d 8 01 00 00 00 00 00 00 00
 111.783284 1  11              Rx   d 8 87 D6 28 00 01 00 32 00
 111.783542 1  18              Rx   d 8 00 00 00 00 00 00 00 00
 113.673013 1  15              Rx   d 8 44 40 00 00 03 03 00 00
 113.674175 1  10              Rx   d 8 A5 74 2A 00 05 00 31 00
 113.702106 1  14              Rx   d 8 24 63 28 57 60 01 00 00
 113.702407 1  16              Rx   d 8 01 00 01 00 00 00 00 00
 113.703526 1  11              Rx   d 8 88 D6 28 00 01 00 32 00
 113.703827 1  18              Rx   d 8 00 00 00 00 00 00 00 00
 115.593298 1  15              Rx   d 8 44 40 00 00 03 03 00 00
 115.594460 1  10              Rx   d 8 A8 74 2A 00 06 00 31 00
 115.622391 1  14              Rx   d 8 20 63 E8 56 60 01 00 00
 115.622649 1  16              Rx   d 8 01 00 01 00 00 00 00 00
 115.623811 1  11              Rx   d 8 88 D6 28 00 01 00 32 00
 115.624112 1  18              Rx   d 8 00 00 00 00 00 00 00 00
 117.513496 1  15              Rx   d 8 44 40 00 00 03 03 00 00
 117.514615 1  10              Rx   d 8 AB 74 2A 00 05 00 30 00
 117.542590 1  14              Rx   d 8 20 63 E8 56 60 00 00 00
 117.542848 1  16              Rx   d 8 01 00 00 00 00 00 00 00
 117.544010 1  11              Rx   d 8 89 D6 28 00 01 00 32 00
 117.544268 1  18              Rx   d 8 00 00 00 00 00 00 00 00
 119.433566 1  15              Rx   d 8 44 40 00 00 03 03 00 00
 119.434771 1  10              Rx   d 8 A8 74 2A 00 05 00 32 00
 119.462702 1  14              Rx   d 8 20 63 E8 56 60 00 00 00
 119.462960 1  16              Rx   d 8 01 00 00 00 00 00 00 00
 119.464122 1  11              Rx   d 8 89 D6 28 00 01 00 31 00
 119.464381 1  18              Rx   d 8 00 00 00 00 00 00 00 00
 121.353722 1  15              Rx   d 8 4C 40 00 00 03 03 00 00
 121.354884 1  10              Rx   d 8 B0 74 2A 00 05 00 31 00
 121.383805 1  14              Rx   d 8 24 63 E8 56 60 00 00 00
 121.384063 1  16              Rx   d 8 01 00 00 00 00 00 00 00
 121.385225 1  11              Rx   d 8 89 D6 28 00 01 00 32 00
 121.385483 1  18              Rx   d 8 00 00 00 00 00 00 00 00
 123.253909 1  15              Rx   d 8 44 40 00 00 03 03 00 00
 123.255071 1  10              Rx   d 8 AF 74 2A 00 04 00 30 00
 123.283002 1  14              Rx   d 8 18 63 E8 56 5F 01 00 00
 123.283260 1  16              Rx   d 8 01 00 01 00 00 00 00 00
 123.284422 1  11              Rx   d 8 89 D6 28 00 01 00 31 00
 123.284680 1  18              Rx   d 8 00 00 00 00 00 00 00 00
 125.174107 1  15              Rx   d 8 44 40 00 00 03 03 00 00
 125.175269 1  10              Rx   d 8 B1 74 2A 00 03 00 31 00
 125.203200 1  14              Rx   d 8 24 63 E8 56 60 01 00 00
 125.203459 1  16              Rx   d 8 01 00 01 00 00 00 00 00
 125.204621 1  11              Rx   d 8 89 D6 28 00 01 00 32 00
 125.204879 1  18              Rx   d 8 00 00 00 00 00 00 00 00
 127.094263 1  15              Rx   d 8 44 40 00 00 03 03 00 00
 127.095425 1  10              Rx   d 8 B4 74 2A 00 06 00 32 00
 127.123356 1  14              Rx   d 8 20 63 E8 56 60 00 00 00
 127.123614 1  16              Rx   d 8 01 00 00 00 00 00 00 00
 127.124776 1  11              Rx   d 8 8A D6 28 00 01 00 32 00
 127.125035 1  18              Rx   d 8 00 00 00 00 00 00 00 00
 129.014389 1  15              Rx   d 8 44 40 00 00 03 03 00 00
 129.015551 1  10              Rx   d 8 B5 74 2A 00 04 00 32 00
 129.043482 1  14              Rx   d 8 2C 63 E8 56 60 00 00 00
 129.043740 1  16              Rx   d 8 01 00 00 00 00 00 00 00
 129.044902 1  11              Rx   d 8 8A D6 28 00 01 00 31 00
 129.045160 1  18              Rx   d 8 00 00 00 00 00 00 00 00
 130.934458 1  15              Rx   d 8 44 40 00 00 03 03 00 00
 130.935620 1  10              Rx   d 8 B4 74 2A 00 04 00 31 00
 130.963552 1  14              Rx   d 8 20 63 E8 56 60 00 00 00
 130.963810 1  16              Rx   d 8 01 00 00 00 00 00 00 00
 130.964972 1  11              Rx   d 8 8B D6 28 00 01 00 30 00
 130.965230 1  18              Rx   d 8 00 00 00 00 00 00 00 00
 132.854614 1  15              Rx   d 8 44 40 00 00 03 03 00 00
 132.855819 1  10              Rx   d 8 B2 74 2A 00 05 00 32 00
 132.883750 1  14              Rx   d 8 20 63 E8 56 60 00 00 00
 132.884009 1  16              Rx   d 8 01 00 00 00 00 00 00 00
 132.885171 1  11              Rx   d 8 8B D6 28 00 01 00 32 00
 132.885429 1  18              Rx   d 8 00 00 00 00 00 00 00 00
 134.774856 1  15              Rx   d 8 44 40 00 00 03 03 00 00
 134.776061 1  10              Rx   d 8 AC 74 2A 00 07 00 32 00
 134.803949 1  14              Rx   d 8 20 63 E8 56 60 00 00 00
 134.804250 1  16              Rx   d 8 01 00 00 00 00 00 00 00
 134.805412 1  11              Rx   d 8 8B D6 28 00 01 00 32 00
 134.805671 1  18              Rx   d 8 00 00 00 00 00 00 00 00
 136.695055 1  15              Rx   d 8 44 40 00 00 03 03 00 00
 136.696217 1  10              Rx   d 8 AB 74 2A 00 04 00 31 00
 136.725138 1  14              Rx   d 8 20 63 28 57 60 00 00 00
 136.725439 1  16              Rx   d 8 01 00 00 00 00 00 00 00
 136.726601 1  11              Rx   d 8 8B D6 28 00 01 00 32 00
 136.726859 1  18              Rx   d 8 00 00 00 00 00 00 00 00
 138.595112 1  15              Rx   d 8 44 40 00 00 03 03 00 00
 138.596274 1  10              Rx   d 8 A6 74 2A 00 05 00 2F 00
 138.624248 1  14              Rx   d 8 24 63 E8 56 5F 00 00 00
 138.624507 1  16              Rx   d 8 01 00 00 00 00 00 00 00
 138.625669 1  11              Rx   d 8 8C D6 28 00 01 00 31 00
 138.625927 1  18              Rx   d 8 00 00 00 00 00 00 00 00
 140.515096 1  15              Rx   d 8 44 40 00 00 03 03 00 00
 140.516258 1  10              Rx   d 8 B2 74 2A 00 07 00 32 00
 140.544189 1  14              Rx   d 8 24 63 E8 56 60 01 00 00
 140.544447 1  16              Rx   d 8 01 00 01 00 00 00 00 00
 140.545609 1  11              Rx   d 8 8B D6 28 00 02 00 30 00
 140.545867 1  18              Rx   d 8 00 00 00 00 00 00 00 00
 142.435037 1  15              Rx   d 8 44 40 00 00 03 03 00 00
 142.436199 1  10              Rx   d 8 A3 74 2A 00 04 00 31 00
 142.464130 1  14              Rx   d 8 20 63 28 57 60 01 00 00
 142.464388 1  16              Rx   d 8 01 00 01 00 00 00 00 00
 142.465550 1  11              Rx   d 8 8C D6 28 00 01 00 32 00
 142.465808 1  18              Rx   d 8 00 00 00 00 00 00 00 00
 144.355149 1  15              Rx   d 8 44 40 00 00 03 03 00 00
 144.356354 1  10              Rx   d 8 BA 74 2A 00 05 00 32 00
 144.384285 1  14              Rx   d 8 24 63 E8 56 60 00 00 00
 144.384544 1  16              Rx   d 8 01 00 00 00 00 00 00 00
 144.385706 1  11              Rx   d 8 8D D6 28 00 01 00 32 00
 144.385964 1  18              Rx   d 8 00 00 00 00 00 00 00 00
 146.275305 1  15              Rx   d 8 44 40 00 00 03 03 00 00
 146.276467 1  10              Rx   d 8 BD 74 2A 00 04 00 30 00
 146.304398 1  14              Rx   d 8 24 63 28 57 60 00 00 00
 146.304656 1  16              Rx   d 8 01 00 00 00 00 00 00 00
 146.305818 1  11              Rx   d 8 8D D6 28 00 01 00 2F 00
 146.306076 1  18              Rx   d 8 00 00 00 00 00 00 00 00
 148.195129 1  15              Rx   d 8 44 40 00 00 03 03 00 00
 148.196291 1  10              Rx   d 8 BB 74 2A 00 04 00 31 00
 148.224223 1  14              Rx   d 8 24 63 28 57 60 00 00 00
 148.224524 1  16              Rx   d 8 01 00 00 00 00 00 00 00
 148.225643 1  11              Rx   d 8 8C D6 28 00 01 00 31 00
 148.225944 1  18              Rx   d 8 00 00 00 00 00 00 00 00
 150.115070 1  15              Rx   d 8 44 40 00 00 03 03 00 00
 150.116275 1  10              Rx   d 8 BE 74 2A 00 06 00 32 00
 150.144163 1  14              Rx   d 8 2C 63 E8 56 60 00 00 00
 150.144464 1  16              Rx   d 8 01 00 00 00 00 00 00 00
 150.145583 1  11              Rx   d 8 8C D6 28 00 01 00 31 00
 150.145885 1  18              Rx   d 8 00 00 00 00 00 00 00 00
 152.035054 1  15              Rx   d 8 44 40 00 00 03 03 00 00
 152.036216 1  10              Rx   d 8 BD 74 2A 00 06 00 32 00
 152.065180 1  14              Rx   d 8 24 63 28 57 60 00 00 00
 152.065438 1  16              Rx   d 8 01 00 00 00 00 00 00 00
 152.066557 1  11              Rx   d 8 8C D6 28 00 01 00 32 00
 152.066858 1  18              Rx   d 8 00 00 00 00 00 00 00 00
 153.935068 1  15              Rx   d 8 4C 40 00 00 03 03 00 00
 153.936230 1  10              Rx   d 8 B8 74 2A 00 04 00 31 00
 153.964161 1  14              Rx   d 8 20 63 E8 56 5F 01 00 00
 153.964419 1  16              Rx   d 8 01 00 01 00 00 00 00 00
 153.965581 1  11              Rx   d 8 8D D6 28 00 01 00 32 00
 153.965840 1  18              Rx   d 8 00 00 00 00 00 00 00 00
 155.855052 1  15              Rx   d 8 44 40 00 00 03 03 00 00
 155.856214 1  10              Rx   d 8 C1 74 2A 00 05 00 31 00
 155.884145 1  14              Rx   d 8 24 63 E8 56 60 00 00 00
 155.884403 1  16              Rx   d 8 01 00 00 00 00 00 00 00
 155.885565 1  11              Rx   d 8 8C D6 28 00 01 00 32 00
 155.885823 1  18              Rx   d 8 00 00 00 00 00 00 00 00
 157.775078 1  15              Rx   d 8 44 40 00 00 03 03 00 00
 157.776240 1  10              Rx   d 8 BE 74 2A 00 04 00 31 00
 157.804171 1  14              Rx   d 8 24 63 E8 56 60 00 00 00
 157.804430 1  16              Rx   d 8 01 00 00 00 00 00 00 00
 157.805592 1  11              Rx   d 8 8D D6 28 00 01 00 31 00
 157.805850 1  18              Rx   d 8 00 00 00 00 00 00 00 00
 159.695148 1  15              Rx   d 8 44 40 00 00 03 03 00 00
 159.696310 1  10              Rx   d 8 C1 74 2A 00 08 00 32 00
 159.724241 1  14              Rx   d 8 24 63 E8 56 60 01 00 00
 159.724499 1  16              Rx   d 8 01 00 01 00 00 00 00 00
 159.725661 1  11              Rx   d 8 8D D6 28 00 01 00 31 00
 159.725920 1  18              Rx   d 8 00 00 00 00 00 00 00 00
 161.615218 1  15              Rx   d 8 44 40 00 00 03 03 00 00
 161.616380 1  10              Rx   d 8 BA 74 2A 00 0A 00 32 00
 161.644311 1  14              Rx   d 8 20 63 E8 56 60 00 00 00
 161.644569 1  16              Rx   d 8 01 00 00 00 00 00 00 00
 161.645731 1  11              Rx   d 8 8E D6 28 00 01 00 32 00
 161.645989 1  18              Rx   d 8 00 00 00 00 00 00 00 00
 163.535244 1  15              Rx   d 8 44 40 00 00 03 03 00 00
 163.536406 1  10              Rx   d 8 C2 74 2A 00 04 00 32 00
 163.564337 1  14              Rx   d 8 2C 63 E8 56 60 00 00 00
 163.564596 1  16              Rx   d 8 01 00 00 00 00 00 00 00
 163.565758 1  11              Rx   d 8 8E D6 28 00 01 00 31 00
 163.566059 1  18              Rx   d 8 00 00 00 00 00 00 00 00
 165.455142 1  15              Rx   d 8 44 40 00 00 03 03 00 00
 165.456347 1  10              Rx   d 8 C4 74 2A 00 04 00 31 00
 165.484278 1  14              Rx   d 8 20 63 E8 56 60 00 00 00
 165.484536 1  16              Rx   d 8 01 00 00 00 00 00 00 00
 165.485698 1  11              Rx   d 8 8E D6 28 00 01 00 31 00
 165.485956 1  18              Rx   d 8 00 00 00 00 00 00 00 00
 167.375354 1  15              Rx   d 8 44 40 00 00 03 03 00 00
 167.376516 1  10              Rx   d 8 BF 74 2A 00 05 00 32 00
 167.404447 1  14              Rx   d 8 24 63 E8 56 60 00 00 00
 167.404705 1  16              Rx   d 8 01 00 00 00 00 00 00 00
 167.405867 1  11              Rx   d 8 8E D6 28 00 01 00 31 00
 167.406125 1  18              Rx   d 8 00 00 00 00 00 00 00 00
 169.295423 1  15              Rx   d 8 4C 40 00 00 03 03 00 00
 169.296585 1  10              Rx   d 8 C0 74 2A 00 03 00 32 00
