date Mon Feb 05 09:27:49.639 PM 2024
base hex  timestamps absolute
internal events logged
Begin Triggerblock Mon Feb 05 09:27:51.917 PM 2024
 0.000000 Start of measurement
 0.000000 1  15              Rx   d 8 4C 40 00 00 02 02 00 00
 0.000258 1  10              Rx   d 8 4A 42 29 00 00 00 32 00
 0.027841 1  14              Rx   d 8 6C 63 A4 55 A9 87 00 00
 0.028100 1  16              Rx   d 8 01 00 01 00 00 00 00 00
 0.029261 1  11              Rx   d 8 DE E4 28 00 00 00 31 00
 0.029520 1  18              Rx   d 8 00 00 00 00 00 00 00 00
 0.029778 1  15              Rx   d 8 4C 40 00 00 02 02 00 00
 0.030940 1  10              Rx   d 8 43 42 29 00 01 00 31 00
 0.058824 1  14              Rx   d 8 6C 63 A4 55 01 01 00 00
 0.059083 1  16              Rx   d 8 01 00 01 00 00 00 00 00
 0.060244 1  11              Rx   d 8 DE E4 28 00 00 00 31 00
 0.060503 1  18              Rx   d 8 00 00 00 00 00 00 00 00
 0.895969 1  15              Rx   d 8 4C 40 00 00 02 02 00 00
 0.897131 1  10              Rx   d 8 45 42 29 00 03 00 32 00
 0.924585 1  14              Rx   d 8 6C 63 A4 55 15 11 00 00
 0.924886 1  16              Rx   d 8 01 00 01 00 00 00 00 00
 0.926005 1  11              Rx   d 8 DE E4 28 00 00 00 31 00
 0.926307 1  18              Rx   d 8 00 00 00 00 00 00 00 00
 3.455318 1  15              Rx   d 8 44 40 00 00 02 02 00 00
 3.456480 1  10              Rx   d 8 4A 42 29 00 00 00 32 00
 3.483978 1  14              Rx   d 8 6C 63 60 55 40 33 00 00
 3.484236 1  16              Rx   d 8 01 00 01 00 00 00 00 00
 3.485398 1  11              Rx   d 8 DE E4 28 00 01 00 31 00
 3.485656 1  18              Rx   d 8 00 00 00 00 00 00 00 00
 6.014836 1  15              Rx   d 8 4C 40 00 00 02 02 00 00
 6.015997 1  10              Rx   d 8 4A 42 29 00 00 00 32 00
 6.043495 1  14              Rx   d 8 6C 63 60 55 40 33 00 00
 6.043753 1  16              Rx   d 8 01 00 01 00 00 00 00 00
 6.044915 1  11              Rx   d 8 DE E4 28 00 01 00 31 00
 6.045173 1  18              Rx   d 8 00 00 00 00 00 00 00 00
 8.534449 1  15              Rx   d 8 4C 40 00 00 02 02 00 00
 8.535611 1  10              Rx   d 8 4A 42 29 00 00 00 32 00
 8.563108 1  14              Rx   d 8 64 63 60 55 3F 33 00 00
 8.563367 1  16              Rx   d 8 01 00 01 00 00 00 00 00
 8.564528 1  11              Rx   d 8 DD E4 28 00 01 00 32 00
 8.564787 1  18              Rx   d 8 00 00 00 00 00 00 00 00
 11.094126 1  15              Rx   d 8 4C 40 00 00 02 02 00 00
 11.095287 1  10              Rx   d 8 4A 42 29 00 00 00 32 00
 11.122785 1  14              Rx   d 8 6C 63 60 55 40 33 00 00
 11.123043 1  16              Rx   d 8 01 00 01 00 00 00 00 00
 11.124205 1  11              Rx   d 8 DD E4 28 00 01 00 32 00
 11.124506 1  18              Rx   d 8 00 00 00 00 00 00 00 00
 13.653944 1  15              Rx   d 8 44 40 00 00 02 02 00 00
 13.655063 1  10              Rx   d 8 4A 42 29 00 00 00 32 00
 13.682560 1  14              Rx   d 8 6C 63 60 55 40 33 00 00
 13.682818 1  16              Rx   d 8 01 00 01 00 00 00 00 00
 13.683980 1  11              Rx   d 8 DE E4 28 00 01 00 31 00
 13.684282 1  18              Rx   d 8 00 00 00 00 00 00 00 00
 16.213448 1  15              Rx   d 8 4C 40 00 00 02 02 00 00
 16.214610 1  10              Rx   d 8 4A 42 29 00 00 00 32 00
 16.242065 1  14              Rx   d 8 70 63 20 55 40 33 00 00
 16.242366 1  16              Rx   d 8 01 00 01 00 00 00 00 00
 16.243485 1  11              Rx   d 8 DE E4 28 00 01 00 32 00
 16.243786 1  18              Rx   d 8 00 00 00 00 00 00 00 00
 18.732860 1  15              Rx   d 8 4C 40 00 00 02 02 00 00
 18.734022 1  10              Rx   d 8 4A 42 29 00 00 00 32 00
 18.761519 1  14              Rx   d 8 6C 63 20 55 3F 33 00 00
 18.761777 1  16              Rx   d 8 01 00 01 00 00 00 00 00
 18.762939 1  11              Rx   d 8 DE E4 28 00 01 00 32 00
 18.763197 1  18              Rx   d 8 00 00 00 00 00 00 00 00
 21.292450 1  15              Rx   d 8 4C 40 00 00 02 02 00 00
 21.293612 1  10              Rx   d 8 4A 42 29 00 00 00 32 00
 21.321109 1  14              Rx   d 8 6C 63 20 55 40 33 00 00
 21.321368 1  16              Rx   d 8 01 00 01 00 00 00 00 00
 21.322529 1  11              Rx   d 8 DE E4 28 00 01 00 32 00
 21.322788 1  18              Rx   d 8 00 00 00 00 00 00 00 00
 23.852010 1  15              Rx   d 8 44 40 00 00 02 02 00 00
 23.853172 1  10              Rx   d 8 4A 42 29 00 00 00 32 00
 23.880670 1  14              Rx   d 8 6C 63 20 55 40 33 00 00
 23.880928 1  16              Rx   d 8 01 00 01 00 00 00 00 00
 23.882090 1  11              Rx   d 8 DE E4 28 00 01 00 32 00
 23.882348 1  18              Rx   d 8 00 00 00 00 00 00 00 00
 26.411558 1  15              Rx   d 8 4C 40 00 00 02 02 00 00
 26.412763 1  10              Rx   d 8 4A 42 29 00 00 00 32 00
 26.440217 1  14              Rx   d 8 70 63 60 55 40 33 00 00
 26.440518 1  16              Rx   d 8 01 00 01 00 00 00 00 00
 26.441637 1  11              Rx   d 8 DE E4 28 00 01 00 31 00
 26.441938 1  18              Rx   d 8 00 00 00 00 00 00 00 00
 28.931055 1  15              Rx   d 8 4C 40 00 00 02 02 00 00
 28.932217 1  10              Rx   d 8 4A 42 29 00 00 00 32 00
 28.959715 1  14              Rx   d 8 6C 63 60 55 3F 33 00 00
 28.959973 1  16              Rx   d 8 01 00 01 00 00 00 00 00
 28.961135 1  11              Rx   d 8 DE E4 28 00 00 00 31 00
 28.961393 1  18              Rx   d 8 00 00 00 00 00 00 00 00
 31.490473 1  15              Rx   d 8 4C 40 00 00 02 02 00 00
 31.491635 1  10              Rx   d 8 4A 42 29 00 00 00 32 00
 31.519090 1  14              Rx   d 8 6C 63 60 55 40 33 00 00
 31.519391 1  16              Rx   d 8 01 00 01 00 00 00 00 00
 31.520510 1  11              Rx   d 8 DE E4 28 00 01 00 32 00
 31.520811 1  18              Rx   d 8 00 00 00 00 00 00 00 00
 34.049862 1  15              Rx   d 8 44 40 00 00 02 02 00 00
 34.051024 1  10              Rx   d 8 4A 42 29 00 00 00 32 00
 34.078521 1  14              Rx   d 8 70 63 60 55 40 33 00 00
 34.078779 1  16              Rx   d 8 01 00 01 00 00 00 00 00
 34.079941 1  11              Rx   d 8 DE E4 28 00 01 00 32 00
 34.080199 1  18              Rx   d 8 00 00 00 00 00 00 00 00
 36.609366 1  15              Rx   d 8 4C 40 00 00 02 02 00 00
 36.610528 1  10              Rx   d 8 4A 42 29 00 00 00 32 00
 36.637982 1  14              Rx   d 8 6C 63 60 55 40 33 00 00
 36.638283 1  16              Rx   d 8 01 00 01 00 00 00 00 00
 36.639445 1  11              Rx   d 8 E3 E4 28 00 26 00 31 00
 36.639703 1  18              Rx   d 8 00 00 00 00 00 00 00 00
 39.128950 1  15              Rx   d 8 4C 40 00 00 02 02 00 00
 39.130111 1  10              Rx   d 8 4A 42 29 00 00 00 32 00
 39.157609 1  14              Rx   d 8 6C 63 60 55 3F 33 00 00
 39.157867 1  16              Rx   d 8 01 00 01 00 00 00 00 00
 39.159029 1  11              Rx   d 8 DD E4 28 00 01 00 32 00
 39.159287 1  18              Rx   d 8 00 00 00 00 00 00 00 00
 41.688454 1  15              Rx   d 8 44 40 00 00 02 02 00 00
 41.689616 1  10              Rx   d 8 4A 42 29 00 00 00 32 00
 41.717070 1  14              Rx   d 8 6C 63 60 55 40 33 00 00
 41.717328 1  16              Rx   d 8 01 00 01 00 00 00 00 00
 41.718490 1  11              Rx   d 8 DD E4 28 00 00 00 32 00
 41.718748 1  18              Rx   d 8 00 00 00 00 00 00 00 00
 44.248014 1  15              Rx   d 8 4C 40 00 00 02 02 00 00
 44.249176 1  10              Rx   d 8 4A 42 29 00 00 00 32 00
 44.276630 1  14              Rx   d 8 6C 63 60 55 40 33 00 00
 44.276889 1  16              Rx   d 8 01 00 01 00 00 00 00 00
 44.278050 1  11              Rx   d 8 DD E4 28 00 01 00 31 00
 44.278352 1  18              Rx   d 8 00 00 00 00 00 00 00 00
 46.807561 1  15              Rx   d 8 4C 40 00 00 02 02 00 00
 46.808723 1  10              Rx   d 8 4A 42 29 00 00 00 32 00
 46.836221 1  14              Rx   d 8 70 63 60 55 40 33 00 00
 46.836479 1  16              Rx   d 8 01 00 01 00 00 00 00 00
 46.837641 1  11              Rx   d 8 DD E4 28 00 01 00 2F 00
 46.837899 1  18              Rx   d 8 00 00 00 00 00 00 00 00
 49.327208 1  15              Rx   d 8 4C 40 00 00 02 02 00 00
 49.328370 1  10              Rx   d 8 4A 42 29 00 00 00 32 00
 49.355873 1  14              Rx   d 8 64 63 60 55 3F 33 00 00
 49.356131 1  16              Rx   d 8 01 00 01 00 00 00 00 00
 49.357293 1  11              Rx   d 8 DD E4 28 00 01 00 31 00
 49.357552 1  18              Rx   d 8 00 00 00 00 00 00 00 00
 51.887247 1  15              Rx   d 8 44 40 00 00 02 02 00 00
 51.888409 1  10              Rx   d 8 4A 42 29 00 00 00 32 00
 51.915913 1  14              Rx   d 8 70 63 60 55 40 33 00 00
 51.916171 1  16              Rx   d 8 01 00 01 00 00 00 00 00
 51.917333 1  11              Rx   d 8 DD E4 28 00 01 00 32 00
 51.917591 1  18              Rx   d 8 00 00 00 00 00 00 00 00
 54.447300 1  15              Rx   d 8 4C 40 00 00 02 02 00 00
 54.448462 1  10              Rx   d 8 4A 42 29 00 00 00 32 00
 54.475995 1  14              Rx   d 8 64 63 60 55 40 33 00 00
 54.476296 1  16              Rx   d 8 01 00 01 00 00 00 00 00
 54.477416 1  11              Rx   d 8 DD E4 28 00 00 00 32 00
 54.477674 1  18              Rx   d 8 00 00 00 00 00 00 00 00
 57.007382 1  15              Rx   d 8 4C 40 00 00 02 02 00 00
 57.008502 1  10              Rx   d 8 4A 42 29 00 00 00 32 00
 57.036005 1  14              Rx   d 8 6C 63 20 55 40 33 00 00
 57.036263 1  16              Rx   d 8 01 00 01 00 00 00 00 00
 57.037425 1  11              Rx   d 8 DE E4 28 00 00 00 32 00
 57.037683 1  18              Rx   d 8 00 00 00 00 00 00 00 00
 59.527351 1  15              Rx   d 8 4C 40 00 00 02 02 00 00
 59.528513 1  10              Rx   d 8 49 42 29 00 01 00 32 00
 59.556016 1  14              Rx   d 8 64 63 20 55 3F 33 00 00
 59.556274 1  16              Rx   d 8 01 00 01 00 00 00 00 00
 59.557436 1  11              Rx   d 8 DD E4 28 00 01 00 32 00
 59.557695 1  18              Rx   d 8 00 00 00 00 00 00 00 00
 62.087403 1  15              Rx   d 8 44 40 00 00 02 02 00 00
 62.088566 1  10              Rx   d 8 49 42 29 00 01 00 32 00
 62.116069 1  14              Rx   d 8 6C 63 20 55 40 33 00 00
 62.116327 1  16              Rx   d 8 01 00 01 00 00 00 00 00
 62.117489 1  11              Rx   d 8 DC E4 28 00 01 00 31 00
 62.117747 1  18              Rx   d 8 00 00 00 00 00 00 00 00
 64.647529 1  15              Rx   d 8 4C 40 00 00 02 02 00 00
 64.648691 1  10              Rx   d 8 49 42 29 00 01 00 32 00
 64.676151 1  14              Rx   d 8 64 63 20 55 40 33 00 00
 64.676453 1  16              Rx   d 8 01 00 01 00 00 00 00 00
 64.677615 1  11              Rx   d 8 DC E4 28 00 01 00 32 00
 64.677873 1  18              Rx   d 8 00 00 00 00 00 00 00 00
 67.207539 1  15              Rx   d 8 4C 40 00 00 02 02 00 00
 67.208701 1  10              Rx   d 8 49 42 29 00 01 00 32 00
 67.236204 1  14              Rx   d 8 64 63 20 55 40 33 00 00
 67.236462 1  16              Rx   d 8 01 00 01 00 00 00 00 00
 67.237624 1  11              Rx   d 8 DC E4 28 00 01 00 32 00
 67.237883 1  18              Rx   d 8 00 00 00 00 00 00 00 00
 69.727679 1  15              Rx   d 8 4C 40 00 00 02 02 00 00
 69.728841 1  10              Rx   d 8 49 42 29 00 01 00 32 00
 69.756301 1  14              Rx   d 8 64 63 20 55 3F 33 00 00
 69.756603 1  16              Rx   d 8 01 00 01 00 00 00 00 00
 69.757765 1  11              Rx   d 8 DB E4 28 00 01 00 32 00
 69.758023 1  18              Rx   d 8 00 00 00 00 00 00 00 00
 72.287603 1  15              Rx   d 8 44 40 00 00 02 02 00 00
 72.288765 1  10              Rx   d 8 49 42 29 00 01 00 32 00
 72.316268 1  14              Rx   d 8 64 63 60 55 40 33 00 00
 72.316569 1  16              Rx   d 8 01 00 01 00 00 00 00 00
 72.317731 1  11              Rx   d 8 DB E4 28 00 01 00 30 00
 72.317990 1  18              Rx   d 8 00 00 00 00 00 00 00 00
 74.847513 1  15              Rx   d 8 4C 40 00 00 02 02 00 00
 74.848718 1  10              Rx   d 8 22 42 29 00 6E 00 30 00
 74.876178 1  14              Rx   d 8 60 63 24 56 40 33 00 00
 74.876437 1  16              Rx   d 8 01 00 01 00 00 00 00 00
 74.877599 1  11              Rx   d 8 D4 E4 28 00 26 00 2F 00
 74.877857 1  18              Rx   d 8 00 00 00 00 00 00 00 00
 77.407350 1  15              Rx   d 8 4C 40 00 00 02 02 00 00
 77.408599 1  10              Rx   d 8 0C 3A 29 00 26 10 2F 00
 77.436016 1  14              Rx   d 8 7C 63 34 59 40 33 00 00
 77.436274 1  16              Rx   d 8 01 00 01 00 00 00 00 00
 77.437479 1  11              Rx   d 8 17 E2 28 00 C1 08 32 00
 77.437780 1  18              Rx   d 8 00 00 00 00 00 00 00 00
 79.927233 1  15              Rx   d 8 4C 40 00 00 02 02 00 00
 79.928352 1  10              Rx   d 8 AC DF 28 00 62 1D 1E 00
 79.955898 1  14              Rx   d 8 A8 63 B0 5A 3F 33 00 00
 79.956156 1  16              Rx   d 8 01 00 01 00 00 00 00 00
 79.957361 1  11              Rx   d 8 AA CF 28 00 9C 01 32 00
 79.957620 1  18              Rx   d 8 00 00 00 00 00 00 00 00
 82.487242 1  15              Rx   d 8 44 40 00 00 02 02 00 00
 82.488447 1  10              Rx   d 8 92 F6 28 00 81 1C 32 00
 82.515908 1  14              Rx   d 8 C8 63 B0 5A 40 33 00 00
 82.516166 1  16              Rx   d 8 01 00 01 00 00 00 00 00
 82.517371 1  11              Rx   d 8 B3 D0 28 00 2A 01 32 00
 82.517629 1  18              Rx   d 8 00 00 00 00 00 00 00 00
 85.047497 1  15              Rx   d 8 4C 40 00 00 02 02 00 00
 85.048659 1  10              Rx   d 8 DA 42 29 00 05 00 30 00
 85.076162 1  14              Rx   d 8 DC 63 E8 58 40 33 00 00
 85.076421 1  16              Rx   d 8 01 00 01 00 00 00 00 00
 85.077583 1  11              Rx   d 8 81 D2 28 00 07 00 31 00
 85.077841 1  18              Rx   d 8 00 00 00 00 00 00 00 00
 87.607722 1  15              Rx   d 8 4C 40 00 00 02 02 00 00
 87.608884 1  10              Rx   d 8 DB 42 29 00 01 00 32 00
 87.636387 1  14              Rx   d 8 E0 63 1C 59 40 33 00 00
 87.636645 1  16              Rx   d 8 01 00 01 00 00 00 00 00
 87.637808 1  11              Rx   d 8 78 D2 28 00 02 00 31 00
 87.638066 1  18              Rx   d 8 00 00 00 00 00 00 00 00
 90.127949 1  15              Rx   d 8 4C 40 00 00 02 02 00 00
 90.129154 1  10              Rx   d 8 85 48 29 00 AA 0B 32 00
 90.156614 1  14              Rx   d 8 E8 63 DC 58 3F 33 00 00
 90.156872 1  16              Rx   d 8 01 00 01 00 00 00 00 00
 90.158034 1  11              Rx   d 8 98 D2 28 00 D9 01 30 00
 90.158335 1  18              Rx   d 8 00 00 00 00 00 00 00 00
 92.688302 1  15              Rx   d 8 44 40 00 00 02 02 00 00
 92.689508 1  10              Rx   d 8 22 72 29 00 FD 07 30 00
 92.716968 1  14              Rx   d 8 E8 63 18 58 40 33 00 00
 92.717226 1  16              Rx   d 8 01 00 01 00 00 00 00 00
 92.718388 1  11              Rx   d 8 EA E2 28 00 58 00 31 00
 92.718646 1  18              Rx   d 8 00 00 00 00 00 00 00 00
 95.248557 1  15              Rx   d 8 4C 40 00 00 02 02 00 00
 95.249762 1  10              Rx   d 8 04 9A 29 00 01 1D 32 00
 95.277222 1  14              Rx   d 8 F0 63 14 57 40 33 00 00
 95.277481 1  16              Rx   d 8 01 00 01 00 00 00 00 00
 95.278686 1  11              Rx   d 8 74 E2 28 00 33 00 30 00
 95.278944 1  18              Rx   d 8 00 00 00 00 00 00 00 00
 97.808954 1  15              Rx   d 8 4C 40 00 00 02 02 00 00
 97.810159 1  10              Rx   d 8 35 F6 29 00 D7 0C 32 00
 97.837619 1  14              Rx   d 8 00 64 50 56 40 33 00 00
 97.837878 1  16              Rx   d 8 01 00 01 00 00 00 00 00
 97.839040 1  11              Rx   d 8 64 E2 28 00 22 00 32 00
 97.839298 1  18              Rx   d 8 00 00 00 00 00 00 00 00
 100.329224 1  15              Rx   d 8 4C 40 00 00 02 02 00 00
 100.330429 1  10              Rx   d 8 E1 FC 29 00 86 1A 32 00
 100.357889 1  14              Rx   d 8 10 64 D0 55 3F 33 00 00
 100.358147 1  16              Rx   d 8 01 00 01 00 00 00 00 00
 100.359352 1  11              Rx   d 8 EA E1 28 00 38 00 32 00
 100.359611 1  18              Rx   d 8 00 00 00 00 00 00 00 00
