date Tue Feb 13 06:47:17.923 PM 2024
base hex  timestamps absolute
internal events logged
Begin Triggerblock Wed Dec 31 07:51:10.962 PM 1969
 0.000000 Start of measurement
 0.000000 1  ErrorFrame
 30.417066 1  15              Rx   d 8 4C 40 00 00 05 04 00 00
 30.417328 1  10              Rx   d 8 73 E9 28 00 7C 00 32 00
 30.436518 1  1A              Tx   d 8 05 04 0A 09 00 00 00 00
 30.446181 1  14              Rx   d 8 50 5F 84 5D 00 00 00 00
 30.446445 1  16              Rx   d 8 00 00 00 00 00 00 00 00
 30.447604 1  11              Rx   d 8 48 B8 28 00 02 00 32 00
 30.447876 1  18              Rx   d 8 00 00 00 00 00 00 00 00
 30.448145 1  15              Rx   d 8 00 00 00 00 05 04 00 00
 30.449290 1  10              Rx   d 8 F1 E9 28 00 02 00 30 00
 30.476871 1  14              Rx   d 8 58 5F 84 5D 00 00 00 00
 30.477139 1  16              Rx   d 8 00 00 00 00 00 00 00 00
 30.478297 1  11              Rx   d 8 48 B8 28 00 02 00 32 00
 30.478571 1  18              Rx   d 8 00 00 00 00 00 00 00 00
 30.488421 1  2A              Tx   d 8 0D 0B 0B 07 00 00 00 00
 30.540678 1  3A              Tx   d 8 09 0A 0D 0A 00 00 00 00
 30.592662 1  4A              Tx   d 8 0A 0B 0A 09 00 00 00 00
 30.592662 1  4A              Tx   d 8 0A 0B 0A 09 00 00 00 00
 30.592662 1  4A              Tx   d 8 0A 0B 0A 09 00 00 00 00
 33.047541 1  15              Rx   d 8 4C 40 00 00 05 04 00 00
 33.048700 1  10              Rx   d 8 F2 E9 28 00 03 00 31 00
 33.076913 1  14              Rx   d 8 58 5F 44 5D 00 00 00 00
 33.077185 1  16              Rx   d 8 00 00 00 00 00 00 00 00
 33.078346 1  11              Rx   d 8 47 B8 28 00 03 00 32 00
 33.078619 1  18              Rx   d 8 00 00 00 00 00 00 00 00
 33.078619 1  18              Rx   d 8 00 00 00 00 00 00 00 00
 33.078619 1  18              Rx   d 8 00 00 00 00 00 00 00 00
 33.078619 1  18              Rx   d 8 00 00 00 00 00 00 00 00
 33.078619 1  18              Rx   d 8 00 00 00 00 00 00 00 00
 33.078619 1  18              Rx   d 8 00 00 00 00 00 00 00 00
 38.149779 1  15              Rx   d 8 4C 40 00 00 05 04 00 00
 38.150944 1  10              Rx   d 8 F5 E9 28 00 02 00 30 00
 38.179158 1  14              Rx   d 8 58 5F 44 5D 00 00 00 00
 38.179427 1  16              Rx   d 8 00 00 00 00 00 00 00 00
 38.180589 1  11              Rx   d 8 49 B8 28 00 02 00 32 00
 38.180853 1  18              Rx   d 8 00 00 00 00 00 00 00 00
 38.180853 1  18              Rx   d 8 00 00 00 00 00 00 00 00
 38.180853 1  18              Rx   d 8 00 00 00 00 00 00 00 00
 38.180853 1  18              Rx   d 8 00 00 00 00 00 00 00 00
 38.180853 1  18              Rx   d 8 00 00 00 00 00 00 00 00
 38.180853 1  18              Rx   d 8 00 00 00 00 00 00 00 00
 43.252379 1  15              Rx   d 8 4C 40 00 00 05 04 00 00
 43.253546 1  10              Rx   d 8 F4 E9 28 00 02 00 32 00
 43.281749 1  14              Rx   d 8 64 5F 44 5D 00 00 00 00
 43.282021 1  16              Rx   d 8 00 00 00 00 00 00 00 00
 43.283164 1  11              Rx   d 8 47 B8 28 00 01 00 2F 00
 43.283438 1  18              Rx   d 8 00 00 00 00 00 00 00 00
 43.283438 1  18              Rx   d 8 00 00 00 00 00 00 00 00
 43.283438 1  18              Rx   d 8 00 00 00 00 00 00 00 00
 45.935871 1  1A              Tx   d 8 05 04 0A 09 00 00 00 00
 45.935871 1  1A              Tx   d 8 05 04 0A 09 00 00 00 00
 45.935871 1  1A              Tx   d 8 05 04 0A 09 00 00 00 00
 48.150720 1  1A              Tx   d 8 05 04 0A 09 00 00 00 00
 48.554946 1  15              Rx   d 8 4C 40 00 00 05 04 00 00
 48.556114 1  10              Rx   d 8 F4 E9 28 00 02 00 32 00
 48.584325 1  14              Rx   d 8 5C 5F 00 5D 00 00 00 00
 48.584587 1  16              Rx   d 8 00 00 00 00 00 00 00 00
 48.585744 1  11              Rx   d 8 48 B8 28 00 02 00 32 00
 48.586018 1  18              Rx   d 8 00 00 00 00 00 00 00 00
 48.586018 1  18              Rx   d 8 00 00 00 00 00 00 00 00
 48.586018 1  18              Rx   d 8 00 00 00 00 00 00 00 00
 48.586018 1  18              Rx   d 8 00 00 00 00 00 00 00 00
 48.586018 1  18              Rx   d 8 00 00 00 00 00 00 00 00
 48.586018 1  18              Rx   d 8 00 00 00 00 00 00 00 00
 53.657373 1  15              Rx   d 8 4C 40 00 00 05 04 00 00
 53.658547 1  10              Rx   d 8 F2 E9 28 00 02 00 32 00
 53.686757 1  14              Rx   d 8 64 5F C0 5C 00 00 00 00
 53.687019 1  16              Rx   d 8 00 00 00 00 00 00 00 00
 53.688183 1  11              Rx   d 8 46 B8 28 00 02 00 32 00
 53.688447 1  18              Rx   d 8 00 00 00 00 00 00 00 00
 53.688447 1  18              Rx   d 8 00 00 00 00 00 00 00 00
 53.688447 1  18              Rx   d 8 00 00 00 00 00 00 00 00
 53.688447 1  18              Rx   d 8 00 00 00 00 00 00 00 00
 53.688447 1  18              Rx   d 8 00 00 00 00 00 00 00 00
 53.688447 1  18              Rx   d 8 00 00 00 00 00 00 00 00
 58.759868 1  15              Rx   d 8 4C 40 00 00 05 04 00 00
 58.761036 1  10              Rx   d 8 F2 E9 28 00 02 00 32 00
 58.789248 1  14              Rx   d 8 68 5F C0 5C 00 00 00 00
 58.789518 1  16              Rx   d 8 00 00 00 00 00 00 00 00
 58.790672 1  11              Rx   d 8 46 B8 28 00 02 00 31 00
 58.790936 1  18              Rx   d 8 00 00 00 00 00 00 00 00
 58.790936 1  18              Rx   d 8 00 00 00 00 00 00 00 00
 58.790936 1  18              Rx   d 8 00 00 00 00 00 00 00 00
 58.790936 1  18              Rx   d 8 00 00 00 00 00 00 00 00
 58.790936 1  18              Rx   d 8 00 00 00 00 00 00 00 00
 58.790936 1  18              Rx   d 8 00 00 00 00 00 00 00 00
 63.862279 1  15              Rx   d 8 4C 40 00 00 05 04 00 00
 63.863444 1  10              Rx   d 8 F2 E9 28 00 01 00 32 00
 63.891655 1  14              Rx   d 8 70 5F C0 5C 00 00 00 00
 63.891926 1  16              Rx   d 8 00 00 00 00 00 00 00 00
 63.893078 1  11              Rx   d 8 47 B8 28 00 01 00 32 00
 63.893352 1  18              Rx   d 8 00 00 00 00 00 00 00 00
 63.893352 1  18              Rx   d 8 00 00 00 00 00 00 00 00
 63.893352 1  18              Rx   d 8 00 00 00 00 00 00 00 00
 63.893352 1  18              Rx   d 8 00 00 00 00 00 00 00 00
 63.893352 1  18              Rx   d 8 00 00 00 00 00 00 00 00
 63.893352 1  18              Rx   d 8 00 00 00 00 00 00 00 00
 68.964388 1  15              Rx   d 8 4C 40 00 00 05 04 00 00
 68.965555 1  10              Rx   d 8 F3 E9 28 00 02 00 30 00
 68.993764 1  14              Rx   d 8 68 5F C0 5C 00 00 00 00
 68.994033 1  16              Rx   d 8 00 00 00 00 00 00 00 00
 68.995185 1  11              Rx   d 8 48 B8 28 00 02 00 31 00
 68.995455 1  18              Rx   d 8 00 00 00 00 00 00 00 00
 68.995455 1  18              Rx   d 8 00 00 00 00 00 00 00 00
 68.995455 1  18              Rx   d 8 00 00 00 00 00 00 00 00
 68.995455 1  18              Rx   d 8 00 00 00 00 00 00 00 00
 68.995455 1  18              Rx   d 8 00 00 00 00 00 00 00 00
 68.995455 1  18              Rx   d 8 00 00 00 00 00 00 00 00
 74.066643 1  15              Rx   d 8 4C 40 00 00 05 04 00 00
 74.067810 1  10              Rx   d 8 F3 E9 28 00 02 00 32 00
 74.096014 1  14              Rx   d 8 70 5F C0 5C 00 00 00 00
 74.096285 1  16              Rx   d 8 00 00 00 00 00 00 00 00
 74.097441 1  11              Rx   d 8 48 B8 28 00 02 00 32 00
 74.097713 1  18              Rx   d 8 00 00 00 00 00 00 00 00
 74.097713 1  18              Rx   d 8 00 00 00 00 00 00 00 00
 74.097713 1  18              Rx   d 8 00 00 00 00 00 00 00 00
 74.097713 1  18              Rx   d 8 00 00 00 00 00 00 00 00
 74.097713 1  18              Rx   d 8 00 00 00 00 00 00 00 00
 74.097713 1  18              Rx   d 8 00 00 00 00 00 00 00 00
 79.168918 1  15              Rx   d 8 4C 40 00 00 05 04 00 00
 79.170095 1  10              Rx   d 8 F3 E9 28 00 02 00 32 00
 79.198307 1  14              Rx   d 8 70 5F 00 5D 00 00 00 00
 79.198567 1  16              Rx   d 8 00 00 00 00 00 00 00 00
 79.199716 1  11              Rx   d 8 47 B8 28 00 02 00 30 00
 79.199992 1  18              Rx   d 8 00 00 00 00 00 00 00 00
 79.199992 1  18              Rx   d 8 00 00 00 00 00 00 00 00
 79.199992 1  18              Rx   d 8 00 00 00 00 00 00 00 00
 79.199992 1  18              Rx   d 8 00 00 00 00 00 00 00 00
 79.199992 1  18              Rx   d 8 00 00 00 00 00 00 00 00
 79.199992 1  18              Rx   d 8 00 00 00 00 00 00 00 00
 84.271521 1  15              Rx   d 8 4C 40 00 00 05 04 00 00
 84.272697 1  10              Rx   d 8 F3 E9 28 00 02 00 32 00
 84.300901 1  14              Rx   d 8 70 5F 00 5D 00 00 00 00
 84.301167 1  16              Rx   d 8 00 00 00 00 00 00 00 00
 84.302318 1  11              Rx   d 8 48 B8 28 00 02 00 30 00
 84.302591 1  18              Rx   d 8 00 00 00 00 00 00 00 00
 84.302591 1  18              Rx   d 8 00 00 00 00 00 00 00 00
 84.302591 1  18              Rx   d 8 00 00 00 00 00 00 00 00
 84.302591 1  18              Rx   d 8 00 00 00 00 00 00 00 00
 84.302591 1  18              Rx   d 8 00 00 00 00 00 00 00 00
 84.302591 1  18              Rx   d 8 00 00 00 00 00 00 00 00
 89.374041 1  15              Rx   d 8 4C 40 00 00 05 04 00 00
 89.375215 1  10              Rx   d 8 F3 E9 28 00 02 00 32 00
 89.403423 1  14              Rx   d 8 70 5F 00 5D 00 00 00 00
 89.403692 1  16              Rx   d 8 00 00 00 00 00 00 00 00
 89.404836 1  11              Rx   d 8 48 B8 28 00 01 00 31 00
 89.405109 1  18              Rx   d 8 00 00 00 00 00 00 00 00
 89.405109 1  18              Rx   d 8 00 00 00 00 00 00 00 00
 89.405109 1  18              Rx   d 8 00 00 00 00 00 00 00 00
 89.405109 1  18              Rx   d 8 00 00 00 00 00 00 00 00
 89.405109 1  18              Rx   d 8 00 00 00 00 00 00 00 00
 89.405109 1  18              Rx   d 8 00 00 00 00 00 00 00 00
 94.476406 1  15              Rx   d 8 4C 40 00 00 05 04 00 00
 94.477573 1  10              Rx   d 8 F3 E9 28 00 02 00 32 00
 94.505778 1  14              Rx   d 8 74 5F 44 5D 00 00 00 00
 94.506048 1  16              Rx   d 8 00 00 00 00 00 00 00 00
 94.507197 1  11              Rx   d 8 47 B8 28 00 01 00 31 00
 94.507470 1  18              Rx   d 8 00 00 00 00 00 00 00 00
 94.507470 1  18              Rx   d 8 00 00 00 00 00 00 00 00
 94.507470 1  18              Rx   d 8 00 00 00 00 00 00 00 00
 94.507470 1  18              Rx   d 8 00 00 00 00 00 00 00 00
 94.507470 1  18              Rx   d 8 00 00 00 00 00 00 00 00
 94.507470 1  18              Rx   d 8 00 00 00 00 00 00 00 00
 99.578673 1  15              Rx   d 8 4C 40 00 00 05 04 00 00
 99.579814 1  10              Rx   d 8 F0 E9 28 00 01 00 2E 00
 99.608046 1  14              Rx   d 8 70 5F 38 5D 00 00 00 00
 99.608314 1  16              Rx   d 8 00 00 00 00 00 00 00 00
 99.609474 1  11              Rx   d 8 46 B8 28 00 02 00 32 00
 99.609740 1  18              Rx   d 8 00 00 00 00 00 00 00 00
 99.609740 1  18              Rx   d 8 00 00 00 00 00 00 00 00
 99.609740 1  18              Rx   d 8 00 00 00 00 00 00 00 00
 99.609740 1  18              Rx   d 8 00 00 00 00 00 00 00 00
 99.609740 1  18              Rx   d 8 00 00 00 00 00 00 00 00
 99.609740 1  18              Rx   d 8 00 00 00 00 00 00 00 00
 104.681131 1  15              Rx   d 8 4C 40 00 00 05 04 00 00
 104.682298 1  10              Rx   d 8 EF E9 28 00 01 00 32 00
 104.710518 1  14              Rx   d 8 74 5F 44 5D 00 00 00 00
 104.710780 1  16              Rx   d 8 00 00 00 00 00 00 00 00
 104.711934 1  11              Rx   d 8 44 B8 28 00 01 00 32 00
 104.712209 1  18              Rx   d 8 00 00 00 00 00 00 00 00
 104.712209 1  18              Rx   d 8 00 00 00 00 00 00 00 00
 104.712209 1  18              Rx   d 8 00 00 00 00 00 00 00 00
 104.712209 1  18              Rx   d 8 00 00 00 00 00 00 00 00
 104.712209 1  18              Rx   d 8 00 00 00 00 00 00 00 00
 104.712209 1  18              Rx   d 8 00 00 00 00 00 00 00 00
 109.783454 1  15              Rx   d 8 4C 40 00 00 05 04 00 00
 109.784621 1  10              Rx   d 8 F0 E9 28 00 01 00 31 00
 109.812825 1  14              Rx   d 8 74 5F 78 5D 00 00 00 00
 109.813096 1  16              Rx   d 8 00 00 00 00 00 00 00 00
 109.814253 1  11              Rx   d 8 45 B8 28 00 01 00 32 00
 109.814528 1  18              Rx   d 8 00 00 00 00 00 00 00 00
 109.814528 1  18              Rx   d 8 00 00 00 00 00 00 00 00
 109.814528 1  18              Rx   d 8 00 00 00 00 00 00 00 00
 109.814528 1  18              Rx   d 8 00 00 00 00 00 00 00 00
 109.814528 1  18              Rx   d 8 00 00 00 00 00 00 00 00
 109.814528 1  18              Rx   d 8 00 00 00 00 00 00 00 00
 114.885898 1  15              Rx   d 8 4C 40 00 00 05 04 00 00
 114.887058 1  10              Rx   d 8 F0 E9 28 00 01 00 30 00
 114.915287 1  14              Rx   d 8 78 5F 78 5D 00 00 00 00
 114.915555 1  16              Rx   d 8 00 00 00 00 00 00 00 00
 114.916710 1  11              Rx   d 8 45 B8 28 00 02 00 32 00
 114.916983 1  18              Rx   d 8 00 00 00 00 00 00 00 00
 114.916983 1  18              Rx   d 8 00 00 00 00 00 00 00 00
 114.916983 1  18              Rx   d 8 00 00 00 00 00 00 00 00
 114.916983 1  18              Rx   d 8 00 00 00 00 00 00 00 00
 114.916983 1  18              Rx   d 8 00 00 00 00 00 00 00 00
 114.916983 1  18              Rx   d 8 00 00 00 00 00 00 00 00
 119.988125 1  15              Rx   d 8 4C 40 00 00 05 04 00 00
 119.989281 1  10              Rx   d 8 F1 E9 28 00 01 00 31 00
 120.017494 1  14              Rx   d 8 74 5F 78 5D 00 00 00 00
 120.017763 1  16              Rx   d 8 00 00 00 00 00 00 00 00
 120.018919 1  11              Rx   d 8 45 B8 28 00 01 00 32 00
 120.019195 1  18              Rx   d 8 00 00 00 00 00 00 00 00
 120.019195 1  18              Rx   d 8 00 00 00 00 00 00 00 00
 120.019195 1  18              Rx   d 8 00 00 00 00 00 00 00 00
 120.019195 1  18              Rx   d 8 00 00 00 00 00 00 00 00
 120.019195 1  18              Rx   d 8 00 00 00 00 00 00 00 00
 120.019195 1  18              Rx   d 8 00 00 00 00 00 00 00 00
 125.090561 1  15              Rx   d 8 4C 40 00 00 05 04 00 00
 125.091734 1  10              Rx   d 8 EF E9 28 00 01 00 32 00
 125.119937 1  14              Rx   d 8 78 5F 78 5D 00 00 00 00
 125.120208 1  16              Rx   d 8 00 00 00 00 00 00 00 00
 125.121368 1  11              Rx   d 8 43 B8 28 00 02 00 32 00
 125.121633 1  18              Rx   d 8 00 00 00 00 00 00 00 00
 125.121633 1  18              Rx   d 8 00 00 00 00 00 00 00 00
 125.121633 1  18              Rx   d 8 00 00 00 00 00 00 00 00
 125.121633 1  18              Rx   d 8 00 00 00 00 00 00 00 00
 125.121633 1  18              Rx   d 8 00 00 00 00 00 00 00 00
 125.121633 1  18              Rx   d 8 00 00 00 00 00 00 00 00
 130.193011 1  15              Rx   d 8 4C 40 00 00 05 04 00 00
 130.194177 1  10              Rx   d 8 F0 E9 28 00 01 00 32 00
 130.222389 1  14              Rx   d 8 78 5F 08 60 00 00 00 00
 130.222659 1  16              Rx   d 8 00 00 00 00 00 00 00 00
 130.223811 1  11              Rx   d 8 43 B8 28 00 01 00 32 00
 130.224082 1  18              Rx   d 8 00 00 00 00 00 00 00 00
 130.224082 1  18              Rx   d 8 00 00 00 00 00 00 00 00
 130.224082 1  18              Rx   d 8 00 00 00 00 00 00 00 00
 130.224082 1  18              Rx   d 8 00 00 00 00 00 00 00 00
 130.224082 1  18              Rx   d 8 00 00 00 00 00 00 00 00
 130.224082 1  18              Rx   d 8 00 00 00 00 00 00 00 00
 135.294951 1  15              Rx   d 8 4C 40 00 00 05 04 00 00
 135.296111 1  10              Rx   d 8 F0 E9 28 00 01 00 31 00
 135.324306 1  14              Rx   d 8 80 5F C8 5F 00 00 00 00
 135.324575 1  16              Rx   d 8 00 00 00 00 00 00 00 00
 135.325731 1  11              Rx   d 8 43 B8 28 00 01 00 32 00
 135.326005 1  18              Rx   d 8 00 00 00 00 00 00 00 00
 135.326005 1  18              Rx   d 8 00 00 00 00 00 00 00 00
 135.326005 1  18              Rx   d 8 00 00 00 00 00 00 00 00
 135.326005 1  18              Rx   d 8 00 00 00 00 00 00 00 00
 135.326005 1  18              Rx   d 8 00 00 00 00 00 00 00 00
 135.326005 1  18              Rx   d 8 00 00 00 00 00 00 00 00
 140.397426 1  15              Rx   d 8 4C 40 00 00 05 04 00 00
 140.398591 1  10              Rx   d 8 F1 E9 28 00 02 00 32 00
 140.426804 1  14              Rx   d 8 80 5F 3C 5E 00 00 00 00
 140.427074 1  16              Rx   d 8 00 00 00 00 00 00 00 00
 140.428231 1  11              Rx   d 8 42 B8 28 00 01 00 32 00
 140.428503 1  18              Rx   d 8 00 00 00 00 00 00 00 00
 140.428503 1  18              Rx   d 8 00 00 00 00 00 00 00 00
 140.428503 1  18              Rx   d 8 00 00 00 00 00 00 00 00
 140.428503 1  18              Rx   d 8 00 00 00 00 00 00 00 00
 140.428503 1  18              Rx   d 8 00 00 00 00 00 00 00 00
 140.428503 1  18              Rx   d 8 00 00 00 00 00 00 00 00
 145.500020 1  15              Rx   d 8 4C 40 00 00 05 04 00 00
 145.501186 1  10              Rx   d 8 EF E9 28 00 01 00 32 00
 145.529397 1  14              Rx   d 8 84 5F B8 5D 00 00 00 00
 145.529668 1  16              Rx   d 8 00 00 00 00 00 00 00 00
 145.530830 1  11              Rx   d 8 42 B8 28 00 02 00 32 00
 145.531093 1  18              Rx   d 8 00 00 00 00 00 00 00 00
 145.531093 1  18              Rx   d 8 00 00 00 00 00 00 00 00
 145.531093 1  18              Rx   d 8 00 00 00 00 00 00 00 00
 145.531093 1  18              Rx   d 8 00 00 00 00 00 00 00 00
 145.531093 1  18              Rx   d 8 00 00 00 00 00 00 00 00
 145.531093 1  18              Rx   d 8 00 00 00 00 00 00 00 00
 150.602130 1  15              Rx   d 8 4C 40 00 00 05 04 00 00
 150.603304 1  10              Rx   d 8 EF E9 28 00 02 00 32 00
 150.631508 1  14              Rx   d 8 78 5F 78 5D 00 00 00 00
 150.631777 1  16              Rx   d 8 00 00 00 00 00 00 00 00
 150.632937 1  11              Rx   d 8 42 B8 28 00 02 00 32 00
 150.633203 1  18              Rx   d 8 00 00 00 00 00 00 00 00
 150.633203 1  18              Rx   d 8 00 00 00 00 00 00 00 00
 150.633203 1  18              Rx   d 8 00 00 00 00 00 00 00 00
 150.633203 1  18              Rx   d 8 00 00 00 00 00 00 00 00
 150.633203 1  18              Rx   d 8 00 00 00 00 00 00 00 00
 150.633203 1  18              Rx   d 8 00 00 00 00 00 00 00 00
 155.704654 1  15              Rx   d 8 4C 40 00 00 05 04 00 00
 155.705812 1  10              Rx   d 8 EF E9 28 00 01 00 32 00
 155.734025 1  14              Rx   d 8 8C 5F 78 5D 00 00 00 00
 155.734285 1  16              Rx   d 8 00 00 00 00 00 00 00 00
 155.735446 1  11              Rx   d 8 42 B8 28 00 02 00 32 00
 155.735711 1  18              Rx   d 8 00 00 00 00 00 00 00 00
 155.735711 1  18              Rx   d 8 00 00 00 00 00 00 00 00
 155.735711 1  18              Rx   d 8 00 00 00 00 00 00 00 00
 155.735711 1  18              Rx   d 8 00 00 00 00 00 00 00 00
 155.735711 1  18              Rx   d 8 00 00 00 00 00 00 00 00
 155.735711 1  18              Rx   d 8 00 00 00 00 00 00 00 00
 160.806410 1  15              Rx   d 8 4C 40 00 00 05 04 00 00
 160.807558 1  10              Rx   d 8 F0 E9 28 00 01 00 30 00
 160.835778 1  14              Rx   d 8 84 5F 78 5D 00 00 00 00
 160.836050 1  16              Rx   d 8 00 00 00 00 00 00 00 00
 160.837206 1  11              Rx   d 8 42 B8 28 00 01 00 32 00
 160.837470 1  18              Rx   d 8 00 00 00 00 00 00 00 00
 160.837470 1  18              Rx   d 8 00 00 00 00 00 00 00 00
 160.837470 1  18              Rx   d 8 00 00 00 00 00 00 00 00
 160.837470 1  18              Rx   d 8 00 00 00 00 00 00 00 00
 160.837470 1  18              Rx   d 8 00 00 00 00 00 00 00 00
 160.837470 1  18              Rx   d 8 00 00 00 00 00 00 00 00
 165.908186 1  15              Rx   d 8 4C 40 00 00 05 04 00 00
 165.909353 1  10              Rx   d 8 EE E9 28 00 01 00 32 00
 165.937558 1  14              Rx   d 8 8C 5F 38 5D 00 00 00 00
 165.937826 1  16              Rx   d 8 00 00 00 00 00 00 00 00
 165.938991 1  11              Rx   d 8 40 B8 28 00 01 00 32 00
 165.939254 1  18              Rx   d 8 00 00 00 00 00 00 00 00
 165.939254 1  18              Rx   d 8 00 00 00 00 00 00 00 00
 165.939254 1  18              Rx   d 8 00 00 00 00 00 00 00 00
 165.939254 1  18              Rx   d 8 00 00 00 00 00 00 00 00
 165.939254 1  18              Rx   d 8 00 00 00 00 00 00 00 00
 165.939254 1  18              Rx   d 8 00 00 00 00 00 00 00 00
 171.009870 1  15              Rx   d 8 4C 40 00 00 05 04 00 00
 171.011029 1  10              Rx   d 8 EE E9 28 00 01 00 30 00
 171.039250 1  14              Rx   d 8 84 5F 38 5D 00 00 00 00
 171.039518 1  16              Rx   d 8 00 00 00 00 00 00 00 00
 171.040672 1  11              Rx   d 8 40 B8 28 00 02 00 31 00
 171.040937 1  18              Rx   d 8 00 00 00 00 00 00 00 00
 171.040937 1  18              Rx   d 8 00 00 00 00 00 00 00 00
 171.040937 1  18              Rx   d 8 00 00 00 00 00 00 00 00
 171.040937 1  18              Rx   d 8 00 00 00 00 00 00 00 00
 171.040937 1  18              Rx   d 8 00 00 00 00 00 00 00 00
 171.040937 1  18              Rx   d 8 00 00 00 00 00 00 00 00
 176.111347 1  15              Rx   d 8 4C 40 00 00 05 04 00 00
 176.112522 1  10              Rx   d 8 ED E9 28 00 02 00 32 00
 176.140716 1  14              Rx   d 8 8C 5F 78 5D 00 00 00 00
 176.140989 1  16              Rx   d 8 00 00 00 00 00 00 00 00
 176.142139 1  11              Rx   d 8 3F B8 28 00 02 00 30 00
 176.142410 1  18              Rx   d 8 00 00 00 00 00 00 00 00
 176.142410 1  18              Rx   d 8 00 00 00 00 00 00 00 00
 176.142410 1  18              Rx   d 8 00 00 00 00 00 00 00 00
 176.142410 1  18              Rx   d 8 00 00 00 00 00 00 00 00
 176.142410 1  18              Rx   d 8 00 00 00 00 00 00 00 00
 176.142410 1  18              Rx   d 8 00 00 00 00 00 00 00 00
 181.212964 1  15              Rx   d 8 4C 40 00 00 05 04 00 00
 181.214130 1  10              Rx   d 8 EB E9 28 00 02 00 32 00
 181.242334 1  14              Rx   d 8 8C 5F 78 5D 00 00 00 00
 181.242603 1  16              Rx   d 8 00 00 00 00 00 00 00 00
 181.243757 1  11              Rx   d 8 3C B8 28 00 02 00 31 00
 181.244032 1  18              Rx   d 8 00 00 00 00 00 00 00 00
 181.244032 1  18              Rx   d 8 00 00 00 00 00 00 00 00
 181.244032 1  18              Rx   d 8 00 00 00 00 00 00 00 00
 181.244032 1  18              Rx   d 8 00 00 00 00 00 00 00 00
 181.244032 1  18              Rx   d 8 00 00 00 00 00 00 00 00
 181.244032 1  18              Rx   d 8 00 00 00 00 00 00 00 00
 186.315206 1  15              Rx   d 8 4C 40 00 00 05 04 00 00
 186.316373 1  10              Rx   d 8 EA E9 28 00 02 00 32 00
 186.344578 1  14              Rx   d 8 8C 5F 78 5D 00 00 00 00
 186.344846 1  16              Rx   d 8 00 00 00 00 00 00 00 00
 186.346002 1  11              Rx   d 8 3C B8 28 00 02 00 31 00
 186.346275 1  18              Rx   d 8 00 00 00 00 00 00 00 00
 186.346275 1  18              Rx   d 8 00 00 00 00 00 00 00 00
 186.346275 1  18              Rx   d 8 00 00 00 00 00 00 00 00
 186.346275 1  18              Rx   d 8 00 00 00 00 00 00 00 00
 186.346275 1  18              Rx   d 8 00 00 00 00 00 00 00 00
 186.346275 1  18              Rx   d 8 00 00 00 00 00 00 00 00
 191.417082 1  15              Rx   d 8 4C 40 00 00 05 04 00 00
 191.418231 1  10              Rx   d 8 E8 E9 28 00 02 00 2F 00
 191.446452 1  14              Rx   d 8 90 5F 78 5D 00 00 00 00
 191.446720 1  16              Rx   d 8 00 00 00 00 00 00 00 00
 191.447884 1  11              Rx   d 8 3B B8 28 00 02 00 32 00
 191.448158 1  18              Rx   d 8 00 00 00 00 00 00 00 00
 191.448158 1  18              Rx   d 8 00 00 00 00 00 00 00 00
 191.448158 1  18              Rx   d 8 00 00 00 00 00 00 00 00
 191.448158 1  18              Rx   d 8 00 00 00 00 00 00 00 00
 191.448158 1  18              Rx   d 8 00 00 00 00 00 00 00 00
 191.448158 1  18              Rx   d 8 00 00 00 00 00 00 00 00
 196.519177 1  15              Rx   d 8 4C 40 00 00 05 04 00 00
 196.520344 1  10              Rx   d 8 EA E9 28 00 02 00 32 00
 196.548548 1  14              Rx   d 8 90 5F 78 5D 00 00 00 00
 196.548817 1  16              Rx   d 8 00 00 00 00 00 00 00 00
 196.549969 1  11              Rx   d 8 3B B8 28 00 02 00 31 00
 196.550237 1  18              Rx   d 8 00 00 00 00 00 00 00 00
 196.550237 1  18              Rx   d 8 00 00 00 00 00 00 00 00
 196.550237 1  18              Rx   d 8 00 00 00 00 00 00 00 00
 196.550237 1  18              Rx   d 8 00 00 00 00 00 00 00 00
 196.550237 1  18              Rx   d 8 00 00 00 00 00 00 00 00
 196.550237 1  18              Rx   d 8 00 00 00 00 00 00 00 00
 201.621536 1  15              Rx   d 8 4C 40 00 00 05 04 00 00
 201.622710 1  10              Rx   d 8 EA E9 28 00 02 00 32 00
 201.650913 1  14              Rx   d 8 8C 5F 38 5D 00 00 00 00
 201.651175 1  16              Rx   d 8 00 00 00 00 00 00 00 00
 201.652334 1  11              Rx   d 8 3B B8 28 00 02 00 32 00
 201.652609 1  18              Rx   d 8 00 00 00 00 00 00 00 00
 201.652609 1  18              Rx   d 8 00 00 00 00 00 00 00 00
 201.652609 1  18              Rx   d 8 00 00 00 00 00 00 00 00
 201.652609 1  18              Rx   d 8 00 00 00 00 00 00 00 00
 201.652609 1  18              Rx   d 8 00 00 00 00 00 00 00 00
 201.652609 1  18              Rx   d 8 00 00 00 00 00 00 00 00
 206.723739 1  15              Rx   d 8 4C 40 00 00 05 04 00 00
 206.724904 1  10              Rx   d 8 E7 E9 28 00 01 00 31 00
 206.753117 1  14              Rx   d 8 90 5F 38 5D 00 00 00 00
 206.753386 1  16              Rx   d 8 00 00 00 00 00 00 00 00
 206.754545 1  11              Rx   d 8 39 B8 28 00 01 00 32 00
 206.754817 1  18              Rx   d 8 00 00 00 00 00 00 00 00
 206.754817 1  18              Rx   d 8 00 00 00 00 00 00 00 00
 206.754817 1  18              Rx   d 8 00 00 00 00 00 00 00 00
 206.754817 1  18              Rx   d 8 00 00 00 00 00 00 00 00
 206.754817 1  18              Rx   d 8 00 00 00 00 00 00 00 00
 206.754817 1  18              Rx   d 8 00 00 00 00 00 00 00 00
 211.825514 1  15              Rx   d 8 4C 40 00 00 05 04 00 00
 211.826664 1  10              Rx   d 8 E7 E9 28 00 01 00 2F 00
 211.854885 1  14              Rx   d 8 90 5F 38 5D 00 00 00 00
 211.855156 1  16              Rx   d 8 00 00 00 00 00 00 00 00
 211.856318 1  11              Rx   d 8 39 B8 28 00 02 00 32 00
 211.856582 1  18              Rx   d 8 00 00 00 00 00 00 00 00
 211.856582 1  18              Rx   d 8 00 00 00 00 00 00 00 00
 211.856582 1  18              Rx   d 8 00 00 00 00 00 00 00 00
 211.856582 1  18              Rx   d 8 00 00 00 00 00 00 00 00
 211.856582 1  18              Rx   d 8 00 00 00 00 00 00 00 00
 211.856582 1  18              Rx   d 8 00 00 00 00 00 00 00 00
 216.927451 1  15              Rx   d 8 4C 40 00 00 05 04 00 00
 216.928609 1  10              Rx   d 8 E7 E9 28 00 01 00 31 00
 216.956827 1  14              Rx   d 8 98 5F 38 5D 00 00 00 00
 216.957089 1  16              Rx   d 8 00 00 00 00 00 00 00 00
 216.958250 1  11              Rx   d 8 38 B8 28 00 01 00 32 00
 216.958522 1  18              Rx   d 8 00 00 00 00 00 00 00 00
 216.958522 1  18              Rx   d 8 00 00 00 00 00 00 00 00
 216.958522 1  18              Rx   d 8 00 00 00 00 00 00 00 00
 216.958522 1  18              Rx   d 8 00 00 00 00 00 00 00 00
 216.958522 1  18              Rx   d 8 00 00 00 00 00 00 00 00
 216.958522 1  18              Rx   d 8 00 00 00 00 00 00 00 00
 222.029328 1  15              Rx   d 8 4C 40 00 00 05 04 00 00
 222.030500 1  10              Rx   d 8 E8 E9 28 00 01 00 32 00
 222.058704 1  14              Rx   d 8 90 5F 38 5D 00 00 00 00
 222.058973 1  16              Rx   d 8 00 00 00 00 00 00 00 00
 222.060132 1  11              Rx   d 8 39 B8 28 00 02 00 32 00
 222.060404 1  18              Rx   d 8 00 00 00 00 00 00 00 00
 222.060404 1  18              Rx   d 8 00 00 00 00 00 00 00 00
 222.060404 1  18              Rx   d 8 00 00 00 00 00 00 00 00
 222.060404 1  18              Rx   d 8 00 00 00 00 00 00 00 00
 222.060404 1  18              Rx   d 8 00 00 00 00 00 00 00 00
 222.060404 1  18              Rx   d 8 00 00 00 00 00 00 00 00
 227.131377 1  15              Rx   d 8 4C 40 00 00 05 04 00 00
 227.132543 1  10              Rx   d 8 E7 E9 28 00 01 00 31 00
 227.160747 1  14              Rx   d 8 A0 5F 38 5D 00 00 00 00
 227.161018 1  16              Rx   d 8 00 00 00 00 00 00 00 00
 227.162181 1  11              Rx   d 8 37 B8 28 00 02 00 32 00
 227.162444 1  18              Rx   d 8 00 00 00 00 00 00 00 00
 227.162444 1  18              Rx   d 8 00 00 00 00 00 00 00 00
 227.162444 1  18              Rx   d 8 00 00 00 00 00 00 00 00
 227.162444 1  18              Rx   d 8 00 00 00 00 00 00 00 00
 227.162444 1  18              Rx   d 8 00 00 00 00 00 00 00 00
 227.162444 1  18              Rx   d 8 00 00 00 00 00 00 00 00
 232.233187 1  15              Rx   d 8 4C 40 00 00 05 04 00 00
 232.234355 1  10              Rx   d 8 E7 E9 28 00 01 00 31 00
 232.262556 1  14              Rx   d 8 98 5F 38 5D 00 00 00 00
 232.262832 1  16              Rx   d 8 00 00 00 00 00 00 00 00
 232.263993 1  11              Rx   d 8 38 B8 28 00 01 00 32 00
 232.264265 1  18              Rx   d 8 00 00 00 00 00 00 00 00
 232.264265 1  18              Rx   d 8 00 00 00 00 00 00 00 00
 232.264265 1  18              Rx   d 8 00 00 00 00 00 00 00 00
 232.264265 1  18              Rx   d 8 00 00 00 00 00 00 00 00
 232.264265 1  18              Rx   d 8 00 00 00 00 00 00 00 00
 232.264265 1  18              Rx   d 8 00 00 00 00 00 00 00 00
 237.335228 1  15              Rx   d 8 4C 40 00 00 05 04 00 00
 237.336394 1  10              Rx   d 8 E6 E9 28 00 02 00 31 00
 237.364605 1  14              Rx   d 8 A0 5F 38 5D 00 00 00 00
 237.364874 1  16              Rx   d 8 00 00 00 00 00 00 00 00
 237.366035 1  11              Rx   d 8 37 B8 28 00 01 00 32 00
 237.366299 1  18              Rx   d 8 00 00 00 00 00 00 00 00
 237.366299 1  18              Rx   d 8 00 00 00 00 00 00 00 00
 237.366299 1  18              Rx   d 8 00 00 00 00 00 00 00 00
 237.366299 1  18              Rx   d 8 00 00 00 00 00 00 00 00
 237.366299 1  18              Rx   d 8 00 00 00 00 00 00 00 00
 237.366299 1  18              Rx   d 8 00 00 00 00 00 00 00 00
 242.437539 1  15              Rx   d 8 4C 40 00 00 05 04 00 00
 242.438706 1  10              Rx   d 8 E7 E9 28 00 01 00 32 00
 242.466909 1  14              Rx   d 8 98 5F 78 5D 00 00 00 00
 242.467180 1  16              Rx   d 8 00 00 00 00 00 00 00 00
 242.468343 1  11              Rx   d 8 36 B8 28 00 01 00 32 00
 242.468608 1  18              Rx   d 8 00 00 00 00 00 00 00 00
 242.468608 1  18              Rx   d 8 00 00 00 00 00 00 00 00
 242.468608 1  18              Rx   d 8 00 00 00 00 00 00 00 00
 242.468608 1  18              Rx   d 8 00 00 00 00 00 00 00 00
 242.468608 1  18              Rx   d 8 00 00 00 00 00 00 00 00
 242.468608 1  18              Rx   d 8 00 00 00 00 00 00 00 00
 247.540061 1  15              Rx   d 8 4C 40 00 00 05 04 00 00
 247.541226 1  10              Rx   d 8 E5 E9 28 00 02 00 31 00
 247.569447 1  14              Rx   d 8 A4 5F 78 5D 00 00 00 00
 247.569708 1  16              Rx   d 8 00 00 00 00 00 00 00 00
 247.570859 1  11              Rx   d 8 36 B8 28 00 01 00 32 00
 247.571132 1  18              Rx   d 8 00 00 00 00 00 00 00 00
 247.571132 1  18              Rx   d 8 00 00 00 00 00 00 00 00
 247.571132 1  18              Rx   d 8 00 00 00 00 00 00 00 00
 247.571132 1  18              Rx   d 8 00 00 00 00 00 00 00 00
 247.571132 1  18              Rx   d 8 00 00 00 00 00 00 00 00
 247.571132 1  18              Rx   d 8 00 00 00 00 00 00 00 00
 252.642337 1  15              Rx   d 8 4C 40 00 00 05 04 00 00
 252.643503 1  10              Rx   d 8 E4 E9 28 00 02 00 32 00
 252.671715 1  14              Rx   d 8 A0 5F 78 5D 00 00 00 00
 252.671985 1  16              Rx   d 8 00 00 00 00 00 00 00 00
 252.673138 1  11              Rx   d 8 35 B8 28 00 01 00 32 00
 252.673413 1  18              Rx   d 8 00 00 00 00 00 00 00 00
 252.673413 1  18              Rx   d 8 00 00 00 00 00 00 00 00
 252.673413 1  18              Rx   d 8 00 00 00 00 00 00 00 00
 252.673413 1  18              Rx   d 8 00 00 00 00 00 00 00 00
 252.673413 1  18              Rx   d 8 00 00 00 00 00 00 00 00
 252.673413 1  18              Rx   d 8 00 00 00 00 00 00 00 00
 257.744511 1  15              Rx   d 8 4C 40 00 00 05 04 00 00
 257.745685 1  10              Rx   d 8 E3 E9 28 00 02 00 31 00
 257.773889 1  14              Rx   d 8 A4 5F 78 5D 00 00 00 00
 257.774161 1  16              Rx   d 8 00 00 00 00 00 00 00 00
 257.775316 1  11              Rx   d 8 33 B8 28 00 02 00 31 00
 257.775589 1  18              Rx   d 8 00 00 00 00 00 00 00 00
 257.775589 1  18              Rx   d 8 00 00 00 00 00 00 00 00
 257.775589 1  18              Rx   d 8 00 00 00 00 00 00 00 00
 257.775589 1  18              Rx   d 8 00 00 00 00 00 00 00 00
 257.775589 1  18              Rx   d 8 00 00 00 00 00 00 00 00
 257.775589 1  18              Rx   d 8 00 00 00 00 00 00 00 00
 262.845743 1  15              Rx   d 8 4C 40 00 00 05 04 00 00
 262.846909 1  10              Rx   d 8 E1 E9 28 00 02 00 32 00
 262.875106 1  14              Rx   d 8 A0 5F B8 5D 00 00 00 00
 262.875376 1  16              Rx   d 8 00 00 00 00 00 00 00 00
 262.876541 1  11              Rx   d 8 31 B8 28 00 02 00 32 00
 262.876807 1  18              Rx   d 8 00 00 00 00 00 00 00 00
 262.876807 1  18              Rx   d 8 00 00 00 00 00 00 00 00
 262.876807 1  18              Rx   d 8 00 00 00 00 00 00 00 00
 262.876807 1  18              Rx   d 8 00 00 00 00 00 00 00 00
 262.876807 1  18              Rx   d 8 00 00 00 00 00 00 00 00
 262.876807 1  18              Rx   d 8 00 00 00 00 00 00 00 00
 267.946764 1  15              Rx   d 8 4C 40 00 00 05 04 00 00
 267.947922 1  10              Rx   d 8 DF E9 28 00 02 00 30 00
 267.976137 1  14              Rx   d 8 A4 5F B8 5D 00 00 00 00
 267.976405 1  16              Rx   d 8 00 00 00 00 00 00 00 00
 267.977559 1  11              Rx   d 8 31 B8 28 00 02 00 32 00
 267.977833 1  18              Rx   d 8 00 00 00 00 00 00 00 00
 267.977833 1  18              Rx   d 8 00 00 00 00 00 00 00 00
 267.977833 1  18              Rx   d 8 00 00 00 00 00 00 00 00
 267.977833 1  18              Rx   d 8 00 00 00 00 00 00 00 00
 267.977833 1  18              Rx   d 8 00 00 00 00 00 00 00 00
 267.977833 1  18              Rx   d 8 00 00 00 00 00 00 00 00
 273.048375 1  15              Rx   d 8 4C 40 00 00 05 04 00 00
 273.049541 1  10              Rx   d 8 DF E9 28 00 02 00 31 00
 273.077745 1  14              Rx   d 8 A4 5F B8 5D 00 00 00 00
 273.078018 1  16              Rx   d 8 00 00 00 00 00 00 00 00
 273.079178 1  11              Rx   d 8 2F B8 28 00 02 00 32 00
 273.079451 1  18              Rx   d 8 00 00 00 00 00 00 00 00
 273.079451 1  18              Rx   d 8 00 00 00 00 00 00 00 00
 273.079451 1  18              Rx   d 8 00 00 00 00 00 00 00 00
 273.079451 1  18              Rx   d 8 00 00 00 00 00 00 00 00
 273.079451 1  18              Rx   d 8 00 00 00 00 00 00 00 00
 273.079451 1  18              Rx   d 8 00 00 00 00 00 00 00 00
 278.150024 1  15              Rx   d 8 4C 40 00 00 05 04 00 00
 278.151190 1  10              Rx   d 8 E0 E9 28 00 01 00 32 00
 278.179393 1  14              Rx   d 8 AC 5F 78 5D 00 00 00 00
 278.179661 1  16              Rx   d 8 00 00 00 00 00 00 00 00
 278.180806 1  11              Rx   d 8 2F B8 28 00 02 00 2F 00
 278.181078 1  18              Rx   d 8 00 00 00 00 00 00 00 00
 278.181078 1  18              Rx   d 8 00 00 00 00 00 00 00 00
 278.181078 1  18              Rx   d 8 00 00 00 00 00 00 00 00
 278.181078 1  18              Rx   d 8 00 00 00 00 00 00 00 00
 278.181078 1  18              Rx   d 8 00 00 00 00 00 00 00 00
 278.181078 1  18              Rx   d 8 00 00 00 00 00 00 00 00
 283.251499 1  15              Rx   d 8 4C 40 00 00 05 04 00 00
 283.252647 1  10              Rx   d 8 E0 E9 28 00 02 00 2E 00
 283.280868 1  14              Rx   d 8 AC 5F B8 5D 00 00 00 00
 283.281132 1  16              Rx   d 8 00 00 00 00 00 00 00 00
 283.282288 1  11              Rx   d 8 2F B8 28 00 02 00 31 00
 283.282562 1  18              Rx   d 8 00 00 00 00 00 00 00 00
 283.282562 1  18              Rx   d 8 00 00 00 00 00 00 00 00
 283.282562 1  18              Rx   d 8 00 00 00 00 00 00 00 00
 283.282562 1  18              Rx   d 8 00 00 00 00 00 00 00 00
 283.282562 1  18              Rx   d 8 00 00 00 00 00 00 00 00
 283.282562 1  18              Rx   d 8 00 00 00 00 00 00 00 00
 288.353013 1  15              Rx   d 8 4C 40 00 00 05 04 00 00
 288.354177 1  10              Rx   d 8 DE E9 28 00 01 00 32 00
 288.382380 1  14              Rx   d 8 AC 5F 78 5D 00 00 00 00
 288.382648 1  16              Rx   d 8 00 00 00 00 00 00 00 00
 288.383808 1  11              Rx   d 8 2D B8 28 00 01 00 32 00
 288.384080 1  18              Rx   d 8 00 00 00 00 00 00 00 00
 288.384080 1  18              Rx   d 8 00 00 00 00 00 00 00 00
 288.384080 1  18              Rx   d 8 00 00 00 00 00 00 00 00
 288.384080 1  18              Rx   d 8 00 00 00 00 00 00 00 00
 288.384080 1  18              Rx   d 8 00 00 00 00 00 00 00 00
 288.384080 1  18              Rx   d 8 00 00 00 00 00 00 00 00
 293.454609 1  15              Rx   d 8 4C 40 00 00 05 04 00 00
 293.455757 1  10              Rx   d 8 DE E9 28 00 02 00 2F 00
 293.483988 1  14              Rx   d 8 B0 5F 78 5D 00 00 00 00
 293.484248 1  16              Rx   d 8 00 00 00 00 00 00 00 00
 293.485403 1  11              Rx   d 8 2D B8 28 00 01 00 31 00
 293.485667 1  18              Rx   d 8 00 00 00 00 00 00 00 00
 293.485667 1  18              Rx   d 8 00 00 00 00 00 00 00 00
 293.485667 1  18              Rx   d 8 00 00 00 00 00 00 00 00
 293.485667 1  18              Rx   d 8 00 00 00 00 00 00 00 00
 293.485667 1  18              Rx   d 8 00 00 00 00 00 00 00 00
 293.485667 1  18              Rx   d 8 00 00 00 00 00 00 00 00
 298.556365 1  15              Rx   d 8 4C 40 00 00 05 04 00 00
 298.557532 1  10              Rx   d 8 DE E9 28 00 01 00 32 00
 298.585736 1  14              Rx   d 8 B4 5F 78 5D 00 00 00 00
 298.586006 1  16              Rx   d 8 00 00 00 00 00 00 00 00
 298.587164 1  11              Rx   d 8 2D B8 28 00 01 00 32 00
 298.587438 1  18              Rx   d 8 00 00 00 00 00 00 00 00
 298.587438 1  18              Rx   d 8 00 00 00 00 00 00 00 00
 298.587438 1  18              Rx   d 8 00 00 00 00 00 00 00 00
 298.587438 1  18              Rx   d 8 00 00 00 00 00 00 00 00
 298.587438 1  18              Rx   d 8 00 00 00 00 00 00 00 00
 298.587438 1  18              Rx   d 8 00 00 00 00 00 00 00 00
 303.658070 1  15              Rx   d 8 4C 40 00 00 05 04 00 00
 303.659244 1  10              Rx   d 8 DF E9 28 00 02 00 32 00
 303.687447 1  14              Rx   d 8 B0 5F 78 5D 00 00 00 00
 303.687714 1  16              Rx   d 8 00 00 00 00 00 00 00 00
 303.688874 1  11              Rx   d 8 2D B8 28 00 02 00 32 00
 303.689147 1  18              Rx   d 8 00 00 00 00 00 00 00 00
 303.689147 1  18              Rx   d 8 00 00 00 00 00 00 00 00
 303.689147 1  18              Rx   d 8 00 00 00 00 00 00 00 00
 303.689147 1  18              Rx   d 8 00 00 00 00 00 00 00 00
 303.689147 1  18              Rx   d 8 00 00 00 00 00 00 00 00
 303.689147 1  18              Rx   d 8 00 00 00 00 00 00 00 00
 308.759890 1  15              Rx   d 8 4C 40 00 00 05 04 00 00
 308.761050 1  10              Rx   d 8 DC E9 28 00 01 00 31 00
 308.789270 1  14              Rx   d 8 B0 5F B8 5D 00 00 00 00
 308.789539 1  16              Rx   d 8 00 00 00 00 00 00 00 00
 308.790699 1  11              Rx   d 8 2B B8 28 00 01 00 32 00
 308.790963 1  18              Rx   d 8 00 00 00 00 00 00 00 00
 308.790963 1  18              Rx   d 8 00 00 00 00 00 00 00 00
 308.790963 1  18              Rx   d 8 00 00 00 00 00 00 00 00
 308.790963 1  18              Rx   d 8 00 00 00 00 00 00 00 00
 308.790963 1  18              Rx   d 8 00 00 00 00 00 00 00 00
 308.790963 1  18              Rx   d 8 00 00 00 00 00 00 00 00
 313.862083 1  15              Rx   d 8 4C 40 00 00 05 04 00 00
 313.863249 1  10              Rx   d 8 DB E9 28 00 02 00 31 00
 313.891460 1  14              Rx   d 8 B0 5F B8 5D 00 00 00 00
 313.891729 1  16              Rx   d 8 00 00 00 00 00 00 00 00
 313.892889 1  11              Rx   d 8 2A B8 28 00 02 00 32 00
 313.893162 1  18              Rx   d 8 00 00 00 00 00 00 00 00
 313.893162 1  18              Rx   d 8 00 00 00 00 00 00 00 00
 313.893162 1  18              Rx   d 8 00 00 00 00 00 00 00 00
 313.893162 1  18              Rx   d 8 00 00 00 00 00 00 00 00
 313.893162 1  18              Rx   d 8 00 00 00 00 00 00 00 00
 313.893162 1  18              Rx   d 8 00 00 00 00 00 00 00 00
 318.964433 1  15              Rx   d 8 4C 40 00 00 05 04 00 00
 318.965600 1  10              Rx   d 8 DA E9 28 00 02 00 31 00
 318.993812 1  14              Rx   d 8 B4 5F 78 5D 00 00 00 00
 318.994082 1  16              Rx   d 8 00 00 00 00 00 00 00 00
 318.995245 1  11              Rx   d 8 28 B8 28 00 01 00 32 00
 318.995518 1  18              Rx   d 8 00 00 00 00 00 00 00 00
 318.995518 1  18              Rx   d 8 00 00 00 00 00 00 00 00
 318.995518 1  18              Rx   d 8 00 00 00 00 00 00 00 00
 318.995518 1  18              Rx   d 8 00 00 00 00 00 00 00 00
 318.995518 1  18              Rx   d 8 00 00 00 00 00 00 00 00
 318.995518 1  18              Rx   d 8 00 00 00 00 00 00 00 00
 324.066792 1  15              Rx   d 8 4C 40 00 00 05 04 00 00
 324.067951 1  10              Rx   d 8 DA E9 28 00 02 00 31 00
 324.096163 1  14              Rx   d 8 B4 5F 78 5D 00 00 00 00
 324.096432 1  16              Rx   d 8 00 00 00 00 00 00 00 00
 324.097590 1  11              Rx   d 8 28 B8 28 00 02 00 32 00
 324.097863 1  18              Rx   d 8 00 00 00 00 00 00 00 00
 324.097863 1  18              Rx   d 8 00 00 00 00 00 00 00 00
 324.097863 1  18              Rx   d 8 00 00 00 00 00 00 00 00
 324.097863 1  18              Rx   d 8 00 00 00 00 00 00 00 00
 324.097863 1  18              Rx   d 8 00 00 00 00 00 00 00 00
 324.097863 1  18              Rx   d 8 00 00 00 00 00 00 00 00
 329.168968 1  15              Rx   d 8 4C 40 00 00 05 04 00 00
 329.170135 1  10              Rx   d 8 D8 E9 28 00 02 00 31 00
 329.198347 1  14              Rx   d 8 BC 5F 78 5D 00 00 00 00
 329.198608 1  16              Rx   d 8 00 00 00 00 00 00 00 00
 329.199769 1  11              Rx   d 8 26 B8 28 00 01 00 32 00
 329.200043 1  18              Rx   d 8 00 00 00 00 00 00 00 00
 329.200043 1  18              Rx   d 8 00 00 00 00 00 00 00 00
 329.200043 1  18              Rx   d 8 00 00 00 00 00 00 00 00
 329.200043 1  18              Rx   d 8 00 00 00 00 00 00 00 00
 329.200043 1  18              Rx   d 8 00 00 00 00 00 00 00 00
 329.200043 1  18              Rx   d 8 00 00 00 00 00 00 00 00
 334.270818 1  15              Rx   d 8 4C 40 00 00 05 04 00 00
 334.271976 1  10              Rx   d 8 D6 E9 28 00 02 00 30 00
 334.300189 1  14              Rx   d 8 B4 5F 78 5D 00 00 00 00
 334.300458 1  16              Rx   d 8 00 00 00 00 00 00 00 00
 334.301596 1  11              Rx   d 8 25 B8 28 00 02 00 2F 00
 334.301870 1  18              Rx   d 8 00 00 00 00 00 00 00 00
 334.301870 1  18              Rx   d 8 00 00 00 00 00 00 00 00
 334.301870 1  18              Rx   d 8 00 00 00 00 00 00 00 00
 334.301870 1  18              Rx   d 8 00 00 00 00 00 00 00 00
 334.301870 1  18              Rx   d 8 00 00 00 00 00 00 00 00
 334.301870 1  18              Rx   d 8 00 00 00 00 00 00 00 00
 339.372755 1  15              Rx   d 8 4C 40 00 00 05 04 00 00
 339.373913 1  10              Rx   d 8 D5 E9 28 00 01 00 30 00
 339.402135 1  14              Rx   d 8 C0 5F 78 5D 00 00 00 00
 339.402405 1  16              Rx   d 8 00 00 00 00 00 00 00 00
 339.403564 1  11              Rx   d 8 24 B8 28 00 01 00 32 00
 339.403826 1  18              Rx   d 8 00 00 00 00 00 00 00 00
 339.403826 1  18              Rx   d 8 00 00 00 00 00 00 00 00
 339.403826 1  18              Rx   d 8 00 00 00 00 00 00 00 00
 339.403826 1  18              Rx   d 8 00 00 00 00 00 00 00 00
 339.403826 1  18              Rx   d 8 00 00 00 00 00 00 00 00
 339.403826 1  18              Rx   d 8 00 00 00 00 00 00 00 00
 344.474733 1  15              Rx   d 8 4C 40 00 00 05 04 00 00
 344.475898 1  10              Rx   d 8 D9 E9 28 00 02 00 32 00
 344.504103 1  14              Rx   d 8 BC 5F 38 5D 00 00 00 00
 344.504365 1  16              Rx   d 8 00 00 00 00 00 00 00 00
 344.505528 1  11              Rx   d 8 26 B8 28 00 01 00 32 00
 344.505794 1  18              Rx   d 8 00 00 00 00 00 00 00 00
 344.505794 1  18              Rx   d 8 00 00 00 00 00 00 00 00
 344.505794 1  18              Rx   d 8 00 00 00 00 00 00 00 00
 344.505794 1  18              Rx   d 8 00 00 00 00 00 00 00 00
 344.505794 1  18              Rx   d 8 00 00 00 00 00 00 00 00
 344.505794 1  18              Rx   d 8 00 00 00 00 00 00 00 00
 349.576818 1  15              Rx   d 8 4C 40 00 00 05 04 00 00
 349.577967 1  10              Rx   d 8 D5 E9 28 00 02 00 2F 00
 349.606190 1  14              Rx   d 8 C8 5F 78 5D 00 00 00 00
 349.606459 1  16              Rx   d 8 00 00 00 00 00 00 00 00
 349.607613 1  11              Rx   d 8 24 B8 28 00 01 00 32 00
 349.607878 1  18              Rx   d 8 00 00 00 00 00 00 00 00
 349.607878 1  18              Rx   d 8 00 00 00 00 00 00 00 00
 349.607878 1  18              Rx   d 8 00 00 00 00 00 00 00 00
 349.607878 1  18              Rx   d 8 00 00 00 00 00 00 00 00
 349.607878 1  18              Rx   d 8 00 00 00 00 00 00 00 00
 349.607878 1  18              Rx   d 8 00 00 00 00 00 00 00 00
 354.678845 1  15              Rx   d 8 4C 40 00 00 05 04 00 00
 354.679997 1  10              Rx   d 8 D6 E9 28 00 02 00 2F 00
 354.708218 1  14              Rx   d 8 C0 5F 78 5D 00 00 00 00
 354.708487 1  16              Rx   d 8 00 00 00 00 00 00 00 00
 354.709639 1  11              Rx   d 8 24 B8 28 00 01 00 31 00
 354.709910 1  18              Rx   d 8 00 00 00 00 00 00 00 00
 354.709910 1  18              Rx   d 8 00 00 00 00 00 00 00 00
 354.709910 1  18              Rx   d 8 00 00 00 00 00 00 00 00
 354.709910 1  18              Rx   d 8 00 00 00 00 00 00 00 00
 354.709910 1  18              Rx   d 8 00 00 00 00 00 00 00 00
 354.709910 1  18              Rx   d 8 00 00 00 00 00 00 00 00
 359.780920 1  15              Rx   d 8 4C 40 00 00 05 04 00 00
 359.782080 1  10              Rx   d 8 D5 E9 28 00 01 00 32 00
 359.810291 1  14              Rx   d 8 CC 5F 78 5D 00 00 00 00
 359.810551 1  16              Rx   d 8 00 00 00 00 00 00 00 00
 359.811707 1  11              Rx   d 8 23 B8 28 00 01 00 32 00
 359.811982 1  18              Rx   d 8 00 00 00 00 00 00 00 00
 359.811982 1  18              Rx   d 8 00 00 00 00 00 00 00 00
 359.811982 1  18              Rx   d 8 00 00 00 00 00 00 00 00
 359.811982 1  18              Rx   d 8 00 00 00 00 00 00 00 00
 359.811982 1  18              Rx   d 8 00 00 00 00 00 00 00 00
 359.811982 1  18              Rx   d 8 00 00 00 00 00 00 00 00
 364.882796 1  15              Rx   d 8 4C 40 00 00 05 04 00 00
 364.883955 1  10              Rx   d 8 D6 E9 28 00 02 00 31 00
 364.912169 1  14              Rx   d 8 C0 5F 38 5D 00 00 00 00
 364.912437 1  16              Rx   d 8 00 00 00 00 00 00 00 00
 364.913592 1  11              Rx   d 8 23 B8 28 00 02 00 31 00
 364.913857 1  18              Rx   d 8 00 00 00 00 00 00 00 00
 364.913857 1  18              Rx   d 8 00 00 00 00 00 00 00 00
 364.913857 1  18              Rx   d 8 00 00 00 00 00 00 00 00
 364.913857 1  18              Rx   d 8 00 00 00 00 00 00 00 00
 364.913857 1  18              Rx   d 8 00 00 00 00 00 00 00 00
 364.913857 1  18              Rx   d 8 00 00 00 00 00 00 00 00
 369.984867 1  15              Rx   d 8 4C 40 00 00 05 04 00 00
 369.986034 1  10              Rx   d 8 D4 E9 28 00 01 00 32 00
 370.014238 1  14              Rx   d 8 CC 5F 38 5D 00 00 00 00
 370.014516 1  16              Rx   d 8 00 00 00 00 00 00 00 00
 370.015676 1  11              Rx   d 8 21 B8 28 00 01 00 32 00
 370.015940 1  18              Rx   d 8 00 00 00 00 00 00 00 00
 370.015940 1  18              Rx   d 8 00 00 00 00 00 00 00 00
 370.015940 1  18              Rx   d 8 00 00 00 00 00 00 00 00
 370.015940 1  18              Rx   d 8 00 00 00 00 00 00 00 00
 370.015940 1  18              Rx   d 8 00 00 00 00 00 00 00 00
 370.015940 1  18              Rx   d 8 00 00 00 00 00 00 00 00
 375.087029 1  15              Rx   d 8 4C 40 00 00 05 04 00 00
 375.088187 1  10              Rx   d 8 D1 E9 28 00 02 00 31 00
 375.116399 1  14              Rx   d 8 C8 5F 78 5D 00 00 00 00
 375.116667 1  16              Rx   d 8 00 00 00 00 00 00 00 00
 375.117834 1  11              Rx   d 8 1F B8 28 00 02 00 32 00
 375.118106 1  18              Rx   d 8 00 00 00 00 00 00 00 00
 375.118106 1  18              Rx   d 8 00 00 00 00 00 00 00 00
 375.118106 1  18              Rx   d 8 00 00 00 00 00 00 00 00
 375.118106 1  18              Rx   d 8 00 00 00 00 00 00 00 00
 375.118106 1  18              Rx   d 8 00 00 00 00 00 00 00 00
 375.118106 1  18              Rx   d 8 00 00 00 00 00 00 00 00
 380.189333 1  15              Rx   d 8 4C 40 00 00 05 04 00 00
 380.190499 1  10              Rx   d 8 D0 E9 28 00 02 00 31 00
 380.218711 1  14              Rx   d 8 CC 5F 78 5D 00 00 00 00
 380.218982 1  16              Rx   d 8 00 00 00 00 00 00 00 00
 380.220135 1  11              Rx   d 8 1D B8 28 00 02 00 30 00
 380.220399 1  18              Rx   d 8 00 00 00 00 00 00 00 00
 380.220399 1  18              Rx   d 8 00 00 00 00 00 00 00 00
 380.220399 1  18              Rx   d 8 00 00 00 00 00 00 00 00
 380.220399 1  18              Rx   d 8 00 00 00 00 00 00 00 00
 380.220399 1  18              Rx   d 8 00 00 00 00 00 00 00 00
 380.220399 1  18              Rx   d 8 00 00 00 00 00 00 00 00
 385.291627 1  15              Rx   d 8 4C 40 00 00 05 04 00 00
 385.292802 1  10              Rx   d 8 D2 E9 28 00 02 00 32 00
 385.321007 1  14              Rx   d 8 CC 5F 78 5D 00 00 00 00
 385.321276 1  16              Rx   d 8 00 00 00 00 00 00 00 00
 385.322439 1  11              Rx   d 8 1E B8 28 00 01 00 32 00
 385.322706 1  18              Rx   d 8 00 00 00 00 00 00 00 00
 385.322706 1  18              Rx   d 8 00 00 00 00 00 00 00 00
 385.322706 1  18              Rx   d 8 00 00 00 00 00 00 00 00
 385.322706 1  18              Rx   d 8 00 00 00 00 00 00 00 00
 385.322706 1  18              Rx   d 8 00 00 00 00 00 00 00 00
 385.322706 1  18              Rx   d 8 00 00 00 00 00 00 00 00
 390.393580 1  15              Rx   d 8 4C 40 00 00 05 04 00 00
 390.394755 1  10              Rx   d 8 D1 E9 28 00 02 00 32 00
 390.422959 1  14              Rx   d 8 D0 5F 78 5D 00 00 00 00
 390.423230 1  16              Rx   d 8 00 00 00 00 00 00 00 00
 390.424383 1  11              Rx   d 8 1C B8 28 00 01 00 31 00
 390.424649 1  18              Rx   d 8 00 00 00 00 00 00 00 00
 390.424649 1  18              Rx   d 8 00 00 00 00 00 00 00 00
 390.424649 1  18              Rx   d 8 00 00 00 00 00 00 00 00
 390.424649 1  18              Rx   d 8 00 00 00 00 00 00 00 00
 390.424649 1  18              Rx   d 8 00 00 00 00 00 00 00 00
 390.424649 1  18              Rx   d 8 00 00 00 00 00 00 00 00
 395.495294 1  15              Rx   d 8 4C 40 00 00 05 04 00 00
 395.496453 1  10              Rx   d 8 D2 E9 28 00 01 00 31 00
 395.524662 1  14              Rx   d 8 CC 5F 6C 5D 00 00 00 00
 395.524931 1  16              Rx   d 8 00 00 00 00 00 00 00 00
 395.526102 1  11              Rx   d 8 1F B8 28 00 02 00 32 00
 395.526366 1  18              Rx   d 8 00 00 00 00 00 00 00 00
 395.526366 1  18              Rx   d 8 00 00 00 00 00 00 00 00
 395.526366 1  18              Rx   d 8 00 00 00 00 00 00 00 00
 395.526366 1  18              Rx   d 8 00 00 00 00 00 00 00 00
 395.526366 1  18              Rx   d 8 00 00 00 00 00 00 00 00
 395.526366 1  18              Rx   d 8 00 00 00 00 00 00 00 00
 400.596834 1  15              Rx   d 8 4C 40 00 00 05 04 00 00
 400.597984 1  10              Rx   d 8 D1 E9 28 00 02 00 2F 00
 400.626205 1  14              Rx   d 8 D0 5F 78 5D 00 00 00 00
 400.626476 1  16              Rx   d 8 00 00 00 00 00 00 00 00
 400.627629 1  11              Rx   d 8 1D B8 28 00 02 00 31 00
 400.627894 1  18              Rx   d 8 00 00 00 00 00 00 00 00
 400.627894 1  18              Rx   d 8 00 00 00 00 00 00 00 00
 400.627894 1  18              Rx   d 8 00 00 00 00 00 00 00 00
 400.627894 1  18              Rx   d 8 00 00 00 00 00 00 00 00
 400.627894 1  18              Rx   d 8 00 00 00 00 00 00 00 00
 400.627894 1  18              Rx   d 8 00 00 00 00 00 00 00 00
 405.698258 1  15              Rx   d 8 4C 40 00 00 05 04 00 00
 405.699416 1  10              Rx   d 8 D1 E9 28 00 02 00 30 00
 405.727633 1  14              Rx   d 8 CC 5F 6C 5D 00 00 00 00
 405.727903 1  16              Rx   d 8 00 00 00 00 00 00 00 00
 405.729053 1  11              Rx   d 8 1E B8 28 00 02 00 31 00
 405.729326 1  18              Rx   d 8 00 00 00 00 00 00 00 00
 405.729326 1  18              Rx   d 8 00 00 00 00 00 00 00 00
 405.729326 1  18              Rx   d 8 00 00 00 00 00 00 00 00
 405.729326 1  18              Rx   d 8 00 00 00 00 00 00 00 00
 405.729326 1  18              Rx   d 8 00 00 00 00 00 00 00 00
 405.729326 1  18              Rx   d 8 00 00 00 00 00 00 00 00
 410.800005 1  15              Rx   d 8 4C 40 00 00 05 04 00 00
 410.801167 1  10              Rx   d 8 CE E9 28 00 02 00 32 00
 410.829379 1  14              Rx   d 8 D8 5F 78 5D 00 00 00 00
 410.829648 1  16              Rx   d 8 00 00 00 00 00 00 00 00
 410.830809 1  11              Rx   d 8 1A B8 28 00 02 00 32 00
 410.831073 1  18              Rx   d 8 00 00 00 00 00 00 00 00
 410.831073 1  18              Rx   d 8 00 00 00 00 00 00 00 00
 410.831073 1  18              Rx   d 8 00 00 00 00 00 00 00 00
 410.831073 1  18              Rx   d 8 00 00 00 00 00 00 00 00
 410.831073 1  18              Rx   d 8 00 00 00 00 00 00 00 00
 410.831073 1  18              Rx   d 8 00 00 00 00 00 00 00 00
 415.901651 1  15              Rx   d 8 4C 40 00 00 05 04 00 00
 415.902807 1  10              Rx   d 8 CE E9 28 00 02 00 31 00
 415.931020 1  14              Rx   d 8 D0 5F 6C 5D 00 00 00 00
 415.931288 1  16              Rx   d 8 00 00 00 00 00 00 00 00
 415.932453 1  11              Rx   d 8 1A B8 28 00 02 00 32 00
 415.932717 1  18              Rx   d 8 00 00 00 00 00 00 00 00
 415.932717 1  18              Rx   d 8 00 00 00 00 00 00 00 00
 415.932717 1  18              Rx   d 8 00 00 00 00 00 00 00 00
 415.932717 1  18              Rx   d 8 00 00 00 00 00 00 00 00
 415.932717 1  18              Rx   d 8 00 00 00 00 00 00 00 00
 415.932717 1  18              Rx   d 8 00 00 00 00 00 00 00 00
 421.003295 1  15              Rx   d 8 4C 40 00 00 05 04 00 00
 421.004460 1  10              Rx   d 8 CD E9 28 00 01 00 32 00
 421.032655 1  14              Rx   d 8 D8 5F 6C 5D 00 00 00 00
 421.032917 1  16              Rx   d 8 00 00 00 00 00 00 00 00
 421.034080 1  11              Rx   d 8 19 B8 28 00 01 00 32 00
 421.034353 1  18              Rx   d 8 00 00 00 00 00 00 00 00
 421.034353 1  18              Rx   d 8 00 00 00 00 00 00 00 00
 421.034353 1  18              Rx   d 8 00 00 00 00 00 00 00 00
 421.034353 1  18              Rx   d 8 00 00 00 00 00 00 00 00
 421.034353 1  18              Rx   d 8 00 00 00 00 00 00 00 00
 421.034353 1  18              Rx   d 8 00 00 00 00 00 00 00 00
 426.104837 1  15              Rx   d 8 4C 40 00 00 05 04 00 00
 426.106005 1  10              Rx   d 8 CD E9 28 00 02 00 31 00
 426.134207 1  14              Rx   d 8 E0 5F 6C 5D 00 00 00 00
 426.134478 1  16              Rx   d 8 00 00 00 00 00 00 00 00
 426.135641 1  11              Rx   d 8 18 B8 28 00 02 00 32 00
 426.135906 1  18              Rx   d 8 00 00 00 00 00 00 00 00
 426.135906 1  18              Rx   d 8 00 00 00 00 00 00 00 00
 426.135906 1  18              Rx   d 8 00 00 00 00 00 00 00 00
 426.135906 1  18              Rx   d 8 00 00 00 00 00 00 00 00
 426.135906 1  18              Rx   d 8 00 00 00 00 00 00 00 00
 426.135906 1  18              Rx   d 8 00 00 00 00 00 00 00 00
 431.206214 1  15              Rx   d 8 4C 40 00 00 05 04 00 00
 431.207379 1  10              Rx   d 8 CB E9 28 00 01 00 31 00
 431.235583 1  14              Rx   d 8 E0 5F 2C 5D 00 00 00 00
 431.235850 1  16              Rx   d 8 00 00 00 00 00 00 00 00
 431.237010 1  11              Rx   d 8 16 B8 28 00 02 00 32 00
 431.237275 1  18              Rx   d 8 00 00 00 00 00 00 00 00
 431.237275 1  18              Rx   d 8 00 00 00 00 00 00 00 00
 431.237275 1  18              Rx   d 8 00 00 00 00 00 00 00 00
 431.237275 1  18              Rx   d 8 00 00 00 00 00 00 00 00
 431.237275 1  18              Rx   d 8 00 00 00 00 00 00 00 00
 431.237275 1  18              Rx   d 8 00 00 00 00 00 00 00 00
 436.307715 1  15              Rx   d 8 4C 40 00 00 05 04 00 00
 436.308880 1  10              Rx   d 8 CB E9 28 00 01 00 30 00
 436.337085 1  14              Rx   d 8 D8 5F 6C 5D 00 00 00 00
 436.337355 1  16              Rx   d 8 00 00 00 00 00 00 00 00
 436.338502 1  11              Rx   d 8 15 B8 28 00 01 00 30 00
 436.338767 1  18              Rx   d 8 00 00 00 00 00 00 00 00
 436.338767 1  18              Rx   d 8 00 00 00 00 00 00 00 00
 436.338767 1  18              Rx   d 8 00 00 00 00 00 00 00 00
 436.338767 1  18              Rx   d 8 00 00 00 00 00 00 00 00
 436.338767 1  18              Rx   d 8 00 00 00 00 00 00 00 00
 436.338767 1  18              Rx   d 8 00 00 00 00 00 00 00 00
 441.409073 1  15              Rx   d 8 4C 40 00 00 05 04 00 00
 441.410230 1  10              Rx   d 8 C8 E9 28 00 02 00 30 00
 441.438442 1  14              Rx   d 8 E8 5F 6C 5D 00 00 00 00
 441.438713 1  16              Rx   d 8 00 00 00 00 00 00 00 00
 441.439868 1  11              Rx   d 8 14 B8 28 00 01 00 32 00
 441.440141 1  18              Rx   d 8 00 00 00 00 00 00 00 00
 441.440141 1  18              Rx   d 8 00 00 00 00 00 00 00 00
 441.440141 1  18              Rx   d 8 00 00 00 00 00 00 00 00
 441.440141 1  18              Rx   d 8 00 00 00 00 00 00 00 00
 441.440141 1  18              Rx   d 8 00 00 00 00 00 00 00 00
 441.440141 1  18              Rx   d 8 00 00 00 00 00 00 00 00
 446.510145 1  15              Rx   d 8 4C 40 00 00 05 04 00 00
 446.511310 1  10              Rx   d 8 C8 E9 28 00 02 00 32 00
 446.539506 1  14              Rx   d 8 E8 5F 2C 5D 00 00 00 00
 446.539776 1  16              Rx   d 8 00 00 00 00 00 00 00 00
 446.540937 1  11              Rx   d 8 14 B8 28 00 01 00 32 00
 446.541202 1  18              Rx   d 8 00 00 00 00 00 00 00 00
 446.541202 1  18              Rx   d 8 00 00 00 00 00 00 00 00
 446.541202 1  18              Rx   d 8 00 00 00 00 00 00 00 00
 446.541202 1  18              Rx   d 8 00 00 00 00 00 00 00 00
 446.541202 1  18              Rx   d 8 00 00 00 00 00 00 00 00
 446.541202 1  18              Rx   d 8 00 00 00 00 00 00 00 00
 451.611273 1  15              Rx   d 8 4C 40 00 00 05 04 00 00
 451.612429 1  10              Rx   d 8 C5 E9 28 00 01 00 31 00
 451.640640 1  14              Rx   d 8 E8 5F 2C 5D 00 00 00 00
 451.640917 1  16              Rx   d 8 00 00 00 00 00 00 00 00
 451.642078 1  11              Rx   d 8 11 B8 28 00 02 00 32 00
 451.642343 1  18              Rx   d 8 00 00 00 00 00 00 00 00
 451.642343 1  18              Rx   d 8 00 00 00 00 00 00 00 00
 451.642343 1  18              Rx   d 8 00 00 00 00 00 00 00 00
 451.642343 1  18              Rx   d 8 00 00 00 00 00 00 00 00
 451.642343 1  18              Rx   d 8 00 00 00 00 00 00 00 00
 451.642343 1  18              Rx   d 8 00 00 00 00 00 00 00 00
 456.712970 1  15              Rx   d 8 4C 40 00 00 05 04 00 00
 456.714130 1  10              Rx   d 8 C6 E9 28 00 02 00 31 00
 456.742342 1  14              Rx   d 8 E8 5F 2C 5D 00 00 00 00
 456.742611 1  16              Rx   d 8 00 00 00 00 00 00 00 00
 456.743759 1  11              Rx   d 8 11 B8 28 00 01 00 31 00
 456.744034 1  18              Rx   d 8 00 00 00 00 00 00 00 00
 456.744034 1  18              Rx   d 8 00 00 00 00 00 00 00 00
 456.744034 1  18              Rx   d 8 00 00 00 00 00 00 00 00
 456.744034 1  18              Rx   d 8 00 00 00 00 00 00 00 00
 456.744034 1  18              Rx   d 8 00 00 00 00 00 00 00 00
 456.744034 1  18              Rx   d 8 00 00 00 00 00 00 00 00
 461.815070 1  15              Rx   d 8 4C 40 00 00 05 04 00 00
 461.816235 1  10              Rx   d 8 C5 E9 28 00 01 00 32 00
 461.844448 1  14              Rx   d 8 EC 5F 2C 5D 00 00 00 00
 461.844711 1  16              Rx   d 8 00 00 00 00 00 00 00 00
 461.845864 1  11              Rx   d 8 10 B8 28 00 01 00 32 00
 461.846130 1  18              Rx   d 8 00 00 00 00 00 00 00 00
 461.846130 1  18              Rx   d 8 00 00 00 00 00 00 00 00
 461.846130 1  18              Rx   d 8 00 00 00 00 00 00 00 00
 461.846130 1  18              Rx   d 8 00 00 00 00 00 00 00 00
 461.846130 1  18              Rx   d 8 00 00 00 00 00 00 00 00
 461.846130 1  18              Rx   d 8 00 00 00 00 00 00 00 00
 466.917005 1  15              Rx   d 8 4C 40 00 00 05 04 00 00
 466.918170 1  10              Rx   d 8 C3 E9 28 00 02 00 31 00
 466.946373 1  14              Rx   d 8 E8 5F 2C 5D 00 00 00 00
 466.946642 1  16              Rx   d 8 00 00 00 00 00 00 00 00
 466.947808 1  11              Rx   d 8 0F B8 28 00 01 00 32 00
 466.948072 1  18              Rx   d 8 00 00 00 00 00 00 00 00
 466.948072 1  18              Rx   d 8 00 00 00 00 00 00 00 00
 466.948072 1  18              Rx   d 8 00 00 00 00 00 00 00 00
 466.948072 1  18              Rx   d 8 00 00 00 00 00 00 00 00
 466.948072 1  18              Rx   d 8 00 00 00 00 00 00 00 00
 466.948072 1  18              Rx   d 8 00 00 00 00 00 00 00 00
 472.018786 1  15              Rx   d 8 4C 40 00 00 05 04 00 00
 472.019953 1  10              Rx   d 8 C4 E9 28 00 02 00 32 00
 472.048157 1  14              Rx   d 8 F0 5F 2C 5D 00 00 00 00
 472.048427 1  16              Rx   d 8 00 00 00 00 00 00 00 00
 472.049577 1  11              Rx   d 8 0E B8 28 00 01 00 32 00
 472.049849 1  18              Rx   d 8 00 00 00 00 00 00 00 00
 472.049849 1  18              Rx   d 8 00 00 00 00 00 00 00 00
 472.049849 1  18              Rx   d 8 00 00 00 00 00 00 00 00
 472.049849 1  18              Rx   d 8 00 00 00 00 00 00 00 00
 472.049849 1  18              Rx   d 8 00 00 00 00 00 00 00 00
 472.049849 1  18              Rx   d 8 00 00 00 00 00 00 00 00
 477.120294 1  15              Rx   d 8 4C 40 00 00 05 04 00 00
 477.121468 1  10              Rx   d 8 C3 E9 28 00 02 00 31 00
 477.149671 1  14              Rx   d 8 EC 5F 6C 5D 00 00 00 00
 477.149931 1  16              Rx   d 8 00 00 00 00 00 00 00 00
 477.151092 1  11              Rx   d 8 0D B8 28 00 01 00 32 00
 477.151363 1  18              Rx   d 8 00 00 00 00 00 00 00 00
 477.151363 1  18              Rx   d 8 00 00 00 00 00 00 00 00
 477.151363 1  18              Rx   d 8 00 00 00 00 00 00 00 00
 477.151363 1  18              Rx   d 8 00 00 00 00 00 00 00 00
 477.151363 1  18              Rx   d 8 00 00 00 00 00 00 00 00
 477.151363 1  18              Rx   d 8 00 00 00 00 00 00 00 00
 482.222587 1  15              Rx   d 8 4C 40 00 00 05 04 00 00
 482.223745 1  10              Rx   d 8 C3 E9 28 00 02 00 30 00
 482.251974 1  14              Rx   d 8 F8 5F B0 5D 00 00 00 00
 482.252245 1  16              Rx   d 8 00 00 00 00 00 00 00 00
 482.253400 1  11              Rx   d 8 0C B8 28 00 02 00 32 00
 482.253664 1  18              Rx   d 8 00 00 00 00 00 00 00 00
 482.253664 1  18              Rx   d 8 00 00 00 00 00 00 00 00
 482.253664 1  18              Rx   d 8 00 00 00 00 00 00 00 00
 482.253664 1  18              Rx   d 8 00 00 00 00 00 00 00 00
 482.253664 1  18              Rx   d 8 00 00 00 00 00 00 00 00
 482.253664 1  18              Rx   d 8 00 00 00 00 00 00 00 00
 487.325118 1  15              Rx   d 8 4C 40 00 00 05 04 00 00
 487.326274 1  10              Rx   d 8 C2 E9 28 00 02 00 31 00
 487.354503 1  14              Rx   d 8 F0 5F B0 5D 00 00 00 00
 487.354764 1  16              Rx   d 8 00 00 00 00 00 00 00 00
 487.355927 1  11              Rx   d 8 0B B8 28 00 02 00 32 00
 487.356202 1  18              Rx   d 8 00 00 00 00 00 00 00 00
 487.356202 1  18              Rx   d 8 00 00 00 00 00 00 00 00
 487.356202 1  18              Rx   d 8 00 00 00 00 00 00 00 00
 487.356202 1  18              Rx   d 8 00 00 00 00 00 00 00 00
 487.356202 1  18              Rx   d 8 00 00 00 00 00 00 00 00
 487.356202 1  18              Rx   d 8 00 00 00 00 00 00 00 00
 492.427278 1  15              Rx   d 8 4C 40 00 00 05 04 00 00
 492.428445 1  10              Rx   d 8 BF E9 28 00 02 00 32 00
 492.456656 1  14              Rx   d 8 FC 5F F0 5D 00 00 00 00
 492.456926 1  16              Rx   d 8 00 00 00 00 00 00 00 00
 492.458072 1  11              Rx   d 8 09 B8 28 00 02 00 30 00
 492.458337 1  18              Rx   d 8 00 00 00 00 00 00 00 00
 492.458337 1  18              Rx   d 8 00 00 00 00 00 00 00 00
 492.458337 1  18              Rx   d 8 00 00 00 00 00 00 00 00
 492.458337 1  18              Rx   d 8 00 00 00 00 00 00 00 00
 492.458337 1  18              Rx   d 8 00 00 00 00 00 00 00 00
 492.458337 1  18              Rx   d 8 00 00 00 00 00 00 00 00
 497.529427 1  15              Rx   d 8 4C 40 00 00 05 04 00 00
 497.530601 1  10              Rx   d 8 C1 E9 28 00 02 00 32 00
 497.558803 1  14              Rx   d 8 F0 5F B0 5D 00 00 00 00
 497.559066 1  16              Rx   d 8 00 00 00 00 00 00 00 00
 497.560233 1  11              Rx   d 8 09 B8 28 00 02 00 32 00
 497.560498 1  18              Rx   d 8 00 00 00 00 00 00 00 00
 497.560498 1  18              Rx   d 8 00 00 00 00 00 00 00 00
 497.560498 1  18              Rx   d 8 00 00 00 00 00 00 00 00
 497.560498 1  18              Rx   d 8 00 00 00 00 00 00 00 00
 497.560498 1  18              Rx   d 8 00 00 00 00 00 00 00 00
 497.560498 1  18              Rx   d 8 00 00 00 00 00 00 00 00
 502.631161 1  15              Rx   d 8 4C 40 00 00 05 04 00 00
 502.632311 1  10              Rx   d 8 BD E9 28 00 02 00 2F 00
 502.660532 1  14              Rx   d 8 04 60 6C 5D 00 00 00 00
 502.660803 1  16              Rx   d 8 00 00 00 00 00 00 00 00
 502.661961 1  11              Rx   d 8 06 B8 28 00 02 00 32 00
 502.662226 1  18              Rx   d 8 00 00 00 00 00 00 00 00
 502.662226 1  18              Rx   d 8 00 00 00 00 00 00 00 00
 502.662226 1  18              Rx   d 8 00 00 00 00 00 00 00 00
 502.662226 1  18              Rx   d 8 00 00 00 00 00 00 00 00
 502.662226 1  18              Rx   d 8 00 00 00 00 00 00 00 00
 502.662226 1  18              Rx   d 8 00 00 00 00 00 00 00 00
 507.732631 1  15              Rx   d 8 4C 40 00 00 05 04 00 00
 507.733804 1  10              Rx   d 8 BD E9 28 00 01 00 32 00
 507.762009 1  14              Rx   d 8 F8 5F 6C 5D 00 00 00 00
 507.762277 1  16              Rx   d 8 00 00 00 00 00 00 00 00
 507.763423 1  11              Rx   d 8 05 B8 28 00 02 00 31 00
 507.763696 1  18              Rx   d 8 00 00 00 00 00 00 00 00
 507.763696 1  18              Rx   d 8 00 00 00 00 00 00 00 00
 507.763696 1  18              Rx   d 8 00 00 00 00 00 00 00 00
 507.763696 1  18              Rx   d 8 00 00 00 00 00 00 00 00
 507.763696 1  18              Rx   d 8 00 00 00 00 00 00 00 00
 507.763696 1  18              Rx   d 8 00 00 00 00 00 00 00 00
 512.834646 1  15              Rx   d 8 4C 40 00 00 05 04 00 00
 512.835803 1  10              Rx   d 8 BC E9 28 00 01 00 30 00
 512.864024 1  14              Rx   d 8 FC 5F 6C 5D 00 00 00 00
 512.864286 1  16              Rx   d 8 00 00 00 00 00 00 00 00
 512.865450 1  11              Rx   d 8 04 B8 28 00 01 00 32 00
 512.865714 1  18              Rx   d 8 00 00 00 00 00 00 00 00
 512.865714 1  18              Rx   d 8 00 00 00 00 00 00 00 00
 512.865714 1  18              Rx   d 8 00 00 00 00 00 00 00 00
 512.865714 1  18              Rx   d 8 00 00 00 00 00 00 00 00
 512.865714 1  18              Rx   d 8 00 00 00 00 00 00 00 00
 512.865714 1  18              Rx   d 8 00 00 00 00 00 00 00 00
 517.936256 1  15              Rx   d 8 4C 40 00 00 05 04 00 00
 517.937405 1  10              Rx   d 8 BC E9 28 00 02 00 2E 00
 517.965634 1  14              Rx   d 8 FC 5F 6C 5D 00 00 00 00
 517.965894 1  16              Rx   d 8 00 00 00 00 00 00 00 00
 517.967055 1  11              Rx   d 8 04 B8 28 00 02 00 31 00
 517.967319 1  18              Rx   d 8 00 00 00 00 00 00 00 00
 517.967319 1  18              Rx   d 8 00 00 00 00 00 00 00 00
 517.967319 1  18              Rx   d 8 00 00 00 00 00 00 00 00
 517.967319 1  18              Rx   d 8 00 00 00 00 00 00 00 00
 517.967319 1  18              Rx   d 8 00 00 00 00 00 00 00 00
 517.967319 1  18              Rx   d 8 00 00 00 00 00 00 00 00
 523.037952 1  15              Rx   d 8 4C 40 00 00 05 04 00 00
 523.039095 1  10              Rx   d 8 BB E9 28 00 02 00 2E 00
 523.067323 1  14              Rx   d 8 08 60 6C 5D 00 00 00 00
 523.067593 1  16              Rx   d 8 00 00 00 00 00 00 00 00
 523.068750 1  11              Rx   d 8 04 B8 28 00 02 00 32 00
 523.069018 1  18              Rx   d 8 00 00 00 00 00 00 00 00
 523.069018 1  18              Rx   d 8 00 00 00 00 00 00 00 00
 523.069018 1  18              Rx   d 8 00 00 00 00 00 00 00 00
 523.069018 1  18              Rx   d 8 00 00 00 00 00 00 00 00
 523.069018 1  18              Rx   d 8 00 00 00 00 00 00 00 00
 523.069018 1  18              Rx   d 8 00 00 00 00 00 00 00 00
 528.139676 1  15              Rx   d 8 4C 40 00 00 05 04 00 00
 528.140841 1  10              Rx   d 8 BC E9 28 00 02 00 32 00
 528.169046 1  14              Rx   d 8 04 60 B0 5D 00 00 00 00
 528.169307 1  16              Rx   d 8 00 00 00 00 00 00 00 00
 528.170453 1  11              Rx   d 8 03 B8 28 00 02 00 2F 00
 528.170726 1  18              Rx   d 8 00 00 00 00 00 00 00 00
 528.170726 1  18              Rx   d 8 00 00 00 00 00 00 00 00
 528.170726 1  18              Rx   d 8 00 00 00 00 00 00 00 00
 528.170726 1  18              Rx   d 8 00 00 00 00 00 00 00 00
 528.170726 1  18              Rx   d 8 00 00 00 00 00 00 00 00
 528.170726 1  18              Rx   d 8 00 00 00 00 00 00 00 00
 533.240732 1  15              Rx   d 8 4C 40 00 00 05 04 00 00
 533.241890 1  10              Rx   d 8 BA E9 28 00 01 00 31 00
 533.270105 1  14              Rx   d 8 04 60 6C 5D 00 00 00 00
 533.270373 1  16              Rx   d 8 00 00 00 00 00 00 00 00
 533.271531 1  11              Rx   d 8 01 B8 28 00 01 00 32 00
 533.271795 1  18              Rx   d 8 00 00 00 00 00 00 00 00
 533.271795 1  18              Rx   d 8 00 00 00 00 00 00 00 00
 533.271795 1  18              Rx   d 8 00 00 00 00 00 00 00 00
 533.271795 1  18              Rx   d 8 00 00 00 00 00 00 00 00
 533.271795 1  18              Rx   d 8 00 00 00 00 00 00 00 00
 533.271795 1  18              Rx   d 8 00 00 00 00 00 00 00 00
 538.342423 1  15              Rx   d 8 4C 40 00 00 05 04 00 00
 538.343579 1  10              Rx   d 8 BA E9 28 00 02 00 30 00
 538.371800 1  14              Rx   d 8 04 60 6C 5D 00 00 00 00
 538.372071 1  16              Rx   d 8 00 00 00 00 00 00 00 00
 538.373231 1  11              Rx   d 8 01 B8 28 00 02 00 32 00
 538.373506 1  18              Rx   d 8 00 00 00 00 00 00 00 00
 538.373506 1  18              Rx   d 8 00 00 00 00 00 00 00 00
 538.373506 1  18              Rx   d 8 00 00 00 00 00 00 00 00
 538.373506 1  18              Rx   d 8 00 00 00 00 00 00 00 00
 538.373506 1  18              Rx   d 8 00 00 00 00 00 00 00 00
 538.373506 1  18              Rx   d 8 00 00 00 00 00 00 00 00
 543.444147 1  15              Rx   d 8 4C 40 00 00 05 04 00 00
 543.445305 1  10              Rx   d 8 B8 E9 28 00 02 00 31 00
 543.473517 1  14              Rx   d 8 08 60 2C 5D 00 00 00 00
 543.473779 1  16              Rx   d 8 00 00 00 00 00 00 00 00
 543.474942 1  11              Rx   d 8 FF B7 28 00 02 00 32 00
 543.475214 1  18              Rx   d 8 00 00 00 00 00 00 00 00
 543.475214 1  18              Rx   d 8 00 00 00 00 00 00 00 00
 543.475214 1  18              Rx   d 8 00 00 00 00 00 00 00 00
 543.475214 1  18              Rx   d 8 00 00 00 00 00 00 00 00
 543.475214 1  18              Rx   d 8 00 00 00 00 00 00 00 00
 543.475214 1  18              Rx   d 8 00 00 00 00 00 00 00 00
 548.545674 1  15              Rx   d 8 4C 40 00 00 05 04 00 00
 548.546839 1  10              Rx   d 8 B7 E9 28 00 02 00 32 00
 548.575045 1  14              Rx   d 8 08 60 2C 5D 00 00 00 00
 548.575314 1  16              Rx   d 8 00 00 00 00 00 00 00 00
 548.576466 1  11              Rx   d 8 FD B7 28 00 02 00 31 00
 548.576731 1  18              Rx   d 8 00 00 00 00 00 00 00 00
 548.576731 1  18              Rx   d 8 00 00 00 00 00 00 00 00
 548.576731 1  18              Rx   d 8 00 00 00 00 00 00 00 00
 548.576731 1  18              Rx   d 8 00 00 00 00 00 00 00 00
 548.576731 1  18              Rx   d 8 00 00 00 00 00 00 00 00
 548.576731 1  18              Rx   d 8 00 00 00 00 00 00 00 00
 553.647022 1  15              Rx   d 8 4C 40 00 00 05 04 00 00
 553.648197 1  10              Rx   d 8 B6 E9 28 00 02 00 32 00
 553.676401 1  14              Rx   d 8 0C 60 6C 5D 00 00 00 00
 553.676670 1  16              Rx   d 8 00 00 00 00 00 00 00 00
 553.677821 1  11              Rx   d 8 FB B7 28 00 02 00 30 00
 553.678095 1  18              Rx   d 8 00 00 00 00 00 00 00 00
 553.678095 1  18              Rx   d 8 00 00 00 00 00 00 00 00
 553.678095 1  18              Rx   d 8 00 00 00 00 00 00 00 00
 553.678095 1  18              Rx   d 8 00 00 00 00 00 00 00 00
 553.678095 1  18              Rx   d 8 00 00 00 00 00 00 00 00
 553.678095 1  18              Rx   d 8 00 00 00 00 00 00 00 00
 558.749059 1  15              Rx   d 8 4C 40 00 00 05 04 00 00
 558.750226 1  10              Rx   d 8 B8 E9 28 00 01 00 32 00
 558.778437 1  14              Rx   d 8 08 60 2C 5D 00 00 00 00
 558.778704 1  16              Rx   d 8 00 00 00 00 00 00 00 00
 558.779857 1  11              Rx   d 8 FE B7 28 00 01 00 32 00
 558.780129 1  18              Rx   d 8 00 00 00 00 00 00 00 00
 558.780129 1  18              Rx   d 8 00 00 00 00 00 00 00 00
 558.780129 1  18              Rx   d 8 00 00 00 00 00 00 00 00
 558.780129 1  18              Rx   d 8 00 00 00 00 00 00 00 00
 558.780129 1  18              Rx   d 8 00 00 00 00 00 00 00 00
 558.780129 1  18              Rx   d 8 00 00 00 00 00 00 00 00
 563.851444 1  15              Rx   d 8 4C 40 00 00 05 04 00 00
 563.852618 1  10              Rx   d 8 B8 E9 28 00 01 00 32 00
 563.880822 1  14              Rx   d 8 0C 60 B0 5D 00 00 00 00
 563.881094 1  16              Rx   d 8 00 00 00 00 00 00 00 00
 563.882247 1  11              Rx   d 8 FD B7 28 00 01 00 32 00
 563.882520 1  18              Rx   d 8 00 00 00 00 00 00 00 00
 563.882520 1  18              Rx   d 8 00 00 00 00 00 00 00 00
 563.882520 1  18              Rx   d 8 00 00 00 00 00 00 00 00
 563.882520 1  18              Rx   d 8 00 00 00 00 00 00 00 00
 563.882520 1  18              Rx   d 8 00 00 00 00 00 00 00 00
 563.882520 1  18              Rx   d 8 00 00 00 00 00 00 00 00
 568.953596 1  15              Rx   d 8 4C 40 00 00 05 04 00 00
 568.954763 1  10              Rx   d 8 B9 E9 28 00 01 00 31 00
 568.982980 1  14              Rx   d 8 0C 60 2C 5D 00 00 00 00
 568.983242 1  16              Rx   d 8 00 00 00 00 00 00 00 00
 568.984400 1  11              Rx   d 8 FE B7 28 00 02 00 32 00
 568.984673 1  18              Rx   d 8 00 00 00 00 00 00 00 00
 568.984673 1  18              Rx   d 8 00 00 00 00 00 00 00 00
 568.984673 1  18              Rx   d 8 00 00 00 00 00 00 00 00
 568.984673 1  18              Rx   d 8 00 00 00 00 00 00 00 00
 568.984673 1  18              Rx   d 8 00 00 00 00 00 00 00 00
 568.984673 1  18              Rx   d 8 00 00 00 00 00 00 00 00
 574.055862 1  15              Rx   d 8 4C 40 00 00 05 04 00 00
 574.057029 1  10              Rx   d 8 B8 E9 28 00 02 00 32 00
 574.085242 1  14              Rx   d 8 0C 60 2C 5D 00 00 00 00
 574.085512 1  16              Rx   d 8 00 00 00 00 00 00 00 00
 574.086673 1  11              Rx   d 8 FE B7 28 00 02 00 32 00
 574.086947 1  18              Rx   d 8 00 00 00 00 00 00 00 00
 574.086947 1  18              Rx   d 8 00 00 00 00 00 00 00 00
 574.086947 1  18              Rx   d 8 00 00 00 00 00 00 00 00
 574.086947 1  18              Rx   d 8 00 00 00 00 00 00 00 00
 574.086947 1  18              Rx   d 8 00 00 00 00 00 00 00 00
 574.086947 1  18              Rx   d 8 00 00 00 00 00 00 00 00
 579.158100 1  15              Rx   d 8 4C 40 00 00 05 04 00 00
 579.159267 1  10              Rx   d 8 B7 E9 28 00 02 00 32 00
 579.187478 1  14              Rx   d 8 08 60 E8 5C 00 00 00 00
 579.187740 1  16              Rx   d 8 00 00 00 00 00 00 00 00
 579.188901 1  11              Rx   d 8 FD B7 28 00 02 00 32 00
 579.189175 1  18              Rx   d 8 00 00 00 00 00 00 00 00
 579.189175 1  18              Rx   d 8 00 00 00 00 00 00 00 00
 579.189175 1  18              Rx   d 8 00 00 00 00 00 00 00 00
 579.189175 1  18              Rx   d 8 00 00 00 00 00 00 00 00
 579.189175 1  18              Rx   d 8 00 00 00 00 00 00 00 00
 579.189175 1  18              Rx   d 8 00 00 00 00 00 00 00 00
 584.260598 1  15              Rx   d 8 4C 40 00 00 05 04 00 00
 584.261763 1  10              Rx   d 8 B4 E9 28 00 02 00 31 00
 584.289975 1  14              Rx   d 8 14 60 E8 5C 00 00 00 00
 584.290246 1  16              Rx   d 8 00 00 00 00 00 00 00 00
 584.291394 1  11              Rx   d 8 FA B7 28 00 02 00 30 00
 584.291660 1  18              Rx   d 8 00 00 00 00 00 00 00 00
 584.291660 1  18              Rx   d 8 00 00 00 00 00 00 00 00
 584.291660 1  18              Rx   d 8 00 00 00 00 00 00 00 00
 584.291660 1  18              Rx   d 8 00 00 00 00 00 00 00 00
 584.291660 1  18              Rx   d 8 00 00 00 00 00 00 00 00
 584.291660 1  18              Rx   d 8 00 00 00 00 00 00 00 00
 589.362917 1  15              Rx   d 8 4C 40 00 00 05 04 00 00
 589.364068 1  10              Rx   d 8 B4 E9 28 00 01 00 30 00
 589.392289 1  14              Rx   d 8 14 60 2C 5D 00 00 00 00
 589.392559 1  16              Rx   d 8 00 00 00 00 00 00 00 00
 589.393714 1  11              Rx   d 8 FA B7 28 00 01 00 32 00
 589.393979 1  18              Rx   d 8 00 00 00 00 00 00 00 00
 589.393979 1  18              Rx   d 8 00 00 00 00 00 00 00 00
 589.393979 1  18              Rx   d 8 00 00 00 00 00 00 00 00
 589.393979 1  18              Rx   d 8 00 00 00 00 00 00 00 00
 589.393979 1  18              Rx   d 8 00 00 00 00 00 00 00 00
 589.393979 1  18              Rx   d 8 00 00 00 00 00 00 00 00
 594.465015 1  15              Rx   d 8 4C 40 00 00 05 04 00 00
 594.466181 1  10              Rx   d 8 B2 E9 28 00 01 00 32 00
 594.494392 1  14              Rx   d 8 18 60 2C 5D 00 00 00 00
 594.494654 1  16              Rx   d 8 00 00 00 00 00 00 00 00
 594.495818 1  11              Rx   d 8 F9 B7 28 00 02 00 32 00
 594.496090 1  18              Rx   d 8 00 00 00 00 00 00 00 00
 594.496090 1  18              Rx   d 8 00 00 00 00 00 00 00 00
 594.496090 1  18              Rx   d 8 00 00 00 00 00 00 00 00
 594.496090 1  18              Rx   d 8 00 00 00 00 00 00 00 00
 594.496090 1  18              Rx   d 8 00 00 00 00 00 00 00 00
 594.496090 1  18              Rx   d 8 00 00 00 00 00 00 00 00
 599.567131 1  15              Rx   d 8 4C 40 00 00 05 04 00 00
 599.568294 1  10              Rx   d 8 B3 E9 28 00 01 00 32 00
 599.596506 1  14              Rx   d 8 14 60 E8 5C 00 00 00 00
 599.596776 1  16              Rx   d 8 00 00 00 00 00 00 00 00
 599.597928 1  11              Rx   d 8 F9 B7 28 00 01 00 32 00
 599.598201 1  18              Rx   d 8 00 00 00 00 00 00 00 00
 599.598201 1  18              Rx   d 8 00 00 00 00 00 00 00 00
 599.598201 1  18              Rx   d 8 00 00 00 00 00 00 00 00
 599.598201 1  18              Rx   d 8 00 00 00 00 00 00 00 00
 599.598201 1  18              Rx   d 8 00 00 00 00 00 00 00 00
 599.598201 1  18              Rx   d 8 00 00 00 00 00 00 00 00
 604.669081 1  15              Rx   d 8 4C 40 00 00 05 04 00 00
 604.670255 1  10              Rx   d 8 B2 E9 28 00 01 00 32 00
 604.698457 1  14              Rx   d 8 18 60 E8 5C 00 00 00 00
 604.698727 1  16              Rx   d 8 00 00 00 00 00 00 00 00
 604.699888 1  11              Rx   d 8 F8 B7 28 00 02 00 31 00
 604.700161 1  18              Rx   d 8 00 00 00 00 00 00 00 00
 604.700161 1  18              Rx   d 8 00 00 00 00 00 00 00 00
 604.700161 1  18              Rx   d 8 00 00 00 00 00 00 00 00
 604.700161 1  18              Rx   d 8 00 00 00 00 00 00 00 00
 604.700161 1  18              Rx   d 8 00 00 00 00 00 00 00 00
 604.700161 1  18              Rx   d 8 00 00 00 00 00 00 00 00
 609.770474 1  15              Rx   d 8 4C 40 00 00 05 04 00 00
 609.771632 1  10              Rx   d 8 B3 E9 28 00 01 00 30 00
 609.799843 1  14              Rx   d 8 14 60 2C 5D 00 00 00 00
 609.800107 1  16              Rx   d 8 00 00 00 00 00 00 00 00
 609.801272 1  11              Rx   d 8 F8 B7 28 00 01 00 32 00
 609.801536 1  18              Rx   d 8 00 00 00 00 00 00 00 00
 609.801536 1  18              Rx   d 8 00 00 00 00 00 00 00 00
 609.801536 1  18              Rx   d 8 00 00 00 00 00 00 00 00
 609.801536 1  18              Rx   d 8 00 00 00 00 00 00 00 00
 609.801536 1  18              Rx   d 8 00 00 00 00 00 00 00 00
 609.801536 1  18              Rx   d 8 00 00 00 00 00 00 00 00
 614.871311 1  15              Rx   d 8 4C 40 00 00 05 04 00 00
 614.872466 1  10              Rx   d 8 B1 E9 28 00 01 00 30 00
 614.900678 1  14              Rx   d 8 20 60 2C 5D 00 00 00 00
 614.900938 1  16              Rx   d 8 00 00 00 00 00 00 00 00
 614.902090 1  11              Rx   d 8 F6 B7 28 00 01 00 32 00
 614.902363 1  18              Rx   d 8 00 00 00 00 00 00 00 00
 614.902363 1  18              Rx   d 8 00 00 00 00 00 00 00 00
 614.902363 1  18              Rx   d 8 00 00 00 00 00 00 00 00
 614.902363 1  18              Rx   d 8 00 00 00 00 00 00 00 00
 614.902363 1  18              Rx   d 8 00 00 00 00 00 00 00 00
 614.902363 1  18              Rx   d 8 00 00 00 00 00 00 00 00
 619.972265 1  15              Rx   d 8 4C 40 00 00 05 04 00 00
 619.973439 1  10              Rx   d 8 B2 E9 28 00 02 00 32 00
 620.001633 1  14              Rx   d 8 18 60 E8 5C 00 00 00 00
 620.001900 1  16              Rx   d 8 00 00 00 00 00 00 00 00
 620.003058 1  11              Rx   d 8 F7 B7 28 00 02 00 32 00
 620.003332 1  18              Rx   d 8 00 00 00 00 00 00 00 00
 620.003332 1  18              Rx   d 8 00 00 00 00 00 00 00 00
 620.003332 1  18              Rx   d 8 00 00 00 00 00 00 00 00
 620.003332 1  18              Rx   d 8 00 00 00 00 00 00 00 00
 620.003332 1  18              Rx   d 8 00 00 00 00 00 00 00 00
 620.003332 1  18              Rx   d 8 00 00 00 00 00 00 00 00
 625.073214 1  15              Rx   d 8 4C 40 00 00 05 04 00 00
 625.074380 1  10              Rx   d 8 B1 E9 28 00 01 00 32 00
 625.102591 1  14              Rx   d 8 20 60 E8 5C 00 00 00 00
 625.102861 1  16              Rx   d 8 00 00 00 00 00 00 00 00
 625.104010 1  11              Rx   d 8 F5 B7 28 00 02 00 31 00
 625.104274 1  18              Rx   d 8 00 00 00 00 00 00 00 00
 625.104274 1  18              Rx   d 8 00 00 00 00 00 00 00 00
 625.104274 1  18              Rx   d 8 00 00 00 00 00 00 00 00
 625.104274 1  18              Rx   d 8 00 00 00 00 00 00 00 00
 625.104274 1  18              Rx   d 8 00 00 00 00 00 00 00 00
 625.104274 1  18              Rx   d 8 00 00 00 00 00 00 00 00
 630.174634 1  15              Rx   d 8 4C 40 00 00 05 04 00 00
 630.175806 1  10              Rx   d 8 B1 E9 28 00 02 00 32 00
 630.204010 1  14              Rx   d 8 20 60 E8 5C 00 00 00 00
 630.204279 1  16              Rx   d 8 00 00 00 00 00 00 00 00
 630.205438 1  11              Rx   d 8 F6 B7 28 00 02 00 32 00
 630.205701 1  18              Rx   d 8 00 00 00 00 00 00 00 00
 630.205701 1  18              Rx   d 8 00 00 00 00 00 00 00 00
 630.205701 1  18              Rx   d 8 00 00 00 00 00 00 00 00
 630.205701 1  18              Rx   d 8 00 00 00 00 00 00 00 00
 630.205701 1  18              Rx   d 8 00 00 00 00 00 00 00 00
 630.205701 1  18              Rx   d 8 00 00 00 00 00 00 00 00
 635.275801 1  15              Rx   d 8 4C 40 00 00 05 04 00 00
 635.276959 1  10              Rx   d 8 AE E9 28 00 02 00 32 00
 635.305164 1  14              Rx   d 8 28 60 E8 5C 00 00 00 00
 635.305434 1  16              Rx   d 8 00 00 00 00 00 00 00 00
 635.306591 1  11              Rx   d 8 F4 B7 28 00 01 00 32 00
 635.306856 1  18              Rx   d 8 00 00 00 00 00 00 00 00
 635.306856 1  18              Rx   d 8 00 00 00 00 00 00 00 00
 635.306856 1  18              Rx   d 8 00 00 00 00 00 00 00 00
 635.306856 1  18              Rx   d 8 00 00 00 00 00 00 00 00
 635.306856 1  18              Rx   d 8 00 00 00 00 00 00 00 00
 635.306856 1  18              Rx   d 8 00 00 00 00 00 00 00 00
 640.377220 1  15              Rx   d 8 4C 40 00 00 05 04 00 00
 640.378386 1  10              Rx   d 8 B0 E9 28 00 02 00 32 00
 640.406599 1  14              Rx   d 8 20 60 E8 5C 00 00 00 00
 640.406870 1  16              Rx   d 8 00 00 00 00 00 00 00 00
 640.408018 1  11              Rx   d 8 F4 B7 28 00 01 00 32 00
 640.408293 1  18              Rx   d 8 00 00 00 00 00 00 00 00
 640.408293 1  18              Rx   d 8 00 00 00 00 00 00 00 00
 640.408293 1  18              Rx   d 8 00 00 00 00 00 00 00 00
 640.408293 1  18              Rx   d 8 00 00 00 00 00 00 00 00
 640.408293 1  18              Rx   d 8 00 00 00 00 00 00 00 00
 640.408293 1  18              Rx   d 8 00 00 00 00 00 00 00 00
 645.478497 1  15              Rx   d 8 4C 40 00 00 05 04 00 00
 645.479654 1  10              Rx   d 8 AD E9 28 00 02 00 31 00
 645.507866 1  14              Rx   d 8 28 60 6C 5D 00 00 00 00
 645.508136 1  16              Rx   d 8 00 00 00 00 00 00 00 00
 645.509288 1  11              Rx   d 8 F2 B7 28 00 02 00 31 00
 645.509554 1  18              Rx   d 8 00 00 00 00 00 00 00 00
 645.509554 1  18              Rx   d 8 00 00 00 00 00 00 00 00
 645.509554 1  18              Rx   d 8 00 00 00 00 00 00 00 00
 645.509554 1  18              Rx   d 8 00 00 00 00 00 00 00 00
 645.509554 1  18              Rx   d 8 00 00 00 00 00 00 00 00
 645.509554 1  18              Rx   d 8 00 00 00 00 00 00 00 00
 650.579806 1  15              Rx   d 8 4C 40 00 00 05 04 00 00
 650.580955 1  10              Rx   d 8 AF E9 28 00 02 00 2E 00
 650.609178 1  14              Rx   d 8 20 60 6C 5D 00 00 00 00
 650.609441 1  16              Rx   d 8 00 00 00 00 00 00 00 00
 650.610599 1  11              Rx   d 8 F4 B7 28 00 01 00 32 00
 650.610872 1  18              Rx   d 8 00 00 00 00 00 00 00 00
 650.610872 1  18              Rx   d 8 00 00 00 00 00 00 00 00
 650.610872 1  18              Rx   d 8 00 00 00 00 00 00 00 00
 650.610872 1  18              Rx   d 8 00 00 00 00 00 00 00 00
 650.610872 1  18              Rx   d 8 00 00 00 00 00 00 00 00
 650.610872 1  18              Rx   d 8 00 00 00 00 00 00 00 00
 655.680922 1  15              Rx   d 8 4C 40 00 00 05 04 00 00
 655.682098 1  10              Rx   d 8 AD E9 28 00 02 00 32 00
 655.710293 1  14              Rx   d 8 2C 60 6C 5D 00 00 00 00
 655.710562 1  16              Rx   d 8 00 00 00 00 00 00 00 00
 655.711724 1  11              Rx   d 8 F2 B7 28 00 02 00 32 00
 655.711991 1  18              Rx   d 8 00 00 00 00 00 00 00 00
 655.711991 1  18              Rx   d 8 00 00 00 00 00 00 00 00
 655.711991 1  18              Rx   d 8 00 00 00 00 00 00 00 00
 655.711991 1  18              Rx   d 8 00 00 00 00 00 00 00 00
 655.711991 1  18              Rx   d 8 00 00 00 00 00 00 00 00
 655.711991 1  18              Rx   d 8 00 00 00 00 00 00 00 00
 660.782123 1  15              Rx   d 8 4C 40 00 00 05 04 00 00
 660.783288 1  10              Rx   d 8 AC E9 28 00 01 00 31 00
 660.811508 1  14              Rx   d 8 20 60 B0 5D 00 00 00 00
 660.811777 1  16              Rx   d 8 00 00 00 00 00 00 00 00
 660.812938 1  11              Rx   d 8 F0 B7 28 00 02 00 31 00
 660.813205 1  18              Rx   d 8 00 00 00 00 00 00 00 00
 660.813205 1  18              Rx   d 8 00 00 00 00 00 00 00 00
 660.813205 1  18              Rx   d 8 00 00 00 00 00 00 00 00
 660.813205 1  18              Rx   d 8 00 00 00 00 00 00 00 00
 660.813205 1  18              Rx   d 8 00 00 00 00 00 00 00 00
 660.813205 1  18              Rx   d 8 00 00 00 00 00 00 00 00
 665.883673 1  15              Rx   d 8 4C 40 00 00 05 04 00 00
 665.884839 1  10              Rx   d 8 AD E9 28 00 03 00 32 00
 665.913045 1  14              Rx   d 8 2C 60 6C 5D 00 00 00 00
 665.913314 1  16              Rx   d 8 00 00 00 00 00 00 00 00
 665.914461 1  11              Rx   d 8 F1 B7 28 00 02 00 31 00
 665.914733 1  18              Rx   d 8 00 00 00 00 00 00 00 00
 665.914733 1  18              Rx   d 8 00 00 00 00 00 00 00 00
 665.914733 1  18              Rx   d 8 00 00 00 00 00 00 00 00
 665.914733 1  18              Rx   d 8 00 00 00 00 00 00 00 00
 665.914733 1  18              Rx   d 8 00 00 00 00 00 00 00 00
 665.914733 1  18              Rx   d 8 00 00 00 00 00 00 00 00
 670.984608 1  15              Rx   d 8 4C 40 00 00 05 04 00 00
 670.985755 1  10              Rx   d 8 AC E9 28 00 02 00 2F 00
 671.013976 1  14              Rx   d 8 28 60 2C 5D 00 00 00 00
 671.014240 1  16              Rx   d 8 00 00 00 00 00 00 00 00
 671.015398 1  11              Rx   d 8 F1 B7 28 00 01 00 32 00
 671.015670 1  18              Rx   d 8 00 00 00 00 00 00 00 00
 671.015670 1  18              Rx   d 8 00 00 00 00 00 00 00 00
 671.015670 1  18              Rx   d 8 00 00 00 00 00 00 00 00
 671.015670 1  18              Rx   d 8 00 00 00 00 00 00 00 00
 671.015670 1  18              Rx   d 8 00 00 00 00 00 00 00 00
 671.015670 1  18              Rx   d 8 00 00 00 00 00 00 00 00
 676.085901 1  15              Rx   d 8 4C 40 00 00 05 04 00 00
 676.087061 1  10              Rx   d 8 AB E9 28 00 02 00 31 00
 676.115273 1  14              Rx   d 8 2C 60 E8 5C 00 00 00 00
 676.115541 1  16              Rx   d 8 00 00 00 00 00 00 00 00
 676.116695 1  11              Rx   d 8 EF B7 28 00 02 00 31 00
 676.116959 1  18              Rx   d 8 00 00 00 00 00 00 00 00
 676.116959 1  18              Rx   d 8 00 00 00 00 00 00 00 00
 676.116959 1  18              Rx   d 8 00 00 00 00 00 00 00 00
 676.116959 1  18              Rx   d 8 00 00 00 00 00 00 00 00
 676.116959 1  18              Rx   d 8 00 00 00 00 00 00 00 00
 676.116959 1  18              Rx   d 8 00 00 00 00 00 00 00 00
 681.187174 1  15              Rx   d 8 4C 40 00 00 05 04 00 00
 681.188349 1  10              Rx   d 8 AC E9 28 00 02 00 32 00
 681.216543 1  14              Rx   d 8 28 60 E8 5C 00 00 00 00
 681.216814 1  16              Rx   d 8 00 00 00 00 00 00 00 00
 681.217973 1  11              Rx   d 8 F0 B7 28 00 02 00 32 00
 681.218240 1  18              Rx   d 8 00 00 00 00 00 00 00 00
 681.218240 1  18              Rx   d 8 00 00 00 00 00 00 00 00
 681.218240 1  18              Rx   d 8 00 00 00 00 00 00 00 00
 681.218240 1  18              Rx   d 8 00 00 00 00 00 00 00 00
 681.218240 1  18              Rx   d 8 00 00 00 00 00 00 00 00
 681.218240 1  18              Rx   d 8 00 00 00 00 00 00 00 00
 686.288233 1  15              Rx   d 8 4C 40 00 00 05 04 00 00
 686.289391 1  10              Rx   d 8 AA E9 28 00 02 00 31 00
 686.317603 1  14              Rx   d 8 34 60 E8 5C 00 00 00 00
 686.317865 1  16              Rx   d 8 00 00 00 00 00 00 00 00
 686.319031 1  11              Rx   d 8 EF B7 28 00 02 00 32 00
 686.319294 1  18              Rx   d 8 00 00 00 00 00 00 00 00
 686.319294 1  18              Rx   d 8 00 00 00 00 00 00 00 00
 686.319294 1  18              Rx   d 8 00 00 00 00 00 00 00 00
 686.319294 1  18              Rx   d 8 00 00 00 00 00 00 00 00
 686.319294 1  18              Rx   d 8 00 00 00 00 00 00 00 00
 686.319294 1  18              Rx   d 8 00 00 00 00 00 00 00 00
 691.389649 1  15              Rx   d 8 4C 40 00 00 05 04 00 00
 691.390815 1  10              Rx   d 8 A9 E9 28 00 02 00 32 00
 691.419021 1  14              Rx   d 8 28 60 9C 5C 00 00 00 00
 691.419289 1  16              Rx   d 8 00 00 00 00 00 00 00 00
 691.420445 1  11              Rx   d 8 ED B7 28 00 02 00 32 00
 691.420713 1  18              Rx   d 8 00 00 00 00 00 00 00 00
 691.420713 1  18              Rx   d 8 00 00 00 00 00 00 00 00
 691.420713 1  18              Rx   d 8 00 00 00 00 00 00 00 00
 691.420713 1  18              Rx   d 8 00 00 00 00 00 00 00 00
 691.420713 1  18              Rx   d 8 00 00 00 00 00 00 00 00
 691.420713 1  18              Rx   d 8 00 00 00 00 00 00 00 00
 696.491037 1  15              Rx   d 8 4C 40 00 00 05 04 00 00
 696.492202 1  10              Rx   d 8 A8 E9 28 00 02 00 32 00
 696.520406 1  14              Rx   d 8 34 60 A8 5C 00 00 00 00
 696.520683 1  16              Rx   d 8 00 00 00 00 00 00 00 00
 696.521833 1  11              Rx   d 8 EC B7 28 00 02 00 32 00
 696.522098 1  18              Rx   d 8 00 00 00 00 00 00 00 00
 696.522098 1  18              Rx   d 8 00 00 00 00 00 00 00 00
 696.522098 1  18              Rx   d 8 00 00 00 00 00 00 00 00
 696.522098 1  18              Rx   d 8 00 00 00 00 00 00 00 00
 696.522098 1  18              Rx   d 8 00 00 00 00 00 00 00 00
 696.522098 1  18              Rx   d 8 00 00 00 00 00 00 00 00
 701.593064 1  15              Rx   d 8 4C 40 00 00 05 04 00 00
 701.594231 1  10              Rx   d 8 A9 E9 28 00 02 00 32 00
 701.622442 1  14              Rx   d 8 2C 60 9C 5C 00 00 00 00
 701.622703 1  16              Rx   d 8 00 00 00 00 00 00 00 00
 701.623858 1  11              Rx   d 8 EE B7 28 00 02 00 31 00
 701.624123 1  18              Rx   d 8 00 00 00 00 00 00 00 00
 701.624123 1  18              Rx   d 8 00 00 00 00 00 00 00 00
 701.624123 1  18              Rx   d 8 00 00 00 00 00 00 00 00
 701.624123 1  18              Rx   d 8 00 00 00 00 00 00 00 00
 701.624123 1  18              Rx   d 8 00 00 00 00 00 00 00 00
 701.624123 1  18              Rx   d 8 00 00 00 00 00 00 00 00
 706.695678 1  15              Rx   d 8 4C 40 00 00 05 04 00 00
 706.696835 1  10              Rx   d 8 AA E9 28 00 01 00 30 00
 706.725048 1  14              Rx   d 8 34 60 E8 5C 00 00 00 00
 706.725326 1  16              Rx   d 8 00 00 00 00 00 00 00 00
 706.726473 1  11              Rx   d 8 ED B7 28 00 02 00 30 00
 706.726738 1  18              Rx   d 8 00 00 00 00 00 00 00 00
 706.726738 1  18              Rx   d 8 00 00 00 00 00 00 00 00
 706.726738 1  18              Rx   d 8 00 00 00 00 00 00 00 00
 706.726738 1  18              Rx   d 8 00 00 00 00 00 00 00 00
 706.726738 1  18              Rx   d 8 00 00 00 00 00 00 00 00
 706.726738 1  18              Rx   d 8 00 00 00 00 00 00 00 00
 711.797933 1  15              Rx   d 8 4C 40 00 00 05 04 00 00
 711.799101 1  10              Rx   d 8 AA E9 28 00 02 00 32 00
 711.827314 1  14              Rx   d 8 2C 60 E0 5C 00 00 00 00
 711.827575 1  16              Rx   d 8 00 00 00 00 00 00 00 00
 711.828735 1  11              Rx   d 8 EE B7 28 00 02 00 32 00
 711.829011 1  18              Rx   d 8 00 00 00 00 00 00 00 00
 711.829011 1  18              Rx   d 8 00 00 00 00 00 00 00 00
 711.829011 1  18              Rx   d 8 00 00 00 00 00 00 00 00
 711.829011 1  18              Rx   d 8 00 00 00 00 00 00 00 00
 711.829011 1  18              Rx   d 8 00 00 00 00 00 00 00 00
 711.829011 1  18              Rx   d 8 00 00 00 00 00 00 00 00
 716.899920 1  15              Rx   d 8 4C 40 00 00 05 04 00 00
 716.901078 1  10              Rx   d 8 A9 E9 28 00 01 00 32 00
 716.929289 1  14              Rx   d 8 38 60 E8 5C 00 00 00 00
 716.929558 1  16              Rx   d 8 00 00 00 00 00 00 00 00
 716.930716 1  11              Rx   d 8 ED B7 28 00 01 00 32 00
 716.930992 1  18              Rx   d 8 00 00 00 00 00 00 00 00
 716.930992 1  18              Rx   d 8 00 00 00 00 00 00 00 00
 716.930992 1  18              Rx   d 8 00 00 00 00 00 00 00 00
 716.930992 1  18              Rx   d 8 00 00 00 00 00 00 00 00
 716.930992 1  18              Rx   d 8 00 00 00 00 00 00 00 00
 716.930992 1  18              Rx   d 8 00 00 00 00 00 00 00 00
 722.001999 1  15              Rx   d 8 4C 40 00 00 05 04 00 00
 722.003157 1  10              Rx   d 8 AA E9 28 00 01 00 30 00
 722.031376 1  14              Rx   d 8 34 60 20 5D 00 00 00 00
 722.031643 1  16              Rx   d 8 00 00 00 00 00 00 00 00
 722.032787 1  11              Rx   d 8 ED B7 28 00 02 00 30 00
 722.033066 1  18              Rx   d 8 00 00 00 00 00 00 00 00
 722.033066 1  18              Rx   d 8 00 00 00 00 00 00 00 00
 722.033066 1  18              Rx   d 8 00 00 00 00 00 00 00 00
 722.033066 1  18              Rx   d 8 00 00 00 00 00 00 00 00
 722.033066 1  18              Rx   d 8 00 00 00 00 00 00 00 00
 722.033066 1  18              Rx   d 8 00 00 00 00 00 00 00 00
 727.103797 1  15              Rx   d 8 4C 40 00 00 05 04 00 00
 727.104964 1  10              Rx   d 8 A9 E9 28 00 01 00 32 00
 727.133169 1  14              Rx   d 8 34 60 E0 5C 00 00 00 00
 727.133431 1  16              Rx   d 8 00 00 00 00 00 00 00 00
 727.134585 1  11              Rx   d 8 EC B7 28 00 01 00 32 00
 727.134859 1  18              Rx   d 8 00 00 00 00 00 00 00 00
 727.134859 1  18              Rx   d 8 00 00 00 00 00 00 00 00
 727.134859 1  18              Rx   d 8 00 00 00 00 00 00 00 00
 727.134859 1  18              Rx   d 8 00 00 00 00 00 00 00 00
 727.134859 1  18              Rx   d 8 00 00 00 00 00 00 00 00
 727.134859 1  18              Rx   d 8 00 00 00 00 00 00 00 00
 732.205171 1  15              Rx   d 8 4C 40 00 00 05 04 00 00
 732.206329 1  10              Rx   d 8 AA E9 28 00 02 00 32 00
 732.234540 1  14              Rx   d 8 34 60 5C 5C 00 00 00 00
 732.234810 1  16              Rx   d 8 00 00 00 00 00 00 00 00
 732.235971 1  11              Rx   d 8 EC B7 28 00 02 00 32 00
 732.236234 1  18              Rx   d 8 00 00 00 00 00 00 00 00
 732.236234 1  18              Rx   d 8 00 00 00 00 00 00 00 00
 732.236234 1  18              Rx   d 8 00 00 00 00 00 00 00 00
 732.236234 1  18              Rx   d 8 00 00 00 00 00 00 00 00
 732.236234 1  18              Rx   d 8 00 00 00 00 00 00 00 00
 732.236234 1  18              Rx   d 8 00 00 00 00 00 00 00 00
 737.306693 1  15              Rx   d 8 4C 40 00 00 05 04 00 00
 737.307859 1  10              Rx   d 8 A8 E9 28 00 02 00 32 00
 737.336065 1  14              Rx   d 8 34 60 1C 5C 00 00 00 00
 737.336327 1  16              Rx   d 8 00 00 00 00 00 00 00 00
 737.337480 1  11              Rx   d 8 EA B7 28 00 01 00 30 00
 737.337745 1  18              Rx   d 8 00 00 00 00 00 00 00 00
 737.337745 1  18              Rx   d 8 00 00 00 00 00 00 00 00
 737.337745 1  18              Rx   d 8 00 00 00 00 00 00 00 00
 737.337745 1  18              Rx   d 8 00 00 00 00 00 00 00 00
 737.337745 1  18              Rx   d 8 00 00 00 00 00 00 00 00
 737.337745 1  18              Rx   d 8 00 00 00 00 00 00 00 00
 742.408398 1  15              Rx   d 8 4C 40 00 00 05 04 00 00
 742.409556 1  10              Rx   d 8 A7 E9 28 00 02 00 30 00
 742.437767 1  14              Rx   d 8 34 60 D8 5B 00 00 00 00
 742.438038 1  16              Rx   d 8 00 00 00 00 00 00 00 00
 742.439189 1  11              Rx   d 8 EA B7 28 00 01 00 31 00
 742.439462 1  18              Rx   d 8 00 00 00 00 00 00 00 00
 742.439462 1  18              Rx   d 8 00 00 00 00 00 00 00 00
 742.439462 1  18              Rx   d 8 00 00 00 00 00 00 00 00
 742.439462 1  18              Rx   d 8 00 00 00 00 00 00 00 00
 742.439462 1  18              Rx   d 8 00 00 00 00 00 00 00 00
 742.439462 1  18              Rx   d 8 00 00 00 00 00 00 00 00
 747.509923 1  15              Rx   d 8 4C 40 00 00 05 04 00 00
 747.511089 1  10              Rx   d 8 A5 E9 28 00 02 00 32 00
 747.539293 1  14              Rx   d 8 34 60 D8 5B 00 00 00 00
