date Sun Feb 11 09:22:56.410 PM 2024
base hex  timestamps absolute
internal events logged
Begin Triggerblock Sun Feb 11 09:22:58.854 PM 2024
 0.000000 Start of measurement
 0.000000 1  15              Rx   d 8 4C 40 00 00 04 04 00 00
 0.000256 1  10              Rx   d 8 D3 0B 2A 00 28 00 32 00
 0.027562 1  14              Rx   d 8 D8 62 80 59 32 00 00 00
 0.027818 1  16              Rx   d 8 01 00 00 00 00 00 00 00
 0.030037 1  11              Rx   d 8 1D C2 28 00 04 00 31 00
 0.030293 1  18              Rx   d 8 00 00 00 00 00 00 00 00
 0.030592 1  15              Rx   d 8 4C 40 00 00 04 04 00 00
 0.030848 1  16              Rx   d 8 01 00 00 00 00 00 00 00
 0.031104 1  18              Rx   d 8 00 00 00 00 00 00 00 00
 0.031360 1  14              Rx   d 8 D8 62 80 59 01 00 00 00
 2.092607 1  15              Rx   d 8 4C 40 00 00 04 05 00 00
 2.093768 1  10              Rx   d 8 B1 11 2A 00 01 00 32 00
 2.121773 1  14              Rx   d 8 DC 62 7C 58 34 00 00 00
 2.122031 1  16              Rx   d 8 01 00 00 00 00 00 00 00
 2.123193 1  11              Rx   d 8 B3 9E 28 00 01 00 31 00
 2.123451 1  18              Rx   d 8 00 00 00 00 00 00 00 00
 4.132107 1  15              Rx   d 8 4C 40 00 00 04 05 00 00
 4.133226 1  10              Rx   d 8 B1 11 2A 00 01 00 32 00
 4.161230 1  14              Rx   d 8 DC 62 F8 57 33 00 00 00
 4.161531 1  16              Rx   d 8 01 00 00 00 00 00 00 00
 4.162650 1  11              Rx   d 8 B4 9E 28 00 02 00 32 00
 4.162951 1  18              Rx   d 8 00 00 00 00 00 00 00 00
 6.171564 1  15              Rx   d 8 4C 40 00 00 04 05 00 00
 6.172726 1  10              Rx   d 8 B1 11 2A 00 01 00 32 00
 6.200731 1  14              Rx   d 8 DC 62 B8 57 33 00 00 00
 6.200989 1  16              Rx   d 8 01 00 00 00 00 00 00 00
 6.202107 1  11              Rx   d 8 B0 9E 28 00 01 00 2C 00
 6.202408 1  18              Rx   d 8 00 00 00 00 00 00 00 00
 8.210936 1  15              Rx   d 8 4C 40 00 00 04 05 00 00
 8.212097 1  10              Rx   d 8 B0 11 2A 00 01 00 32 00
 8.240059 1  14              Rx   d 8 E4 62 74 57 33 00 00 00
 8.240360 1  16              Rx   d 8 01 00 00 00 00 00 00 00
 8.241479 1  11              Rx   d 8 B0 9E 28 00 02 00 31 00
 8.241780 1  18              Rx   d 8 00 00 00 00 00 00 00 00
 10.250307 1  15              Rx   d 8 4C 40 00 00 04 05 00 00
 10.251469 1  10              Rx   d 8 B2 11 2A 00 01 00 31 00
 10.279473 1  14              Rx   d 8 E4 62 74 57 33 00 00 00
 10.279731 1  16              Rx   d 8 01 00 00 00 00 00 00 00
 10.280893 1  11              Rx   d 8 B0 9E 28 00 01 00 31 00
 10.281151 1  18              Rx   d 8 00 00 00 00 00 00 00 00
 12.289764 1  15              Rx   d 8 4C 40 00 00 04 05 00 00
 12.290926 1  10              Rx   d 8 B1 11 2A 00 01 00 32 00
 12.318888 1  14              Rx   d 8 E8 62 74 57 33 00 00 00
 12.319189 1  16              Rx   d 8 01 00 00 00 00 00 00 00
 12.320350 1  11              Rx   d 8 B2 9E 28 00 01 00 32 00
 12.320608 1  18              Rx   d 8 00 00 00 00 00 00 00 00
 14.329179 1  15              Rx   d 8 4C 40 00 00 04 05 00 00
 14.330340 1  10              Rx   d 8 B1 11 2A 00 01 00 32 00
 14.358302 1  14              Rx   d 8 E8 62 74 57 33 00 00 00
 14.358603 1  16              Rx   d 8 01 00 00 00 00 00 00 00
 14.359722 1  11              Rx   d 8 B1 9E 28 00 01 00 32 00
 14.360023 1  18              Rx   d 8 00 00 00 00 00 00 00 00
 16.368808 1  15              Rx   d 8 4C 40 00 00 04 05 00 00
 16.369970 1  10              Rx   d 8 B0 11 2A 00 01 00 32 00
 16.397931 1  14              Rx   d 8 F0 62 74 57 33 00 00 00
 16.398232 1  16              Rx   d 8 01 00 00 00 00 00 00 00
 16.399394 1  11              Rx   d 8 AF 9E 28 00 01 00 32 00
 16.399652 1  18              Rx   d 8 00 00 00 00 00 00 00 00
 18.408352 1  15              Rx   d 8 4C 40 00 00 04 05 00 00
 18.409513 1  10              Rx   d 8 B1 11 2A 00 02 00 31 00
 18.437518 1  14              Rx   d 8 F4 62 74 57 33 00 00 00
 18.437776 1  16              Rx   d 8 01 00 00 00 00 00 00 00
 18.438937 1  11              Rx   d 8 AF 9E 28 00 02 00 31 00
 18.439195 1  18              Rx   d 8 00 00 00 00 00 00 00 00
 20.447938 1  15              Rx   d 8 4C 40 00 00 04 05 00 00
 20.449099 1  10              Rx   d 8 B1 11 2A 00 01 00 31 00
 20.477104 1  14              Rx   d 8 F0 62 74 57 33 00 00 00
 20.477362 1  16              Rx   d 8 01 00 00 00 00 00 00 00
 20.478524 1  11              Rx   d 8 B0 9E 28 00 01 00 31 00
 20.478782 1  18              Rx   d 8 00 00 00 00 00 00 00 00
 22.487567 1  15              Rx   d 8 4C 40 00 00 04 05 00 00
 22.488729 1  10              Rx   d 8 B2 11 2A 00 01 00 31 00
 22.516734 1  14              Rx   d 8 F4 62 74 57 33 00 00 00
 22.516992 1  16              Rx   d 8 01 00 00 00 00 00 00 00
 22.518153 1  11              Rx   d 8 AF 9E 28 00 01 00 31 00
 22.518411 1  18              Rx   d 8 00 00 00 00 00 00 00 00
 24.527154 1  15              Rx   d 8 4C 40 00 00 04 05 00 00
 24.528315 1  10              Rx   d 8 B1 11 2A 00 01 00 31 00
 24.556277 1  14              Rx   d 8 F4 62 34 57 33 00 00 00
 24.556578 1  16              Rx   d 8 01 00 00 00 00 00 00 00
 24.557740 1  11              Rx   d 8 B0 9E 28 00 01 00 32 00
 24.557998 1  18              Rx   d 8 00 00 00 00 00 00 00 00
 26.566654 1  15              Rx   d 8 4C 40 00 00 04 05 00 00
 26.567859 1  10              Rx   d 8 4A 11 2A 00 36 00 31 00
 26.595820 1  14              Rx   d 8 F8 62 34 57 33 00 00 00
 26.596078 1  16              Rx   d 8 01 00 00 00 00 00 00 00
 26.597240 1  11              Rx   d 8 AB 9E 28 00 04 00 31 00
 26.597498 1  18              Rx   d 8 00 00 00 00 00 00 00 00
 28.606154 1  15              Rx   d 8 4C 40 00 00 04 05 00 00
 28.607359 1  10              Rx   d 8 F3 27 2A 00 B2 18 32 00
 28.635321 1  14              Rx   d 8 F8 62 74 57 33 00 00 00
 28.635579 1  16              Rx   d 8 01 00 00 00 00 00 00 00
 28.636740 1  11              Rx   d 8 74 9D 28 00 CB 00 32 00
 28.637041 1  18              Rx   d 8 00 00 00 00 00 00 00 00
 30.645440 1  15              Rx   d 8 4C 40 00 00 04 05 00 00
 30.646687 1  10              Rx   d 8 0E 80 2A 00 CA 1A 32 00
 30.674606 1  14              Rx   d 8 00 63 B8 57 33 00 00 00
 30.674864 1  16              Rx   d 8 01 00 00 00 00 00 00 00
 30.676069 1  11              Rx   d 8 36 9C 28 00 44 00 32 00
 30.676327 1  18              Rx   d 8 00 00 00 00 00 00 00 00
 32.684940 1  15              Rx   d 8 4C 40 00 00 04 05 00 00
 32.686145 1  10              Rx   d 8 21 AA 2A 00 81 00 32 00
 32.714106 1  14              Rx   d 8 F8 62 F8 57 33 00 00 00
 32.714364 1  16              Rx   d 8 01 00 00 00 00 00 00 00
 32.715526 1  11              Rx   d 8 76 9A 28 00 91 00 32 00
 32.715784 1  18              Rx   d 8 00 00 00 00 00 00 00 00
 34.724483 1  15              Rx   d 8 4C 40 00 00 04 05 00 00
 34.725645 1  10              Rx   d 8 93 AA 2A 00 16 00 32 00
 34.753607 1  14              Rx   d 8 F8 62 38 58 33 00 00 00
 34.753908 1  16              Rx   d 8 01 00 00 00 00 00 00 00
 34.755069 1  11              Rx   d 8 9A 99 28 00 26 00 32 00
 34.755327 1  18              Rx   d 8 00 00 00 00 00 00 00 00
 36.763984 1  15              Rx   d 8 4C 40 00 00 04 05 00 00
 36.765188 1  10              Rx   d 8 2B AC 2A 00 B6 00 32 00
 36.793150 1  14              Rx   d 8 F8 62 38 58 33 00 00 00
 36.793408 1  16              Rx   d 8 01 00 00 00 00 00 00 00
 36.794613 1  11              Rx   d 8 28 99 28 00 0D 00 30 00
 36.794871 1  18              Rx   d 8 00 00 00 00 00 00 00 00
 38.803755 1  15              Rx   d 8 4C 40 00 00 04 05 00 00
 38.804960 1  10              Rx   d 8 64 AC 2A 00 11 00 32 00
 38.832929 1  14              Rx   d 8 F8 62 F8 57 33 00 00 00
 38.833188 1  16              Rx   d 8 01 00 00 00 00 00 00 00
 38.834349 1  11              Rx   d 8 F4 98 28 00 08 00 32 00
 38.834608 1  18              Rx   d 8 00 00 00 00 00 00 00 00
 40.843953 1  15              Rx   d 8 4C 40 00 00 04 05 00 00
