date Sun Feb 11 09:26:16.018 PM 2024
base hex  timestamps absolute
internal events logged
Begin Triggerblock Sun Feb 11 09:26:40.887 PM 2024
 0.000000 Start of measurement
 0.000000 1  15              Rx   d 8 4C 40 00 00 04 05 00 00
 0.000256 1  10              Rx   d 8 00 A9 2A 00 45 01 32 00
 0.027391 1  14              Rx   d 8 7C 63 B0 5A 8F 00 00 00
 0.027647 1  16              Rx   d 8 01 00 00 00 00 00 00 00
 0.028842 1  11              Rx   d 8 D8 E5 24 00 26 01 32 00
 0.029098 1  18              Rx   d 8 00 00 00 00 00 00 00 00
 0.029354 1  15              Rx   d 8 4C 40 00 00 04 05 00 00
 0.030549 1  10              Rx   d 8 70 AA 2A 00 34 00 32 00
 0.058154 1  14              Rx   d 8 7C 63 B0 5A 01 00 00 00
 0.058410 1  16              Rx   d 8 01 00 00 00 00 00 00 00
 0.059562 1  11              Rx   d 8 D8 E5 24 00 26 01 32 00
 0.059860 1  18              Rx   d 8 00 00 00 00 00 00 00 00
 0.403023 1  15              Rx   d 8 4C 40 00 00 04 05 00 00
 0.404175 1  10              Rx   d 8 2C AB 2A 00 0F 01 31 00
 0.431908 1  14              Rx   d 8 84 63 F0 5A 09 00 00 00
 0.432164 1  16              Rx   d 8 01 00 00 00 00 00 00 00
 0.433358 1  11              Rx   d 8 C0 E6 24 00 4D 00 32 00
 0.433614 1  18              Rx   d 8 00 00 00 00 00 00 00 00
 2.429143 1  15              Rx   d 8 4C 40 00 00 04 05 00 00
 2.430304 1  10              Rx   d 8 A4 AE 2A 00 81 00 32 00
 2.458269 1  14              Rx   d 8 7C 63 B4 5B 33 00 00 00
 2.458570 1  16              Rx   d 8 01 00 00 00 00 00 00 00
 2.459732 1  11              Rx   d 8 0F E7 24 00 10 00 31 00
 2.459990 1  18              Rx   d 8 00 00 00 00 00 00 00 00
 4.468536 1  15              Rx   d 8 4C 40 00 00 04 05 00 00
 4.469697 1  10              Rx   d 8 61 AD 2A 00 28 00 32 00
 4.497662 1  14              Rx   d 8 7C 63 34 5B 33 00 00 00
 4.497920 1  16              Rx   d 8 01 00 00 00 00 00 00 00
 4.499125 1  11              Rx   d 8 09 E7 24 00 13 00 32 00
 4.499383 1  18              Rx   d 8 00 00 00 00 00 00 00 00
 6.508058 1  15              Rx   d 8 4C 40 00 00 04 05 00 00
 6.509220 1  10              Rx   d 8 FD AD 2A 00 31 00 32 00
 6.537185 1  14              Rx   d 8 7C 63 EC 59 33 00 00 00
 6.537486 1  16              Rx   d 8 01 00 00 00 00 00 00 00
 6.538647 1  11              Rx   d 8 03 E7 24 00 16 00 32 00
 6.538949 1  18              Rx   d 8 00 00 00 00 00 00 00 00
 8.587506 1  15              Rx   d 8 4C 40 00 00 06 06 00 00
 8.588667 1  10              Rx   d 8 71 B7 2A 00 29 00 31 00
 8.616632 1  14              Rx   d 8 7C 63 E8 58 34 00 00 00
 8.616933 1  16              Rx   d 8 01 00 00 00 00 00 00 00
 8.618095 1  11              Rx   d 8 EF C3 24 00 0A 00 31 00
 8.618353 1  18              Rx   d 8 00 00 00 00 00 00 00 00
 10.627028 1  15              Rx   d 8 4C 40 00 00 06 06 00 00
 10.628190 1  10              Rx   d 8 A2 B7 2A 00 1A 00 32 00
 10.656198 1  14              Rx   d 8 78 63 24 58 33 00 00 00
 10.656456 1  16              Rx   d 8 01 00 00 00 00 00 00 00
 10.657617 1  11              Rx   d 8 EF C3 24 00 08 00 31 00
 10.657875 1  18              Rx   d 8 00 00 00 00 00 00 00 00
 12.666722 1  15              Rx   d 8 4C 40 00 00 06 06 00 00
 12.667927 1  10              Rx   d 8 9D 97 2A 00 0E 1E 32 00
 12.695849 1  14              Rx   d 8 78 63 A0 57 33 1C 00 00
 12.696107 1  16              Rx   d 8 01 00 01 00 00 00 00 00
 12.697011 1  11              Rx   d 8 00 00 00 00 00 00 00 00
 12.697269 1  18              Rx   d 8 00 00 00 00 00 00 00 00
 14.706460 1  15              Rx   d 8 4C 40 00 00 06 06 00 00
 14.707621 1  10              Rx   d 8 06 74 2A 00 CA 00 32 00
 14.735586 1  14              Rx   d 8 6C 63 20 57 33 33 00 00
 14.735844 1  16              Rx   d 8 01 00 01 00 00 00 00 00
 14.737006 1  11              Rx   d 8 2E 59 28 00 02 00 32 00
 14.737307 1  18              Rx   d 8 00 00 00 00 00 00 00 00
 16.746197 1  15              Rx   d 8 4C 40 00 00 06 06 00 00
 16.747402 1  10              Rx   d 8 FE 71 2A 00 7A 00 32 00
 16.775367 1  14              Rx   d 8 70 63 A8 56 33 33 00 00
 16.775625 1  16              Rx   d 8 01 00 01 00 00 00 00 00
 16.776787 1  11              Rx   d 8 26 59 28 00 02 00 32 00
 16.777045 1  18              Rx   d 8 00 00 00 00 00 00 00 00
 18.785978 1  15              Rx   d 8 4C 40 00 00 06 06 00 00
 18.787182 1  10              Rx   d 8 45 70 2A 00 59 00 32 00
 18.815104 1  14              Rx   d 8 70 63 64 56 33 33 00 00
 18.815405 1  16              Rx   d 8 01 00 01 00 00 00 00 00
 18.816524 1  11              Rx   d 8 23 59 28 00 01 00 32 00
 18.816825 1  18              Rx   d 8 00 00 00 00 00 00 00 00
 20.825715 1  15              Rx   d 8 4C 40 00 00 06 06 00 00
 20.826877 1  10              Rx   d 8 87 6F 2A 00 27 00 32 00
 20.854842 1  14              Rx   d 8 64 63 24 56 33 33 00 00
 20.855143 1  16              Rx   d 8 01 00 01 00 00 00 00 00
 20.856304 1  11              Rx   d 8 1F 59 28 00 02 00 30 00
 20.856562 1  18              Rx   d 8 00 00 00 00 00 00 00 00
 22.865495 1  15              Rx   d 8 4C 40 00 00 06 06 00 00
 22.866700 1  10              Rx   d 8 18 6F 2A 00 22 00 32 00
 22.894665 1  14              Rx   d 8 6C 63 E4 55 33 33 00 00
 22.894923 1  16              Rx   d 8 01 00 01 00 00 00 00 00
 22.896085 1  11              Rx   d 8 1E 59 28 00 01 00 32 00
 22.896343 1  18              Rx   d 8 00 00 00 00 00 00 00 00
 24.905276 1  15              Rx   d 8 4C 40 00 00 06 06 00 00
 24.906481 1  10              Rx   d 8 B6 6E 2A 00 21 00 32 00
 24.934445 1  14              Rx   d 8 64 63 E4 55 33 33 00 00
 24.934704 1  16              Rx   d 8 01 00 01 00 00 00 00 00
 24.935865 1  11              Rx   d 8 1D 59 28 00 01 00 32 00
 24.936123 1  18              Rx   d 8 00 00 00 00 00 00 00 00
 26.985025 1  15              Rx   d 8 4C 40 00 00 05 05 00 00
 26.986272 1  10              Rx   d 8 51 6B 2A 00 DA 01 32 00
 27.014194 1  14              Rx   d 8 64 63 A4 55 34 0D 00 00
 27.014452 1  16              Rx   d 8 01 00 01 00 00 00 00 00
 27.015700 1  11              Rx   d 8 3F 82 28 00 60 18 32 00
 27.015958 1  18              Rx   d 8 00 00 00 00 00 00 00 00
 29.024977 1  15              Rx   d 8 4C 40 00 00 05 05 00 00
 29.026139 1  10              Rx   d 8 0A 6A 2A 00 04 00 2F 00
 29.054147 1  14              Rx   d 8 60 63 E4 55 33 00 00 00
 29.054405 1  16              Rx   d 8 01 00 00 00 00 00 00 00
 29.055567 1  11              Rx   d 8 B0 90 28 00 01 00 32 00
 29.055825 1  18              Rx   d 8 00 00 00 00 00 00 00 00
 31.064629 1  15              Rx   d 8 4C 40 00 00 05 05 00 00
 31.065790 1  10              Rx   d 8 08 6A 2A 00 01 00 32 00
 31.093755 1  14              Rx   d 8 5C 63 E4 55 33 00 00 00
 31.094056 1  16              Rx   d 8 01 00 00 00 00 00 00 00
 31.095175 1  11              Rx   d 8 B0 90 28 00 01 00 32 00
 31.095476 1  18              Rx   d 8 00 00 00 00 00 00 00 00
 33.104366 1  15              Rx   d 8 4C 40 00 00 05 05 00 00
 33.105528 1  10              Rx   d 8 09 6A 2A 00 01 00 30 00
 33.133536 1  14              Rx   d 8 60 63 E4 55 33 00 00 00
 33.133794 1  16              Rx   d 8 01 00 00 00 00 00 00 00
 33.134955 1  11              Rx   d 8 B1 90 28 00 01 00 31 00
 33.135213 1  18              Rx   d 8 00 00 00 00 00 00 00 00
 35.144146 1  15              Rx   d 8 4C 40 00 00 05 05 00 00
 35.145265 1  10              Rx   d 8 09 6A 2A 00 01 00 32 00
 35.173273 1  14              Rx   d 8 5C 63 E4 55 33 00 00 00
 35.173574 1  16              Rx   d 8 01 00 00 00 00 00 00 00
 35.174693 1  11              Rx   d 8 B3 90 28 00 01 00 32 00
 35.174994 1  18              Rx   d 8 00 00 00 00 00 00 00 00
 37.183884 1  15              Rx   d 8 4C 40 00 00 05 05 00 00
 37.185045 1  10              Rx   d 8 06 6A 2A 00 02 00 30 00
 37.213010 1  14              Rx   d 8 5C 63 E4 55 33 00 00 00
 37.213312 1  16              Rx   d 8 01 00 00 00 00 00 00 00
 37.214430 1  11              Rx   d 8 AF 90 28 00 02 00 31 00
 37.214731 1  18              Rx   d 8 00 00 00 00 00 00 00 00
 39.223707 1  15              Rx   d 8 4C 40 00 00 05 05 00 00
 39.224869 1  10              Rx   d 8 F2 69 2A 00 09 00 32 00
 39.252834 1  14              Rx   d 8 5C 63 A4 55 33 00 00 00
 39.253092 1  16              Rx   d 8 01 00 00 00 00 00 00 00
 39.254254 1  11              Rx   d 8 B1 90 28 00 02 00 31 00
 39.254555 1  18              Rx   d 8 00 00 00 00 00 00 00 00
 41.263445 1  15              Rx   d 8 4C 40 00 00 05 05 00 00
 41.264649 1  10              Rx   d 8 C7 69 2A 00 17 00 32 00
 41.292614 1  14              Rx   d 8 54 63 E4 55 33 00 00 00
 41.292872 1  16              Rx   d 8 01 00 00 00 00 00 00 00
 41.294034 1  11              Rx   d 8 AD 90 28 00 02 00 31 00
 41.294292 1  18              Rx   d 8 00 00 00 00 00 00 00 00
 43.303268 1  15              Rx   d 8 4C 40 00 00 05 05 00 00
 43.304473 1  10              Rx   d 8 90 69 2A 00 13 00 32 00
 43.332438 1  14              Rx   d 8 54 63 E4 55 33 00 00 00
 43.332696 1  16              Rx   d 8 01 00 00 00 00 00 00 00
 43.333857 1  11              Rx   d 8 AD 90 28 00 01 00 32 00
 43.334116 1  18              Rx   d 8 00 00 00 00 00 00 00 00
 45.343307 1  15              Rx   d 8 4C 40 00 00 05 05 00 00
 45.344468 1  10              Rx   d 8 52 69 2A 00 0F 00 32 00
 45.372506 1  14              Rx   d 8 54 63 E4 55 33 00 00 00
 45.372764 1  16              Rx   d 8 01 00 00 00 00 00 00 00
 45.373926 1  11              Rx   d 8 AB 90 28 00 02 00 32 00
 45.374184 1  18              Rx   d 8 00 00 00 00 00 00 00 00
 47.423387 1  15              Rx   d 8 4C 40 00 00 05 04 00 00
 47.424591 1  10              Rx   d 8 31 69 2A 00 16 00 32 00
 47.452556 1  14              Rx   d 8 4C 63 E4 55 34 00 00 00
 47.452814 1  16              Rx   d 8 01 00 00 00 00 00 00 00
 47.453976 1  11              Rx   d 8 9C B4 28 00 01 00 2E 00
 47.454234 1  18              Rx   d 8 00 00 00 00 00 00 00 00
 49.463425 1  15              Rx   d 8 4C 40 00 00 05 04 00 00
 49.464587 1  10              Rx   d 8 09 69 2A 00 0C 00 32 00
 49.492595 1  14              Rx   d 8 4C 63 E4 55 33 00 00 00
 49.492853 1  16              Rx   d 8 01 00 00 00 00 00 00 00
 49.493972 1  11              Rx   d 8 9C B4 28 00 01 00 32 00
 49.494273 1  18              Rx   d 8 00 00 00 00 00 00 00 00
 51.503335 1  15              Rx   d 8 4C 40 00 00 05 04 00 00
 51.504496 1  10              Rx   d 8 0A 69 2A 00 11 00 32 00
 51.532504 1  14              Rx   d 8 48 63 E4 55 33 00 00 00
 51.532762 1  16              Rx   d 8 01 00 00 00 00 00 00 00
 51.533924 1  11              Rx   d 8 9C B4 28 00 01 00 32 00
 51.534182 1  18              Rx   d 8 00 00 00 00 00 00 00 00
 53.543201 1  15              Rx   d 8 4C 40 00 00 05 04 00 00
 53.544363 1  10              Rx   d 8 0D 69 2A 00 16 00 31 00
 53.572371 1  14              Rx   d 8 4C 63 E4 55 33 00 00 00
 53.572629 1  16              Rx   d 8 01 00 00 00 00 00 00 00
 53.573747 1  11              Rx   d 8 9D B4 28 00 01 00 32 00
 53.574049 1  18              Rx   d 8 00 00 00 00 00 00 00 00
 55.582939 1  15              Rx   d 8 4C 40 00 00 05 04 00 00
 55.584143 1  10              Rx   d 8 EC 68 2A 00 10 00 32 00
 55.612108 1  14              Rx   d 8 48 63 E4 55 33 00 00 00
 55.612366 1  16              Rx   d 8 01 00 00 00 00 00 00 00
 55.613528 1  11              Rx   d 8 9C B4 28 00 01 00 32 00
 55.613786 1  18              Rx   d 8 00 00 00 00 00 00 00 00
 57.622547 1  15              Rx   d 8 4C 40 00 00 05 04 00 00
 57.623752 1  10              Rx   d 8 D0 68 2A 00 09 00 32 00
 57.651717 1  14              Rx   d 8 48 63 E4 55 33 00 00 00
 57.651975 1  16              Rx   d 8 01 00 00 00 00 00 00 00
 57.653136 1  11              Rx   d 8 9C B4 28 00 01 00 31 00
 57.653394 1  18              Rx   d 8 00 00 00 00 00 00 00 00
 59.662241 1  15              Rx   d 8 4C 40 00 00 05 04 00 00
 59.663403 1  10              Rx   d 8 C1 68 2A 00 15 00 32 00
 59.691368 1  14              Rx   d 8 48 63 E4 55 33 00 00 00
 59.691626 1  16              Rx   d 8 01 00 00 00 00 00 00 00
 59.692788 1  11              Rx   d 8 9C B4 28 00 01 00 32 00
 59.693089 1  18              Rx   d 8 00 00 00 00 00 00 00 00
 61.701936 1  15              Rx   d 8 4C 40 00 00 05 04 00 00
 61.703140 1  10              Rx   d 8 F1 68 2A 00 11 00 30 00
 61.731105 1  14              Rx   d 8 48 63 E4 55 33 00 00 00
 61.731363 1  16              Rx   d 8 01 00 00 00 00 00 00 00
 61.732525 1  11              Rx   d 8 9C B4 28 00 01 00 32 00
 61.732783 1  18              Rx   d 8 00 00 00 00 00 00 00 00
 63.741630 1  15              Rx   d 8 4C 40 00 00 05 04 00 00
 63.742835 1  10              Rx   d 8 D4 68 2A 00 1F 00 32 00
 63.770800 1  14              Rx   d 8 3C 63 E4 55 33 00 00 00
 63.771058 1  16              Rx   d 8 01 00 00 00 00 00 00 00
 63.772219 1  11              Rx   d 8 9C B4 28 00 01 00 32 00
 63.772521 1  18              Rx   d 8 00 00 00 00 00 00 00 00
 65.781616 1  15              Rx   d 8 4C 40 00 00 05 04 00 00
 65.782778 1  10              Rx   d 8 BE 68 2A 00 12 00 31 00
 65.810747 1  14              Rx   d 8 3C 63 E4 55 33 00 00 00
 65.811049 1  16              Rx   d 8 01 00 00 00 00 00 00 00
 65.812167 1  11              Rx   d 8 9C B4 28 00 01 00 32 00
 65.812469 1  18              Rx   d 8 00 00 00 00 00 00 00 00
 67.821642 1  15              Rx   d 8 4C 40 00 00 05 04 00 00
 67.822847 1  10              Rx   d 8 A9 68 2A 00 09 00 32 00
 67.850817 1  14              Rx   d 8 3C 63 E4 55 33 00 00 00
 67.851075 1  16              Rx   d 8 01 00 00 00 00 00 00 00
 67.852237 1  11              Rx   d 8 9C B4 28 00 01 00 31 00
 67.852538 1  18              Rx   d 8 00 00 00 00 00 00 00 00
 69.861798 1  15              Rx   d 8 4C 40 00 00 05 04 00 00
 69.862959 1  10              Rx   d 8 9D 68 2A 00 08 00 32 00
 69.890929 1  14              Rx   d 8 40 63 E4 55 33 00 00 00
 69.891230 1  16              Rx   d 8 01 00 00 00 00 00 00 00
 69.892349 1  11              Rx   d 8 9C B4 28 00 00 00 32 00
 69.892650 1  18              Rx   d 8 00 00 00 00 00 00 00 00
 71.901996 1  15              Rx   d 8 4C 40 00 00 05 04 00 00
 71.903158 1  10              Rx   d 8 8D 68 2A 00 0A 00 32 00
 71.931127 1  14              Rx   d 8 3C 63 E4 55 33 00 00 00
 71.931385 1  16              Rx   d 8 01 00 00 00 00 00 00 00
 71.932547 1  11              Rx   d 8 9B B4 28 00 01 00 32 00
 71.932848 1  18              Rx   d 8 00 00 00 00 00 00 00 00
 73.942108 1  15              Rx   d 8 4C 40 00 00 05 04 00 00
 73.943313 1  10              Rx   d 8 85 68 2A 00 0D 00 32 00
 73.971283 1  14              Rx   d 8 40 63 E4 55 33 00 00 00
 73.971541 1  16              Rx   d 8 01 00 00 00 00 00 00 00
 73.972703 1  11              Rx   d 8 9B B4 28 00 01 00 32 00
 73.972961 1  18              Rx   d 8 00 00 00 00 00 00 00 00
 75.982221 1  15              Rx   d 8 4C 40 00 00 05 04 00 00
 75.983425 1  10              Rx   d 8 75 68 2A 00 0B 00 32 00
 76.011395 1  14              Rx   d 8 3C 63 A4 55 33 00 00 00
 76.011653 1  16              Rx   d 8 01 00 00 00 00 00 00 00
 76.012815 1  11              Rx   d 8 9B B4 28 00 01 00 31 00
 76.013116 1  18              Rx   d 8 00 00 00 00 00 00 00 00
 78.022333 1  15              Rx   d 8 4C 40 00 00 05 04 00 00
 78.023495 1  10              Rx   d 8 68 68 2A 00 0E 00 32 00
 78.051464 1  14              Rx   d 8 34 63 60 55 33 00 00 00
 78.051765 1  16              Rx   d 8 01 00 00 00 00 00 00 00
 78.052884 1  11              Rx   d 8 9C B4 28 00 01 00 32 00
 78.053142 1  18              Rx   d 8 00 00 00 00 00 00 00 00
 80.062316 1  15              Rx   d 8 4C 40 00 00 05 04 00 00
 80.063521 1  10              Rx   d 8 58 68 2A 00 15 00 32 00
 80.091490 1  14              Rx   d 8 34 63 60 55 33 00 00 00
 80.091749 1  16              Rx   d 8 01 00 00 00 00 00 00 00
 80.092910 1  11              Rx   d 8 9B B4 28 00 01 00 32 00
 80.093169 1  18              Rx   d 8 00 00 00 00 00 00 00 00
 82.102385 1  15              Rx   d 8 4C 40 00 00 05 04 00 00
 82.103590 1  10              Rx   d 8 05 68 2A 00 0E 00 32 00
 82.131560 1  14              Rx   d 8 34 63 60 55 33 00 00 00
 82.131818 1  16              Rx   d 8 01 00 00 00 00 00 00 00
 82.132980 1  11              Rx   d 8 9B B4 28 00 01 00 32 00
 82.133238 1  18              Rx   d 8 00 00 00 00 00 00 00 00
 84.142498 1  15              Rx   d 8 4C 40 00 00 05 04 00 00
 84.143702 1  10              Rx   d 8 2D 68 2A 00 12 00 32 00
 84.171672 1  14              Rx   d 8 34 63 20 55 33 00 00 00
 84.171930 1  16              Rx   d 8 01 00 00 00 00 00 00 00
 84.173049 1  11              Rx   d 8 9B B4 28 00 01 00 32 00
 84.173350 1  18              Rx   d 8 00 00 00 00 00 00 00 00
 86.182610 1  15              Rx   d 8 4C 40 00 00 05 04 00 00
 86.183772 1  10              Rx   d 8 1D 68 2A 00 0A 00 31 00
 86.211784 1  14              Rx   d 8 3C 63 60 55 33 00 00 00
 86.212042 1  16              Rx   d 8 01 00 00 00 00 00 00 00
 86.213204 1  11              Rx   d 8 9A B4 28 00 01 00 32 00
 86.213462 1  18              Rx   d 8 00 00 00 00 00 00 00 00
 88.222808 1  15              Rx   d 8 4C 40 00 00 05 04 00 00
 88.224013 1  10              Rx   d 8 19 68 2A 00 0B 00 31 00
 88.251983 1  14              Rx   d 8 30 63 60 55 33 00 00 00
 88.252241 1  16              Rx   d 8 01 00 00 00 00 00 00 00
 88.253403 1  11              Rx   d 8 9A B4 28 00 01 00 32 00
 88.253661 1  18              Rx   d 8 00 00 00 00 00 00 00 00
 90.262878 1  15              Rx   d 8 4C 40 00 00 05 04 00 00
 90.264082 1  10              Rx   d 8 14 68 2A 00 0F 00 32 00
 90.292052 1  14              Rx   d 8 34 63 60 55 33 00 00 00
 90.292310 1  16              Rx   d 8 01 00 00 00 00 00 00 00
 90.293472 1  11              Rx   d 8 9B B4 28 00 01 00 31 00
 90.293773 1  18              Rx   d 8 00 00 00 00 00 00 00 00
 92.302904 1  15              Rx   d 8 4C 40 00 00 05 04 00 00
 92.304109 1  10              Rx   d 8 0F 68 2A 00 0C 00 32 00
 92.332078 1  14              Rx   d 8 30 63 A4 55 33 00 00 00
 92.332336 1  16              Rx   d 8 01 00 00 00 00 00 00 00
 92.333498 1  11              Rx   d 8 9A B4 28 00 01 00 32 00
 92.333756 1  18              Rx   d 8 00 00 00 00 00 00 00 00
 94.342844 1  15              Rx   d 8 4C 40 00 00 05 04 00 00
 94.344049 1  10              Rx   d 8 FC 67 2A 00 0E 00 32 00
 94.372018 1  14              Rx   d 8 30 63 A4 55 33 00 00 00
 94.372276 1  16              Rx   d 8 01 00 00 00 00 00 00 00
 94.373438 1  11              Rx   d 8 9A B4 28 00 01 00 32 00
 94.373696 1  18              Rx   d 8 00 00 00 00 00 00 00 00
 96.382784 1  15              Rx   d 8 4C 40 00 00 05 04 00 00
 96.383946 1  10              Rx   d 8 F4 67 2A 00 0B 00 31 00
 96.411915 1  14              Rx   d 8 30 63 A4 55 33 00 00 00
 96.412217 1  16              Rx   d 8 01 00 00 00 00 00 00 00
 96.413335 1  11              Rx   d 8 9B B4 28 00 01 00 32 00
 96.413637 1  18              Rx   d 8 00 00 00 00 00 00 00 00
 98.422767 1  15              Rx   d 8 4C 40 00 00 05 04 00 00
 98.423929 1  10              Rx   d 8 EF 67 2A 00 10 00 32 00
 98.451899 1  14              Rx   d 8 30 63 E4 55 33 00 00 00
 98.452157 1  16              Rx   d 8 01 00 00 00 00 00 00 00
 98.453319 1  11              Rx   d 8 9A B4 28 00 01 00 32 00
 98.453620 1  18              Rx   d 8 00 00 00 00 00 00 00 00
 100.462665 1  15              Rx   d 8 4C 40 00 00 05 04 00 00
 100.463826 1  10              Rx   d 8 DE 67 2A 00 0D 00 32 00
 100.491839 1  14              Rx   d 8 30 63 E4 55 33 00 00 00
 100.492097 1  16              Rx   d 8 01 00 00 00 00 00 00 00
 100.493259 1  11              Rx   d 8 9A B4 28 00 01 00 32 00
 100.493517 1  18              Rx   d 8 00 00 00 00 00 00 00 00
 102.502605 1  15              Rx   d 8 4C 40 00 00 05 04 00 00
 102.503767 1  10              Rx   d 8 D6 67 2A 00 09 00 32 00
 102.531736 1  14              Rx   d 8 30 63 E4 55 33 00 00 00
 102.532037 1  16              Rx   d 8 01 00 00 00 00 00 00 00
 102.533156 1  11              Rx   d 8 9A B4 28 00 01 00 32 00
 102.533457 1  18              Rx   d 8 00 00 00 00 00 00 00 00
 104.542588 1  15              Rx   d 8 4C 40 00 00 05 04 00 00
 104.543750 1  10              Rx   d 8 D6 67 2A 00 0E 00 32 00
 104.571762 1  14              Rx   d 8 2C 63 E4 55 33 00 00 00
 104.572020 1  16              Rx   d 8 01 00 00 00 00 00 00 00
 104.573182 1  11              Rx   d 8 9B B4 28 00 01 00 31 00
 104.573440 1  18              Rx   d 8 00 00 00 00 00 00 00 00
 106.582700 1  15              Rx   d 8 4C 40 00 00 05 04 00 00
 106.583862 1  10              Rx   d 8 C2 67 2A 00 09 00 32 00
 106.611832 1  14              Rx   d 8 30 63 E4 55 33 00 00 00
 106.612133 1  16              Rx   d 8 01 00 00 00 00 00 00 00
 106.613252 1  11              Rx   d 8 9A B4 28 00 01 00 31 00
 106.613553 1  18              Rx   d 8 00 00 00 00 00 00 00 00
 108.622813 1  15              Rx   d 8 4C 40 00 00 05 04 00 00
 108.623974 1  10              Rx   d 8 BF 67 2A 00 0F 00 32 00
 108.651987 1  14              Rx   d 8 2C 63 A4 55 33 00 00 00
 108.652245 1  16              Rx   d 8 01 00 00 00 00 00 00 00
 108.653407 1  11              Rx   d 8 9A B4 28 00 01 00 31 00
 108.653665 1  18              Rx   d 8 00 00 00 00 00 00 00 00
 110.662753 1  15              Rx   d 8 4C 40 00 00 05 04 00 00
 110.663958 1  10              Rx   d 8 B5 67 2A 00 10 00 32 00
 110.691927 1  14              Rx   d 8 2C 63 A4 55 33 00 00 00
 110.692185 1  16              Rx   d 8 01 00 00 00 00 00 00 00
 110.693347 1  11              Rx   d 8 9A B4 28 00 01 00 32 00
 110.693648 1  18              Rx   d 8 00 00 00 00 00 00 00 00
 112.702994 1  15              Rx   d 8 4C 40 00 00 05 04 00 00
 112.704156 1  10              Rx   d 8 AA 67 2A 00 10 00 32 00
 112.732125 1  14              Rx   d 8 30 63 A4 55 33 00 00 00
 112.732384 1  16              Rx   d 8 01 00 00 00 00 00 00 00
 112.733545 1  11              Rx   d 8 9B B4 28 00 01 00 32 00
 112.733847 1  18              Rx   d 8 00 00 00 00 00 00 00 00
 114.743235 1  15              Rx   d 8 4C 40 00 00 05 04 00 00
 114.744397 1  10              Rx   d 8 A2 67 2A 00 0A 00 32 00
 114.772367 1  14              Rx   d 8 2C 63 A4 55 33 00 00 00
 114.772625 1  16              Rx   d 8 01 00 00 00 00 00 00 00
 114.773787 1  11              Rx   d 8 9A B4 28 00 01 00 32 00
 114.774088 1  18              Rx   d 8 00 00 00 00 00 00 00 00
 116.783348 1  15              Rx   d 8 4C 40 00 00 05 04 00 00
 116.784553 1  10              Rx   d 8 8F 67 2A 00 10 00 32 00
 116.812522 1  14              Rx   d 8 2C 63 A4 55 33 00 00 00
 116.812780 1  16              Rx   d 8 01 00 00 00 00 00 00 00
 116.813942 1  11              Rx   d 8 9A B4 28 00 01 00 32 00
 116.814243 1  18              Rx   d 8 00 00 00 00 00 00 00 00
 118.823632 1  15              Rx   d 8 4C 40 00 00 05 04 00 00
 118.824794 1  10              Rx   d 8 86 67 2A 00 0E 00 31 00
 118.852763 1  14              Rx   d 8 2C 63 A4 55 33 00 00 00
 118.853022 1  16              Rx   d 8 01 00 00 00 00 00 00 00
 118.854183 1  11              Rx   d 8 99 B4 28 00 01 00 31 00
 118.854485 1  18              Rx   d 8 00 00 00 00 00 00 00 00
 120.863788 1  15              Rx   d 8 4C 40 00 00 05 04 00 00
 120.864949 1  10              Rx   d 8 78 67 2A 00 0E 00 32 00
 120.892962 1  14              Rx   d 8 24 63 A4 55 33 00 00 00
 120.893220 1  16              Rx   d 8 01 00 00 00 00 00 00 00
 120.894382 1  11              Rx   d 8 99 B4 28 00 01 00 32 00
 120.894640 1  18              Rx   d 8 00 00 00 00 00 00 00 00
 122.903986 1  15              Rx   d 8 4C 40 00 00 05 04 00 00
 122.905148 1  10              Rx   d 8 76 67 2A 00 0E 00 32 00
 122.933117 1  14              Rx   d 8 20 63 A4 55 33 00 00 00
 122.933418 1  16              Rx   d 8 01 00 00 00 00 00 00 00
 122.934537 1  11              Rx   d 8 99 B4 28 00 01 00 32 00
 122.934838 1  18              Rx   d 8 00 00 00 00 00 00 00 00
 124.944184 1  15              Rx   d 8 4C 40 00 00 05 04 00 00
 124.945389 1  10              Rx   d 8 64 67 2A 00 0E 00 32 00
 124.973359 1  14              Rx   d 8 24 63 A4 55 33 00 00 00
 124.973617 1  16              Rx   d 8 01 00 00 00 00 00 00 00
 124.974779 1  11              Rx   d 8 9A B4 28 00 01 00 31 00
 124.975037 1  18              Rx   d 8 00 00 00 00 00 00 00 00
 126.984383 1  15              Rx   d 8 4C 40 00 00 05 04 00 00
 126.985544 1  10              Rx   d 8 60 67 2A 00 10 00 32 00
 127.013557 1  14              Rx   d 8 24 63 A4 55 33 00 00 00
 127.013815 1  16              Rx   d 8 01 00 00 00 00 00 00 00
 127.014977 1  11              Rx   d 8 9A B4 28 00 01 00 32 00
 127.015235 1  18              Rx   d 8 00 00 00 00 00 00 00 00
 129.024581 1  15              Rx   d 8 4C 40 00 00 05 04 00 00
 129.025786 1  10              Rx   d 8 4F 67 2A 00 0F 00 32 00
 129.053755 1  14              Rx   d 8 20 63 A4 55 33 00 00 00
 129.054013 1  16              Rx   d 8 01 00 00 00 00 00 00 00
 129.055175 1  11              Rx   d 8 9A B4 28 00 01 00 32 00
 129.055433 1  18              Rx   d 8 00 00 00 00 00 00 00 00
 131.064865 1  15              Rx   d 8 4C 40 00 00 05 04 00 00
 131.066027 1  10              Rx   d 8 41 67 2A 00 0F 00 32 00
 131.094070 1  14              Rx   d 8 20 63 A4 55 33 00 00 00
 131.094328 1  16              Rx   d 8 01 00 00 00 00 00 00 00
 131.095490 1  11              Rx   d 8 99 B4 28 00 01 00 32 00
 131.095748 1  18              Rx   d 8 00 00 00 00 00 00 00 00
 133.105180 1  15              Rx   d 8 4C 40 00 00 05 04 00 00
 133.106342 1  10              Rx   d 8 3D 67 2A 00 10 00 32 00
 133.134311 1  14              Rx   d 8 20 63 A4 55 33 00 00 00
 133.134612 1  16              Rx   d 8 01 00 00 00 00 00 00 00
 133.135774 1  11              Rx   d 8 99 B4 28 00 01 00 32 00
 133.136032 1  18              Rx   d 8 00 00 00 00 00 00 00 00
 135.145335 1  15              Rx   d 8 4C 40 00 00 05 04 00 00
 135.146540 1  10              Rx   d 8 2B 67 2A 00 14 00 32 00
 135.174509 1  14              Rx   d 8 20 63 E4 55 33 00 00 00
 135.174811 1  16              Rx   d 8 01 00 00 00 00 00 00 00
 135.175929 1  11              Rx   d 8 99 B4 28 00 01 00 32 00
 135.176231 1  18              Rx   d 8 00 00 00 00 00 00 00 00
 137.185620 1  15              Rx   d 8 4C 40 00 00 05 04 00 00
 137.186824 1  10              Rx   d 8 1D 67 2A 00 12 00 32 00
 137.214794 1  14              Rx   d 8 20 63 E4 55 33 00 00 00
 137.215052 1  16              Rx   d 8 01 00 00 00 00 00 00 00
 137.216214 1  11              Rx   d 8 99 B4 28 00 01 00 32 00
 137.216472 1  18              Rx   d 8 00 00 00 00 00 00 00 00
 139.225732 1  15              Rx   d 8 4C 40 00 00 05 04 00 00
 139.226937 1  10              Rx   d 8 12 67 2A 00 1C 00 32 00
 139.254906 1  14              Rx   d 8 20 63 E4 55 33 00 00 00
 139.255164 1  16              Rx   d 8 01 00 00 00 00 00 00 00
 139.256326 1  11              Rx   d 8 9A B4 28 00 01 00 32 00
 139.256627 1  18              Rx   d 8 00 00 00 00 00 00 00 00
 141.266016 1  15              Rx   d 8 4C 40 00 00 05 04 00 00
 141.267178 1  10              Rx   d 8 FC 66 2A 00 14 00 32 00
 141.295191 1  14              Rx   d 8 20 63 24 56 33 00 00 00
 141.295449 1  16              Rx   d 8 01 00 00 00 00 00 00 00
 141.296611 1  11              Rx   d 8 9A B4 28 00 01 00 31 00
 141.296869 1  18              Rx   d 8 00 00 00 00 00 00 00 00
 143.306215 1  15              Rx   d 8 4C 40 00 00 05 04 00 00
 143.307419 1  10              Rx   d 8 06 67 2A 00 14 00 32 00
 143.335389 1  14              Rx   d 8 20 63 E4 55 33 00 00 00
 143.335690 1  16              Rx   d 8 01 00 00 00 00 00 00 00
 143.336809 1  11              Rx   d 8 9A B4 28 00 01 00 32 00
 143.337110 1  18              Rx   d 8 00 00 00 00 00 00 00 00
 145.346370 1  15              Rx   d 8 4C 40 00 00 05 04 00 00
 145.347575 1  10              Rx   d 8 FC 66 2A 00 12 00 32 00
 145.375544 1  14              Rx   d 8 20 63 E4 55 33 00 00 00
 145.375802 1  16              Rx   d 8 01 00 00 00 00 00 00 00
 145.376964 1  11              Rx   d 8 9B B4 28 00 01 00 31 00
 145.377222 1  18              Rx   d 8 00 00 00 00 00 00 00 00
 147.386310 1  15              Rx   d 8 4C 40 00 00 05 04 00 00
 147.387515 1  10              Rx   d 8 EE 66 2A 00 11 00 32 00
 147.415484 1  14              Rx   d 8 20 63 E4 55 33 00 00 00
 147.415743 1  16              Rx   d 8 01 00 00 00 00 00 00 00
 147.416904 1  11              Rx   d 8 9B B4 28 00 01 00 32 00
 147.417206 1  18              Rx   d 8 00 00 00 00 00 00 00 00
 149.426250 1  15              Rx   d 8 4C 40 00 00 05 04 00 00
 149.427412 1  10              Rx   d 8 F3 66 2A 00 0C 00 32 00
 149.455382 1  14              Rx   d 8 18 63 E4 55 33 00 00 00
 149.455640 1  16              Rx   d 8 01 00 00 00 00 00 00 00
 149.456802 1  11              Rx   d 8 9B B4 28 00 01 00 32 00
 149.457060 1  18              Rx   d 8 00 00 00 00 00 00 00 00
 151.466104 1  15              Rx   d 8 4C 40 00 00 05 04 00 00
 151.467266 1  10              Rx   d 8 DD 66 2A 00 06 00 30 00
 151.495279 1  14              Rx   d 8 18 63 E4 55 33 00 00 00
 151.495537 1  16              Rx   d 8 01 00 00 00 00 00 00 00
 151.496656 1  11              Rx   d 8 9B B4 28 00 01 00 32 00
 151.496914 1  18              Rx   d 8 00 00 00 00 00 00 00 00
 153.505872 1  15              Rx   d 8 4C 40 00 00 05 04 00 00
 153.507034 1  10              Rx   d 8 DC 66 2A 00 06 00 31 00
 153.535047 1  14              Rx   d 8 18 63 E4 55 33 00 00 00
 153.535305 1  16              Rx   d 8 01 00 00 00 00 00 00 00
 153.536467 1  11              Rx   d 8 9B B4 28 00 01 00 32 00
 153.536725 1  18              Rx   d 8 00 00 00 00 00 00 00 00
 155.545641 1  15              Rx   d 8 4C 40 00 00 05 04 00 00
 155.546845 1  10              Rx   d 8 DD 66 2A 00 07 00 31 00
 155.574815 1  14              Rx   d 8 18 63 E4 55 33 00 00 00
 155.575073 1  16              Rx   d 8 01 00 00 00 00 00 00 00
 155.576235 1  11              Rx   d 8 9B B4 28 00 01 00 32 00
 155.576493 1  18              Rx   d 8 00 00 00 00 00 00 00 00
 157.585495 1  15              Rx   d 8 4C 40 00 00 05 04 00 00
 157.586656 1  10              Rx   d 8 D9 66 2A 00 04 00 31 00
 157.614669 1  14              Rx   d 8 14 63 E4 55 33 00 00 00
 157.614927 1  16              Rx   d 8 01 00 00 00 00 00 00 00
 157.616089 1  11              Rx   d 8 9B B4 28 00 01 00 32 00
 157.616347 1  18              Rx   d 8 00 00 00 00 00 00 00 00
 159.625607 1  15              Rx   d 8 4C 40 00 00 05 04 00 00
 159.626769 1  10              Rx   d 8 D6 66 2A 00 02 00 31 00
 159.654781 1  14              Rx   d 8 14 63 30 56 33 00 00 00
 159.655039 1  16              Rx   d 8 01 00 00 00 00 00 00 00
 159.656201 1  11              Rx   d 8 9A B4 28 00 01 00 32 00
 159.656459 1  18              Rx   d 8 00 00 00 00 00 00 00 00
 161.665762 1  15              Rx   d 8 4C 40 00 00 05 04 00 00
 161.666924 1  10              Rx   d 8 D6 66 2A 00 02 00 30 00
 161.694937 1  14              Rx   d 8 18 63 30 56 33 00 00 00
 161.695195 1  16              Rx   d 8 01 00 00 00 00 00 00 00
 161.696357 1  11              Rx   d 8 9B B4 28 00 01 00 32 00
 161.696615 1  18              Rx   d 8 00 00 00 00 00 00 00 00
 163.705875 1  15              Rx   d 8 4C 40 00 00 05 04 00 00
 163.707036 1  10              Rx   d 8 D4 66 2A 00 01 00 32 00
 163.735006 1  14              Rx   d 8 18 63 24 56 33 00 00 00
 163.735307 1  16              Rx   d 8 01 00 00 00 00 00 00 00
 163.736426 1  11              Rx   d 8 9B B4 28 00 01 00 32 00
 163.736684 1  18              Rx   d 8 00 00 00 00 00 00 00 00
 165.745815 1  15              Rx   d 8 4C 40 00 00 05 04 00 00
 165.746977 1  10              Rx   d 8 D4 66 2A 00 01 00 32 00
 165.774989 1  14              Rx   d 8 0C 63 24 56 33 00 00 00
 165.775247 1  16              Rx   d 8 01 00 00 00 00 00 00 00
 165.776409 1  11              Rx   d 8 9C B4 28 00 01 00 32 00
 165.776667 1  18              Rx   d 8 00 00 00 00 00 00 00 00
 167.785798 1  15              Rx   d 8 4C 40 00 00 05 04 00 00
 167.786960 1  10              Rx   d 8 D4 66 2A 00 01 00 32 00
 167.814972 1  14              Rx   d 8 14 63 EC 55 33 00 00 00
 167.815231 1  16              Rx   d 8 01 00 00 00 00 00 00 00
 167.816349 1  11              Rx   d 8 9B B4 28 00 01 00 32 00
 167.816651 1  18              Rx   d 8 00 00 00 00 00 00 00 00
 169.825695 1  15              Rx   d 8 4C 40 00 00 05 04 00 00
 169.826900 1  10              Rx   d 8 D4 66 2A 00 01 00 30 00
 169.854869 1  14              Rx   d 8 0C 63 EC 55 33 00 00 00
 169.855128 1  16              Rx   d 8 01 00 00 00 00 00 00 00
 169.856289 1  11              Rx   d 8 9B B4 28 00 01 00 32 00
 169.856548 1  18              Rx   d 8 00 00 00 00 00 00 00 00
 171.865420 1  15              Rx   d 8 4C 40 00 00 05 04 00 00
 171.866625 1  10              Rx   d 8 D3 66 2A 00 01 00 32 00
 171.894595 1  14              Rx   d 8 0C 63 EC 55 33 00 00 00
 171.894853 1  16              Rx   d 8 01 00 00 00 00 00 00 00
 171.896015 1  11              Rx   d 8 9B B4 28 00 01 00 32 00
 171.896273 1  18              Rx   d 8 00 00 00 00 00 00 00 00
 180.800741 1  10              Rx   d 8 49 54 00 00 01 00 00 00
 182.624756 1  15              Rx   d 8 44 40 00 00 04 04 00 00
 182.625918 1  10              Rx   d 8 C2 64 2A 00 09 00 31 00
 182.653242 1  14              Rx   d 8 04 63 EC 55 66 00 00 00
 182.653500 1  16              Rx   d 8 01 00 00 00 00 00 00 00
 182.655308 1  11              Rx   d 8 9B B4 28 00 01 00 32 00
 182.655566 1  18              Rx   d 8 00 00 00 00 00 00 00 00
 184.544428 1  15              Rx   d 8 44 40 00 00 04 04 00 00
 184.545589 1  10              Rx   d 8 C0 64 2A 00 07 00 32 00
 184.572870 1  14              Rx   d 8 00 63 EC 55 66 00 00 00
 184.573172 1  16              Rx   d 8 01 00 00 00 00 00 00 00
 184.574979 1  11              Rx   d 8 9B B4 28 00 01 00 30 00
 184.575237 1  18              Rx   d 8 00 00 00 00 00 00 00 00
 186.464069 1  15              Rx   d 8 44 40 00 00 04 04 00 00
 186.465274 1  10              Rx   d 8 BC 64 2A 00 09 00 32 00
 186.492555 1  14              Rx   d 8 00 63 EC 55 66 00 00 00
 186.492813 1  16              Rx   d 8 01 00 00 00 00 00 00 00
 186.494620 1  11              Rx   d 8 9B B4 28 00 01 00 30 00
 186.494921 1  18              Rx   d 8 00 00 00 00 00 00 00 00
 188.383869 1  15              Rx   d 8 44 40 00 00 04 04 00 00
 188.385031 1  10              Rx   d 8 F5 64 2A 00 21 00 32 00
 188.412355 1  14              Rx   d 8 F8 62 EC 55 66 00 00 00
 188.412613 1  16              Rx   d 8 01 00 00 00 00 00 00 00
 188.414851 1  11              Rx   d 8 9B B4 28 00 01 00 32 00
 188.415109 1  18              Rx   d 8 00 00 00 00 00 00 00 00
 190.293644 1  15              Rx   d 8 44 40 00 00 04 04 00 00
 190.294849 1  10              Rx   d 8 C5 68 2A 00 B3 01 32 00
 190.322130 1  14              Rx   d 8 00 63 30 56 66 00 00 00
 190.322388 1  16              Rx   d 8 01 00 00 00 00 00 00 00
 190.324238 1  11              Rx   d 8 80 B6 28 00 D6 00 32 00
 190.324496 1  18              Rx   d 8 00 00 00 00 00 00 00 00
 192.213487 1  15              Rx   d 8 44 40 00 00 04 04 00 00
 192.214692 1  10              Rx   d 8 A5 71 2A 00 04 04 32 00
 192.241973 1  14              Rx   d 8 00 63 30 56 66 00 00 00
 192.242231 1  16              Rx   d 8 01 00 00 00 00 00 00 00
 192.244038 1  11              Rx   d 8 E8 B6 28 00 03 00 2F 00
 192.244297 1  18              Rx   d 8 00 00 00 00 00 00 00 00
 194.133245 1  15              Rx   d 8 44 40 00 00 04 04 00 00
 194.134406 1  10              Rx   d 8 AA 74 2A 00 2B 00 32 00
 194.161687 1  14              Rx   d 8 00 63 30 56 66 00 00 00
 194.161946 1  16              Rx   d 8 01 00 00 00 00 00 00 00
 194.163796 1  11              Rx   d 8 EA B6 28 00 02 00 31 00
 194.164054 1  18              Rx   d 8 00 00 00 00 00 00 00 00
 196.053002 1  15              Rx   d 8 44 40 00 00 04 04 00 00
 196.054207 1  10              Rx   d 8 43 74 2A 00 21 00 32 00
 196.081488 1  14              Rx   d 8 00 63 30 56 66 00 00 00
 196.081746 1  16              Rx   d 8 01 00 00 00 00 00 00 00
 196.083984 1  11              Rx   d 8 EA B6 28 00 01 00 31 00
 196.084285 1  18              Rx   d 8 00 00 00 00 00 00 00 00
 197.962819 1  15              Rx   d 8 44 40 00 00 04 04 00 00
 197.963981 1  10              Rx   d 8 1F 74 2A 00 0F 00 32 00
 197.991305 1  14              Rx   d 8 04 63 30 56 66 00 00 00
 197.991563 1  16              Rx   d 8 01 00 00 00 00 00 00 00
 197.993371 1  11              Rx   d 8 E8 B6 28 00 02 00 31 00
 197.993629 1  18              Rx   d 8 00 00 00 00 00 00 00 00
 199.882577 1  15              Rx   d 8 44 40 00 00 04 04 00 00
 199.883739 1  10              Rx   d 8 22 73 2A 00 F4 01 30 00
 199.911063 1  14              Rx   d 8 04 63 30 56 66 00 00 00
 199.911321 1  16              Rx   d 8 01 00 00 00 00 00 00 00
 199.913128 1  11              Rx   d 8 E4 B6 28 00 01 00 32 00
 199.913386 1  18              Rx   d 8 00 00 00 00 00 00 00 00
 201.802334 1  15              Rx   d 8 44 40 00 00 04 04 00 00
 201.803496 1  10              Rx   d 8 C4 67 2A 00 A2 02 32 00
 201.830777 1  14              Rx   d 8 00 63 30 56 66 00 00 00
 201.831078 1  16              Rx   d 8 01 00 00 00 00 00 00 00
 201.832886 1  11              Rx   d 8 EF B5 28 00 9C 00 32 00
 201.833187 1  18              Rx   d 8 00 00 00 00 00 00 00 00
 203.722221 1  15              Rx   d 8 44 40 00 00 04 04 00 00
 203.723426 1  10              Rx   d 8 78 68 2A 00 AF 04 32 00
 203.750707 1  14              Rx   d 8 0C 63 30 56 66 00 00 00
 203.750965 1  16              Rx   d 8 01 00 00 00 00 00 00 00
 203.753245 1  11              Rx   d 8 7D B7 28 00 91 00 32 00
 203.753503 1  18              Rx   d 8 00 00 00 00 00 00 00 00
 205.632137 1  15              Rx   d 8 44 40 00 00 04 04 00 00
 205.633299 1  10              Rx   d 8 DA 69 2A 00 A1 01 31 00
 205.660580 1  14              Rx   d 8 04 63 70 56 66 00 00 00
 205.660881 1  16              Rx   d 8 01 00 00 00 00 00 00 00
 205.662689 1  11              Rx   d 8 A6 B7 28 00 2F 00 32 00
 205.662990 1  18              Rx   d 8 00 00 00 00 00 00 00 00
 207.551938 1  15              Rx   d 8 44 40 00 00 04 04 00 00
 207.553142 1  10              Rx   d 8 9D 79 2A 00 AC 11 32 00
 207.580380 1  14              Rx   d 8 0C 63 B0 56 66 00 00 00
 207.580682 1  16              Rx   d 8 01 00 00 00 00 00 00 00
 207.582489 1  11              Rx   d 8 C5 B7 28 00 3B 00 32 00
 207.582790 1  18              Rx   d 8 00 00 00 00 00 00 00 00
 209.471738 1  15              Rx   d 8 44 40 00 00 04 04 00 00
 209.472943 1  10              Rx   d 8 2C 8E 2A 00 80 01 32 00
 209.500224 1  14              Rx   d 8 04 63 B0 56 66 00 00 00
 209.500482 1  16              Rx   d 8 01 00 00 00 00 00 00 00
 209.502289 1  11              Rx   d 8 78 B7 28 00 1A 00 30 00
 209.502591 1  18              Rx   d 8 00 00 00 00 00 00 00 00
 211.391538 1  15              Rx   d 8 44 40 00 00 04 04 00 00
 211.392743 1  10              Rx   d 8 74 8B 2A 00 8D 00 32 00
 211.419981 1  14              Rx   d 8 0C 63 B0 56 66 00 00 00
 211.420283 1  16              Rx   d 8 01 00 00 00 00 00 00 00
 211.422520 1  11              Rx   d 8 A2 B7 28 00 19 00 30 00
 211.422778 1  18              Rx   d 8 00 00 00 00 00 00 00 00
 213.301313 1  15              Rx   d 8 44 40 00 00 04 04 00 00
 213.302518 1  10              Rx   d 8 10 8A 2A 00 50 00 32 00
 213.329799 1  14              Rx   d 8 04 63 70 56 66 00 00 00
 213.330057 1  16              Rx   d 8 01 00 00 00 00 00 00 00
 213.331907 1  11              Rx   d 8 6A B7 28 00 15 00 31 00
 213.332165 1  18              Rx   d 8 00 00 00 00 00 00 00 00
 215.221242 1  15              Rx   d 8 44 40 00 00 04 04 00 00
 215.222447 1  10              Rx   d 8 CD 88 2A 00 7B 00 32 00
 215.249728 1  14              Rx   d 8 04 63 B0 56 66 00 00 00
 215.249986 1  16              Rx   d 8 01 00 00 00 00 00 00 00
 215.251837 1  11              Rx   d 8 72 B7 28 00 14 00 31 00
 215.252095 1  18              Rx   d 8 00 00 00 00 00 00 00 00
 217.141344 1  15              Rx   d 8 44 40 00 00 04 04 00 00
 217.142549 1  10              Rx   d 8 21 A3 2A 00 AF 1D 32 00
 217.169787 1  14              Rx   d 8 04 63 F4 56 66 00 00 00
 217.170088 1  16              Rx   d 8 01 00 00 00 00 00 00 00
 217.171895 1  11              Rx   d 8 7E B7 28 00 0C 00 31 00
 217.172154 1  18              Rx   d 8 00 00 00 00 00 00 00 00
 219.061317 1  15              Rx   d 8 44 40 00 00 04 04 00 00
 219.062521 1  10              Rx   d 8 6B CF 2A 00 C0 00 31 00
 219.089802 1  14              Rx   d 8 04 63 F4 56 66 00 00 00
 219.090061 1  16              Rx   d 8 01 00 00 00 00 00 00 00
 219.092341 1  11              Rx   d 8 D1 B7 28 00 21 00 31 00
 219.092642 1  18              Rx   d 8 00 00 00 00 00 00 00 00
 220.971478 1  15              Rx   d 8 44 40 00 00 04 04 00 00
 220.972683 1  10              Rx   d 8 99 B8 2A 00 8A 1C 32 00
 220.999964 1  14              Rx   d 8 04 63 B0 56 66 00 00 00
 221.000222 1  16              Rx   d 8 01 00 00 00 00 00 00 00
 221.002030 1  11              Rx   d 8 E0 B7 28 00 21 00 31 00
 221.002331 1  18              Rx   d 8 00 00 00 00 00 00 00 00
 222.891709 1  15              Rx   d 8 44 40 00 00 04 04 00 00
 222.892914 1  10              Rx   d 8 E8 62 2A 00 AF 1C 32 00
 222.920152 1  14              Rx   d 8 0C 63 70 56 66 00 00 00
 222.920453 1  16              Rx   d 8 01 00 00 00 00 00 00 00
 222.922260 1  11              Rx   d 8 03 B9 28 00 FF 00 32 00
 222.922562 1  18              Rx   d 8 00 00 00 00 00 00 00 00
 224.811996 1  15              Rx   d 8 44 40 00 00 04 04 00 00
 224.813201 1  10              Rx   d 8 A1 35 2A 00 7C 04 32 00
 224.840439 1  14              Rx   d 8 04 63 70 56 66 00 00 00
 224.840740 1  16              Rx   d 8 01 00 00 00 00 00 00 00
 224.842547 1  11              Rx   d 8 7F B8 28 00 0D 00 32 00
 224.842805 1  18              Rx   d 8 00 00 00 00 00 00 00 00
 226.732227 1  15              Rx   d 8 44 40 00 00 04 04 00 00
 226.733431 1  10              Rx   d 8 27 35 2A 00 FB 04 32 00
 226.760712 1  14              Rx   d 8 04 63 70 56 66 00 00 00
 226.760971 1  16              Rx   d 8 01 00 00 00 00 00 00 00
 226.762778 1  11              Rx   d 8 A6 B8 28 00 06 00 30 00
 226.763036 1  18              Rx   d 8 00 00 00 00 00 00 00 00
 228.652457 1  15              Rx   d 8 44 40 00 00 04 04 00 00
 228.653662 1  10              Rx   d 8 B6 5A 2A 00 88 06 32 00
 228.680943 1  14              Rx   d 8 04 63 70 56 66 00 00 00
 228.681201 1  16              Rx   d 8 01 00 00 00 00 00 00 00
 228.683439 1  11              Rx   d 8 A5 B7 28 00 15 00 31 00
 228.683740 1  18              Rx   d 8 00 00 00 00 00 00 00 00
 230.562576 1  15              Rx   d 8 44 40 00 00 04 04 00 00
 230.563781 1  10              Rx   d 8 AE 4D 2A 00 4F 1A 32 00
 230.591019 1  14              Rx   d 8 0C 63 B0 56 66 00 00 00
 230.591320 1  16              Rx   d 8 01 00 00 00 00 00 00 00
 230.593127 1  11              Rx   d 8 8E B8 28 00 B7 01 32 00
 230.593428 1  18              Rx   d 8 00 00 00 00 00 00 00 00
 232.482635 1  15              Rx   d 8 44 40 00 00 04 04 00 00
 232.483839 1  10              Rx   d 8 AD 8B 2A 00 BC 07 31 00
 232.511120 1  14              Rx   d 8 0C 63 70 56 66 00 00 00
 232.511379 1  16              Rx   d 8 01 00 00 00 00 00 00 00
 232.513229 1  11              Rx   d 8 73 BA 28 00 19 00 32 00
 232.513487 1  18              Rx   d 8 00 00 00 00 00 00 00 00
 234.402650 1  15              Rx   d 8 44 40 00 00 04 04 00 00
 234.403855 1  10              Rx   d 8 F6 AD 2A 00 BE 03 32 00
 234.431136 1  14              Rx   d 8 14 63 B0 56 66 00 00 00
 234.431394 1  16              Rx   d 8 01 00 00 00 00 00 00 00
 234.433244 1  11              Rx   d 8 B7 B9 28 00 71 00 32 00
 234.433503 1  18              Rx   d 8 00 00 00 00 00 00 00 00
 236.322795 1  15              Rx   d 8 44 40 00 00 04 04 00 00
 236.324000 1  10              Rx   d 8 B3 9F 2A 00 53 01 31 00
 236.351281 1  14              Rx   d 8 04 63 B0 56 66 00 00 00
 236.351539 1  16              Rx   d 8 01 00 00 00 00 00 00 00
 236.353776 1  11              Rx   d 8 ED B8 28 00 0B 00 32 00
 236.354078 1  18              Rx   d 8 00 00 00 00 00 00 00 00
 238.232827 1  15              Rx   d 8 44 40 00 00 04 04 00 00
 238.234032 1  10              Rx   d 8 C8 9A 2A 00 6B 01 32 00
 238.261313 1  14              Rx   d 8 0C 63 70 56 66 00 00 00
 238.261571 1  16              Rx   d 8 01 00 00 00 00 00 00 00
 238.263422 1  11              Rx   d 8 02 B9 28 00 19 00 32 00
 238.263680 1  18              Rx   d 8 00 00 00 00 00 00 00 00
 240.152800 1  15              Rx   d 8 44 40 00 00 04 04 00 00
 240.154005 1  10              Rx   d 8 4E 96 2A 00 39 00 32 00
 240.181286 1  14              Rx   d 8 0C 63 30 56 66 00 00 00
 240.181544 1  16              Rx   d 8 01 00 00 00 00 00 00 00
 240.183394 1  11              Rx   d 8 EB B8 28 00 10 00 31 00
 240.183652 1  18              Rx   d 8 00 00 00 00 00 00 00 00
 242.072815 1  15              Rx   d 8 44 40 00 00 04 04 00 00
 242.073977 1  10              Rx   d 8 9E 95 2A 00 1C 00 32 00
 242.101301 1  14              Rx   d 8 04 63 30 56 66 00 00 00
 242.101560 1  16              Rx   d 8 01 00 00 00 00 00 00 00
 242.103367 1  11              Rx   d 8 09 B9 28 00 11 00 32 00
 242.103668 1  18              Rx   d 8 00 00 00 00 00 00 00 00
 243.992887 1  15              Rx   d 8 44 40 00 00 04 04 00 00
 243.994092 1  10              Rx   d 8 D4 94 2A 00 9C 00 32 00
 244.021373 1  14              Rx   d 8 0C 63 30 56 66 00 00 00
 244.021631 1  16              Rx   d 8 01 00 00 00 00 00 00 00
 244.023912 1  11              Rx   d 8 09 B9 28 00 1E 00 32 00
 244.024170 1  18              Rx   d 8 00 00 00 00 00 00 00 00
 245.902834 1  15              Rx   d 8 44 40 00 00 04 04 00 00
 245.903995 1  10              Rx   d 8 0B 94 2A 00 54 00 32 00
 245.931276 1  14              Rx   d 8 04 63 EC 55 66 00 00 00
 245.931535 1  16              Rx   d 8 01 00 00 00 00 00 00 00
 245.933385 1  11              Rx   d 8 F2 B8 28 00 10 00 31 00
 245.933643 1  18              Rx   d 8 00 00 00 00 00 00 00 00
 247.822720 1  15              Rx   d 8 44 40 00 00 04 04 00 00
 247.823925 1  10              Rx   d 8 19 93 2A 00 44 00 32 00
 247.851206 1  14              Rx   d 8 04 63 EC 55 66 00 00 00
 247.851464 1  16              Rx   d 8 01 00 00 00 00 00 00 00
 247.853271 1  11              Rx   d 8 F8 B8 28 00 0E 00 32 00
 247.853573 1  18              Rx   d 8 00 00 00 00 00 00 00 00
 249.742693 1  15              Rx   d 8 44 40 00 00 04 04 00 00
 249.743854 1  10              Rx   d 8 8D 91 2A 00 89 00 32 00
 249.771135 1  14              Rx   d 8 04 63 EC 55 66 00 00 00
 249.771437 1  16              Rx   d 8 01 00 00 00 00 00 00 00
 249.773244 1  11              Rx   d 8 B3 B8 28 00 16 00 32 00
 249.773502 1  18              Rx   d 8 00 00 00 00 00 00 00 00
 251.662579 1  15              Rx   d 8 44 40 00 00 04 04 00 00
 251.663784 1  10              Rx   d 8 56 90 2A 00 6A 00 32 00
 251.691065 1  14              Rx   d 8 04 63 EC 55 66 00 00 00
 251.691323 1  16              Rx   d 8 01 00 00 00 00 00 00 00
 251.693561 1  11              Rx   d 8 BD B8 28 00 0C 00 31 00
 251.693819 1  18              Rx   d 8 00 00 00 00 00 00 00 00
 253.572311 1  15              Rx   d 8 44 40 00 00 04 04 00 00
 253.573515 1  10              Rx   d 8 DF 8F 2A 00 37 00 32 00
 253.600796 1  14              Rx   d 8 00 63 EC 55 66 00 00 00
 253.601055 1  16              Rx   d 8 01 00 00 00 00 00 00 00
 253.602862 1  11              Rx   d 8 B8 B8 28 00 13 00 31 00
 253.603163 1  18              Rx   d 8 00 00 00 00 00 00 00 00
 255.491982 1  15              Rx   d 8 44 40 00 00 04 04 00 00
 255.493187 1  10              Rx   d 8 DB 8E 2A 00 C0 00 32 00
 255.520468 1  14              Rx   d 8 04 63 EC 55 66 00 00 00
 255.520726 1  16              Rx   d 8 01 00 00 00 00 00 00 00
 255.522533 1  11              Rx   d 8 B0 B8 28 00 09 00 31 00
 255.522791 1  18              Rx   d 8 00 00 00 00 00 00 00 00
