date Sun Feb 11 08:49:45.480 PM 2024
base hex  timestamps absolute
internal events logged
Begin Triggerblock Sun Feb 11 08:52:37.910 PM 2024
 0.000000 Start of measurement
 0.000000 1  10              Rx   d 8 49 54 00 00 01 00 00 00
 0.000298 1  15              Rx   d 8 4C 40 00 00 02 02 00 00
 0.001450 1  10              Rx   d 8 8A 3F 29 00 1D 00 31 00
 0.028500 1  14              Rx   d 8 6C 63 84 5C 73 73 00 00
 0.028756 1  16              Rx   d 8 01 00 01 00 00 00 00 00
 0.029951 1  11              Rx   d 8 F4 CD 28 00 2F 02 32 00
 0.030207 1  18              Rx   d 8 00 00 00 00 00 00 00 00
 0.825075 1  15              Rx   d 8 4C 40 00 00 02 02 00 00
 0.826269 1  10              Rx   d 8 E7 3F 29 00 26 00 32 00
 0.853320 1  14              Rx   d 8 6C 63 48 5D 15 15 00 00
 0.853576 1  16              Rx   d 8 01 00 01 00 00 00 00 00
 0.854770 1  11              Rx   d 8 97 D6 28 00 4A 00 2F 00
 0.855026 1  18              Rx   d 8 00 00 00 00 00 00 00 00
 2.854742 1  15              Rx   d 8 4C 40 00 00 02 02 00 00
 2.855904 1  10              Rx   d 8 FE 3F 29 00 01 00 32 00
 2.883226 1  14              Rx   d 8 6C 63 D0 5E 33 33 00 00
 2.883527 1  16              Rx   d 8 01 00 01 00 00 00 00 00
 2.884646 1  11              Rx   d 8 A8 D6 28 00 02 00 30 00
 2.884904 1  18              Rx   d 8 00 00 00 00 00 00 00 00
 4.894192 1  15              Rx   d 8 4C 40 00 00 02 02 00 00
 4.895354 1  10              Rx   d 8 FF 3F 29 00 01 00 32 00
 4.922675 1  14              Rx   d 8 70 63 D0 5E 33 33 00 00
 4.922976 1  16              Rx   d 8 01 00 01 00 00 00 00 00
 4.924095 1  11              Rx   d 8 AA D6 28 00 02 00 2F 00
 4.924353 1  18              Rx   d 8 00 00 00 00 00 00 00 00
 6.933813 1  15              Rx   d 8 4C 40 00 00 02 02 00 00
 6.934975 1  10              Rx   d 8 00 40 29 00 01 00 32 00
 6.962340 1  14              Rx   d 8 78 63 0C 5E 33 33 00 00
 6.962598 1  16              Rx   d 8 01 00 01 00 00 00 00 00
 6.963759 1  11              Rx   d 8 B8 D6 28 00 33 00 2E 00
 6.964018 1  18              Rx   d 8 00 00 00 00 00 00 00 00
 8.973693 1  15              Rx   d 8 4C 40 00 00 02 02 00 00
 8.974855 1  10              Rx   d 8 FF 3F 29 00 01 00 32 00
 9.002176 1  14              Rx   d 8 78 63 FC 5C 33 33 00 00
 9.002477 1  16              Rx   d 8 01 00 01 00 00 00 00 00
 9.003639 1  11              Rx   d 8 B4 D6 28 00 02 00 2F 00
 9.003897 1  18              Rx   d 8 00 00 00 00 00 00 00 00
 11.013487 1  15              Rx   d 8 4C 40 00 00 02 02 00 00
 11.014691 1  10              Rx   d 8 01 40 29 00 01 00 32 00
 11.042013 1  14              Rx   d 8 7C 63 74 5B 33 33 00 00
 11.042271 1  16              Rx   d 8 01 00 01 00 00 00 00 00
 11.043433 1  11              Rx   d 8 BF D6 28 00 05 00 32 00
 11.043691 1  18              Rx   d 8 00 00 00 00 00 00 00 00
 13.053323 1  15              Rx   d 8 4C 40 00 00 02 02 00 00
 13.054528 1  10              Rx   d 8 02 40 29 00 01 00 32 00
 13.081849 1  14              Rx   d 8 7C 63 EC 59 33 33 00 00
 13.082108 1  16              Rx   d 8 01 00 01 00 00 00 00 00
 13.083269 1  11              Rx   d 8 C5 D6 28 00 02 00 30 00
 13.083527 1  18              Rx   d 8 00 00 00 00 00 00 00 00
 15.093160 1  15              Rx   d 8 4C 40 00 00 02 02 00 00
 15.094364 1  10              Rx   d 8 03 40 29 00 01 00 32 00
 15.121716 1  14              Rx   d 8 7C 63 E8 58 33 33 00 00
 15.121974 1  16              Rx   d 8 01 00 01 00 00 00 00 00
 15.123136 1  11              Rx   d 8 CB D6 28 00 04 00 32 00
 15.123437 1  18              Rx   d 8 00 00 00 00 00 00 00 00
 17.133069 1  15              Rx   d 8 4C 40 00 00 02 02 00 00
 17.134231 1  10              Rx   d 8 05 40 29 00 01 00 32 00
 17.161553 1  14              Rx   d 8 7C 63 A8 58 33 33 00 00
 17.161811 1  16              Rx   d 8 01 00 01 00 00 00 00 00
 17.162972 1  11              Rx   d 8 D8 D6 28 00 02 00 30 00
 17.163231 1  18              Rx   d 8 00 00 00 00 00 00 00 00
 19.172906 1  15              Rx   d 8 4C 40 00 00 02 02 00 00
 19.174068 1  10              Rx   d 8 05 40 29 00 01 00 32 00
 19.201432 1  14              Rx   d 8 7C 63 24 58 33 33 00 00
 19.201690 1  16              Rx   d 8 01 00 01 00 00 00 00 00
 19.202852 1  11              Rx   d 8 E0 D6 28 00 05 00 31 00
 19.203110 1  18              Rx   d 8 00 00 00 00 00 00 00 00
 21.212786 1  15              Rx   d 8 4C 40 00 00 02 02 00 00
 21.213947 1  10              Rx   d 8 06 40 29 00 01 00 32 00
 21.241312 1  14              Rx   d 8 78 63 24 58 33 33 00 00
 21.241570 1  16              Rx   d 8 01 00 01 00 00 00 00 00
 21.242689 1  11              Rx   d 8 E9 D6 28 00 01 00 2E 00
 21.242990 1  18              Rx   d 8 00 00 00 00 00 00 00 00
 23.252708 1  15              Rx   d 8 4C 40 00 00 02 02 00 00
 23.253913 1  10              Rx   d 8 06 40 29 00 01 00 32 00
 23.281235 1  14              Rx   d 8 7C 63 E4 57 33 33 00 00
 23.281493 1  16              Rx   d 8 01 00 01 00 00 00 00 00
 23.282654 1  11              Rx   d 8 E9 D6 28 00 01 00 31 00
 23.282913 1  18              Rx   d 8 00 00 00 00 00 00 00 00
 25.292502 1  15              Rx   d 8 4C 40 00 00 02 02 00 00
 25.293664 1  10              Rx   d 8 08 40 29 00 01 00 32 00
 25.320985 1  14              Rx   d 8 84 63 A0 57 33 33 00 00
 25.321243 1  16              Rx   d 8 01 00 01 00 00 00 00 00
 25.322405 1  11              Rx   d 8 EB D6 28 00 01 00 32 00
 25.322663 1  18              Rx   d 8 00 00 00 00 00 00 00 00
 27.332209 1  15              Rx   d 8 4C 40 00 00 02 02 00 00
 27.333371 1  10              Rx   d 8 0A 40 29 00 01 00 32 00
 27.360736 1  14              Rx   d 8 7C 63 60 57 33 33 00 00
 27.360994 1  16              Rx   d 8 01 00 01 00 00 00 00 00
 27.362155 1  11              Rx   d 8 EE D6 28 00 02 00 31 00
 27.362414 1  18              Rx   d 8 00 00 00 00 00 00 00 00
 29.372003 1  15              Rx   d 8 4C 40 00 00 02 02 00 00
 29.373165 1  10              Rx   d 8 0C 40 29 00 01 00 32 00
 29.400529 1  14              Rx   d 8 78 63 60 57 33 33 00 00
 29.400787 1  16              Rx   d 8 01 00 01 00 00 00 00 00
 29.401906 1  11              Rx   d 8 F2 D6 28 00 02 00 31 00
 29.402207 1  18              Rx   d 8 00 00 00 00 00 00 00 00
 31.411926 1  15              Rx   d 8 4C 40 00 00 02 02 00 00
 31.413087 1  10              Rx   d 8 0C 40 29 00 01 00 32 00
 31.440409 1  14              Rx   d 8 78 63 60 57 33 33 00 00
 31.440710 1  16              Rx   d 8 01 00 01 00 00 00 00 00
 31.441872 1  11              Rx   d 8 F3 D6 28 00 02 00 31 00
 31.442130 1  18              Rx   d 8 00 00 00 00 00 00 00 00
 33.451848 1  15              Rx   d 8 4C 40 00 00 02 02 00 00
 33.453010 1  10              Rx   d 8 0D 40 29 00 01 00 32 00
 33.480332 1  14              Rx   d 8 7C 63 A0 57 33 33 00 00
 33.480633 1  16              Rx   d 8 01 00 01 00 00 00 00 00
 33.481751 1  11              Rx   d 8 F1 D6 28 00 02 00 31 00
 33.482053 1  18              Rx   d 8 00 00 00 00 00 00 00 00
 35.491728 1  15              Rx   d 8 4C 40 00 00 02 02 00 00
 35.492890 1  10              Rx   d 8 0E 40 29 00 01 00 32 00
 35.520211 1  14              Rx   d 8 7C 63 24 58 33 33 00 00
 35.520512 1  16              Rx   d 8 01 00 01 00 00 00 00 00
 35.521631 1  11              Rx   d 8 F7 D6 28 00 02 00 31 00
 35.521932 1  18              Rx   d 8 00 00 00 00 00 00 00 00
 37.531565 1  15              Rx   d 8 4C 40 00 00 02 02 00 00
 37.532726 1  10              Rx   d 8 10 40 29 00 01 00 31 00
 37.560048 1  14              Rx   d 8 78 63 64 58 33 33 00 00
 37.560306 1  16              Rx   d 8 01 00 01 00 00 00 00 00
 37.561511 1  11              Rx   d 8 FB D6 28 00 01 00 31 00
 37.561769 1  18              Rx   d 8 00 00 00 00 00 00 00 00
 39.571401 1  15              Rx   d 8 4C 40 00 00 02 02 00 00
 39.572606 1  10              Rx   d 8 12 40 29 00 01 00 32 00
 39.599927 1  14              Rx   d 8 70 63 64 58 33 33 00 00
 39.600186 1  16              Rx   d 8 01 00 01 00 00 00 00 00
 39.601347 1  11              Rx   d 8 FD D6 28 00 02 00 31 00
 39.601605 1  18              Rx   d 8 00 00 00 00 00 00 00 00
 41.611195 1  15              Rx   d 8 4C 40 00 00 02 02 00 00
 41.612399 1  10              Rx   d 8 13 40 29 00 01 00 32 00
 41.639721 1  14              Rx   d 8 70 63 30 58 33 33 00 00
 41.639979 1  16              Rx   d 8 01 00 01 00 00 00 00 00
 41.641141 1  11              Rx   d 8 FE D6 28 00 01 00 31 00
 41.641399 1  18              Rx   d 8 00 00 00 00 00 00 00 00
 43.650902 1  15              Rx   d 8 4C 40 00 00 02 02 00 00
 43.652064 1  10              Rx   d 8 15 40 29 00 01 00 32 00
 43.679385 1  14              Rx   d 8 70 63 70 58 33 33 00 00
 43.679644 1  16              Rx   d 8 01 00 01 00 00 00 00 00
 43.680805 1  11              Rx   d 8 03 D7 28 00 02 00 31 00
 43.681107 1  18              Rx   d 8 00 00 00 00 00 00 00 00
 45.690610 1  15              Rx   d 8 4C 40 00 00 02 02 00 00
 45.691771 1  10              Rx   d 8 17 40 29 00 01 00 32 00
 45.719093 1  14              Rx   d 8 6C 63 30 58 33 33 00 00
 45.719351 1  16              Rx   d 8 01 00 01 00 00 00 00 00
 45.720513 1  11              Rx   d 8 05 D7 28 00 02 00 31 00
 45.720814 1  18              Rx   d 8 00 00 00 00 00 00 00 00
 47.730274 1  15              Rx   d 8 4C 40 00 00 02 02 00 00
 47.731479 1  10              Rx   d 8 18 40 29 00 01 00 32 00
 47.758801 1  14              Rx   d 8 6C 63 EC 57 33 33 00 00
 47.759059 1  16              Rx   d 8 01 00 01 00 00 00 00 00
 47.760220 1  11              Rx   d 8 06 D7 28 00 03 00 31 00
 47.760479 1  18              Rx   d 8 00 00 00 00 00 00 00 00
 49.770068 1  15              Rx   d 8 4C 40 00 00 02 02 00 00
 49.771230 1  10              Rx   d 8 19 40 29 00 01 00 32 00
 49.798551 1  14              Rx   d 8 70 63 EC 57 33 33 00 00
 49.798852 1  16              Rx   d 8 01 00 01 00 00 00 00 00
 49.800014 1  11              Rx   d 8 0A D7 28 00 02 00 31 00
 49.800272 1  18              Rx   d 8 00 00 00 00 00 00 00 00
 51.810034 1  15              Rx   d 8 4C 40 00 00 02 02 00 00
 51.811152 1  10              Rx   d 8 1A 40 29 00 01 00 32 00
 51.838517 1  14              Rx   d 8 6C 63 EC 57 33 33 00 00
 51.838775 1  16              Rx   d 8 01 00 01 00 00 00 00 00
 51.839937 1  11              Rx   d 8 0C D7 28 00 02 00 31 00
 51.840195 1  18              Rx   d 8 00 00 00 00 00 00 00 00
 53.849827 1  15              Rx   d 8 4C 40 00 00 02 02 00 00
 53.850989 1  10              Rx   d 8 1B 40 29 00 01 00 32 00
 53.878310 1  14              Rx   d 8 64 63 EC 57 33 33 00 00
 53.878569 1  16              Rx   d 8 01 00 01 00 00 00 00 00
 53.879773 1  11              Rx   d 8 0F D7 28 00 01 00 31 00
 53.880031 1  18              Rx   d 8 00 00 00 00 00 00 00 00
 55.889750 1  15              Rx   d 8 4C 40 00 00 02 02 00 00
 55.890955 1  10              Rx   d 8 1C 40 29 00 01 00 32 00
 55.918276 1  14              Rx   d 8 60 63 EC 57 33 33 00 00
 55.918534 1  16              Rx   d 8 01 00 01 00 00 00 00 00
 55.919696 1  11              Rx   d 8 0F D7 28 00 02 00 31 00
 55.919954 1  18              Rx   d 8 00 00 00 00 00 00 00 00
 57.929715 1  15              Rx   d 8 4C 40 00 00 02 02 00 00
 57.930877 1  10              Rx   d 8 1D 40 29 00 01 00 32 00
 57.958199 1  14              Rx   d 8 60 63 30 58 33 33 00 00
 57.958500 1  16              Rx   d 8 01 00 01 00 00 00 00 00
 57.959662 1  11              Rx   d 8 10 D7 28 00 02 00 31 00
 57.959920 1  18              Rx   d 8 00 00 00 00 00 00 00 00
 59.969509 1  15              Rx   d 8 4C 40 00 00 02 02 00 00
 59.970671 1  10              Rx   d 8 1F 40 29 00 01 00 32 00
 59.997992 1  14              Rx   d 8 5C 63 70 58 33 33 00 00
 59.998293 1  16              Rx   d 8 01 00 01 00 00 00 00 00
 59.999412 1  11              Rx   d 8 11 D7 28 00 02 00 30 00
 59.999713 1  18              Rx   d 8 00 00 00 00 00 00 00 00
 62.009303 1  15              Rx   d 8 4C 40 00 00 02 02 00 00
 62.010464 1  10              Rx   d 8 20 40 29 00 01 00 32 00
 62.037786 1  14              Rx   d 8 5C 63 B0 58 33 33 00 00
 62.038087 1  16              Rx   d 8 01 00 01 00 00 00 00 00
 62.039249 1  11              Rx   d 8 13 D7 28 00 02 00 31 00
 62.039507 1  18              Rx   d 8 00 00 00 00 00 00 00 00
 64.049182 1  15              Rx   d 8 4C 40 00 00 02 02 00 00
 64.050387 1  10              Rx   d 8 21 40 29 00 01 00 32 00
 64.077709 1  14              Rx   d 8 5C 63 B0 58 33 33 00 00
 64.077967 1  16              Rx   d 8 01 00 01 00 00 00 00 00
 64.079128 1  11              Rx   d 8 16 D7 28 00 02 00 32 00
 64.079387 1  18              Rx   d 8 00 00 00 00 00 00 00 00
 66.089019 1  15              Rx   d 8 4C 40 00 00 02 02 00 00
 66.090181 1  10              Rx   d 8 22 40 29 00 01 00 32 00
 66.117502 1  14              Rx   d 8 5C 63 F4 58 33 33 00 00
 66.117760 1  16              Rx   d 8 01 00 01 00 00 00 00 00
 66.118922 1  11              Rx   d 8 19 D7 28 00 01 00 30 00
 66.119180 1  18              Rx   d 8 00 00 00 00 00 00 00 00
 68.128683 1  15              Rx   d 8 4C 40 00 00 02 02 00 00
 68.129845 1  10              Rx   d 8 23 40 29 00 01 00 32 00
 68.157167 1  14              Rx   d 8 5C 63 B0 58 33 33 00 00
 68.157425 1  16              Rx   d 8 01 00 01 00 00 00 00 00
 68.158586 1  11              Rx   d 8 1A D7 28 00 01 00 32 00
 68.158845 1  18              Rx   d 8 00 00 00 00 00 00 00 00
 70.168348 1  15              Rx   d 8 4C 40 00 00 02 02 00 00
 70.169510 1  10              Rx   d 8 24 40 29 00 01 00 32 00
 70.196831 1  14              Rx   d 8 54 63 B0 58 33 33 00 00
 70.197089 1  16              Rx   d 8 01 00 01 00 00 00 00 00
 70.198251 1  11              Rx   d 8 1C D7 28 00 02 00 31 00
 70.198509 1  18              Rx   d 8 00 00 00 00 00 00 00 00
 72.207969 1  15              Rx   d 8 4C 40 00 00 02 02 00 00
 72.209131 1  10              Rx   d 8 26 40 29 00 01 00 32 00
 72.236453 1  14              Rx   d 8 54 63 B0 58 33 33 00 00
 72.236711 1  16              Rx   d 8 01 00 01 00 00 00 00 00
 72.237915 1  11              Rx   d 8 21 D7 28 00 02 00 31 00
 72.238174 1  18              Rx   d 8 00 00 00 00 00 00 00 00
 74.247591 1  15              Rx   d 8 4C 40 00 00 02 02 00 00
 74.248753 1  10              Rx   d 8 27 40 29 00 01 00 32 00
 74.276117 1  14              Rx   d 8 54 63 30 58 33 33 00 00
 74.276375 1  16              Rx   d 8 01 00 01 00 00 00 00 00
 74.277537 1  11              Rx   d 8 22 D7 28 00 01 00 32 00
 74.277795 1  18              Rx   d 8 00 00 00 00 00 00 00 00
 76.287533 1  15              Rx   d 8 4C 40 00 00 02 02 00 00
 76.288695 1  10              Rx   d 8 29 40 29 00 01 00 32 00
 76.316020 1  14              Rx   d 8 54 63 AC 57 33 33 00 00
 76.316278 1  16              Rx   d 8 01 00 01 00 00 00 00 00
 76.317440 1  11              Rx   d 8 24 D7 28 00 01 00 32 00
 76.317698 1  18              Rx   d 8 00 00 00 00 00 00 00 00
 78.327697 1  15              Rx   d 8 4C 40 00 00 02 02 00 00
 78.328859 1  10              Rx   d 8 2A 40 29 00 01 00 32 00
 78.356184 1  14              Rx   d 8 4C 63 AC 57 33 33 00 00
 78.356442 1  16              Rx   d 8 01 00 01 00 00 00 00 00
 78.357604 1  11              Rx   d 8 25 D7 28 00 01 00 2F 00
 78.357863 1  18              Rx   d 8 00 00 00 00 00 00 00 00
 80.367861 1  15              Rx   d 8 4C 40 00 00 02 02 00 00
 80.369023 1  10              Rx   d 8 2B 40 29 00 01 00 32 00
 80.396391 1  14              Rx   d 8 4C 63 EC 57 33 33 00 00
 80.396650 1  16              Rx   d 8 01 00 01 00 00 00 00 00
 80.397811 1  11              Rx   d 8 28 D7 28 00 01 00 31 00
 80.398070 1  18              Rx   d 8 00 00 00 00 00 00 00 00
 82.408025 1  15              Rx   d 8 4C 40 00 00 02 02 00 00
 82.409187 1  10              Rx   d 8 2C 40 29 00 01 00 32 00
 82.436512 1  14              Rx   d 8 48 63 AC 57 33 33 00 00
 82.436771 1  16              Rx   d 8 01 00 01 00 00 00 00 00
 82.437932 1  11              Rx   d 8 28 D7 28 00 02 00 30 00
 82.438191 1  18              Rx   d 8 00 00 00 00 00 00 00 00
 84.448189 1  15              Rx   d 8 4C 40 00 00 02 02 00 00
 84.449351 1  10              Rx   d 8 2D 40 29 00 01 00 31 00
 84.476677 1  14              Rx   d 8 4C 63 AC 57 33 33 00 00
 84.476935 1  16              Rx   d 8 01 00 01 00 00 00 00 00
 84.478097 1  11              Rx   d 8 29 D7 28 00 02 00 31 00
 84.478355 1  18              Rx   d 8 00 00 00 00 00 00 00 00
 86.488439 1  15              Rx   d 8 4C 40 00 00 02 02 00 00
 86.489601 1  10              Rx   d 8 2E 40 29 00 01 00 32 00
 86.516927 1  14              Rx   d 8 48 63 EC 57 33 33 00 00
 86.517185 1  16              Rx   d 8 01 00 01 00 00 00 00 00
 86.518390 1  11              Rx   d 8 2B D7 28 00 01 00 31 00
 86.518648 1  18              Rx   d 8 00 00 00 00 00 00 00 00
 88.528647 1  15              Rx   d 8 4C 40 00 00 02 02 00 00
 88.529808 1  10              Rx   d 8 2E 40 29 00 01 00 32 00
 88.557134 1  14              Rx   d 8 4C 63 EC 57 33 33 00 00
 88.557435 1  16              Rx   d 8 01 00 01 00 00 00 00 00
 88.558597 1  11              Rx   d 8 2C D7 28 00 02 00 31 00
 88.558855 1  18              Rx   d 8 00 00 00 00 00 00 00 00
 90.568768 1  15              Rx   d 8 4C 40 00 00 02 02 00 00
 90.569930 1  10              Rx   d 8 2F 40 29 00 01 00 32 00
 90.597255 1  14              Rx   d 8 48 63 30 58 33 33 00 00
 90.597513 1  16              Rx   d 8 01 00 01 00 00 00 00 00
 90.598718 1  11              Rx   d 8 2F D7 28 00 02 00 30 00
 90.598976 1  18              Rx   d 8 00 00 00 00 00 00 00 00
 92.608760 1  15              Rx   d 8 4C 40 00 00 02 02 00 00
 92.609965 1  10              Rx   d 8 31 40 29 00 01 00 32 00
 92.637290 1  14              Rx   d 8 40 63 30 58 33 33 00 00
 92.637548 1  16              Rx   d 8 01 00 01 00 00 00 00 00
 92.638710 1  11              Rx   d 8 30 D7 28 00 01 00 31 00
 92.638968 1  18              Rx   d 8 00 00 00 00 00 00 00 00
 94.648795 1  15              Rx   d 8 4C 40 00 00 02 02 00 00
 94.649956 1  10              Rx   d 8 32 40 29 00 01 00 32 00
 94.677325 1  14              Rx   d 8 40 63 30 58 33 33 00 00
 94.677583 1  16              Rx   d 8 01 00 01 00 00 00 00 00
 94.678702 1  11              Rx   d 8 33 D7 28 00 02 00 30 00
 94.679003 1  18              Rx   d 8 00 00 00 00 00 00 00 00
 96.688701 1  15              Rx   d 8 4C 40 00 00 02 02 00 00
 96.689862 1  10              Rx   d 8 33 40 29 00 01 00 32 00
 96.717188 1  14              Rx   d 8 3C 63 EC 57 33 33 00 00
 96.717446 1  16              Rx   d 8 01 00 01 00 00 00 00 00
 96.718608 1  11              Rx   d 8 34 D7 28 00 02 00 31 00
 96.718866 1  18              Rx   d 8 00 00 00 00 00 00 00 00
 98.728563 1  15              Rx   d 8 4C 40 00 00 02 02 00 00
 98.729682 1  10              Rx   d 8 34 40 29 00 01 00 32 00
 98.757051 1  14              Rx   d 8 3C 63 30 58 33 33 00 00
 98.757309 1  16              Rx   d 8 01 00 01 00 00 00 00 00
 98.758471 1  11              Rx   d 8 35 D7 28 00 02 00 31 00
 98.758729 1  18              Rx   d 8 00 00 00 00 00 00 00 00
 100.768383 1  15              Rx   d 8 4C 40 00 00 02 02 00 00
 100.769545 1  10              Rx   d 8 35 40 29 00 01 00 32 00
 100.796870 1  14              Rx   d 8 34 63 30 58 33 33 00 00
 100.797172 1  16              Rx   d 8 01 00 01 00 00 00 00 00
 100.798333 1  11              Rx   d 8 37 D7 28 00 02 00 31 00
 100.798592 1  18              Rx   d 8 00 00 00 00 00 00 00 00
 102.808332 1  15              Rx   d 8 4C 40 00 00 02 02 00 00
 102.809494 1  10              Rx   d 8 35 40 29 00 01 00 32 00
 102.836862 1  14              Rx   d 8 34 63 30 58 33 33 00 00
 102.837121 1  16              Rx   d 8 01 00 01 00 00 00 00 00
 102.838282 1  11              Rx   d 8 39 D7 28 00 02 00 31 00
 102.838541 1  18              Rx   d 8 00 00 00 00 00 00 00 00
 104.848195 1  15              Rx   d 8 4C 40 00 00 02 02 00 00
 104.849357 1  10              Rx   d 8 37 40 29 00 01 00 32 00
 104.876712 1  14              Rx   d 8 3C 63 30 58 33 33 00 00
 104.876970 1  16              Rx   d 8 01 00 01 00 00 00 00 00
 104.878175 1  11              Rx   d 8 3A D7 28 00 02 00 30 00
 104.878433 1  18              Rx   d 8 00 00 00 00 00 00 00 00
 106.888088 1  15              Rx   d 8 4C 40 00 00 02 02 00 00
 106.889207 1  10              Rx   d 8 38 40 29 00 01 00 32 00
 106.916575 1  14              Rx   d 8 34 63 30 58 33 33 00 00
 106.916833 1  16              Rx   d 8 01 00 01 00 00 00 00 00
 106.917995 1  11              Rx   d 8 3A D7 28 00 02 00 30 00
 106.918253 1  18              Rx   d 8 00 00 00 00 00 00 00 00
 108.927865 1  15              Rx   d 8 4C 40 00 00 02 02 00 00
 108.929027 1  10              Rx   d 8 39 40 29 00 01 00 32 00
 108.956352 1  14              Rx   d 8 30 63 30 58 33 33 00 00
 108.956610 1  16              Rx   d 8 01 00 01 00 00 00 00 00
 108.957815 1  11              Rx   d 8 3D D7 28 00 02 00 31 00
 108.958073 1  18              Rx   d 8 00 00 00 00 00 00 00 00
 110.967814 1  15              Rx   d 8 4C 40 00 00 02 02 00 00
 110.968975 1  10              Rx   d 8 3A 40 29 00 01 00 32 00
 110.996301 1  14              Rx   d 8 2C 63 70 58 33 33 00 00
 110.996602 1  16              Rx   d 8 01 00 01 00 00 00 00 00
 110.997764 1  11              Rx   d 8 3F D7 28 00 02 00 31 00
 110.998022 1  18              Rx   d 8 00 00 00 00 00 00 00 00
 113.007849 1  15              Rx   d 8 4C 40 00 00 02 02 00 00
 113.009010 1  10              Rx   d 8 3C 40 29 00 01 00 32 00
 113.036336 1  14              Rx   d 8 2C 63 B0 58 33 33 00 00
 113.036594 1  16              Rx   d 8 01 00 01 00 00 00 00 00
 113.037799 1  11              Rx   d 8 3E D7 28 00 02 00 30 00
 113.038057 1  18              Rx   d 8 00 00 00 00 00 00 00 00
 115.048013 1  15              Rx   d 8 4C 40 00 00 02 02 00 00
 115.049175 1  10              Rx   d 8 3D 40 29 00 01 00 32 00
 115.076500 1  14              Rx   d 8 2C 63 B0 58 33 33 00 00
 115.076758 1  16              Rx   d 8 01 00 01 00 00 00 00 00
 115.077920 1  11              Rx   d 8 42 D7 28 00 02 00 30 00
 115.078178 1  18              Rx   d 8 00 00 00 00 00 00 00 00
 117.088134 1  15              Rx   d 8 4C 40 00 00 02 02 00 00
 117.089296 1  10              Rx   d 8 3F 40 29 00 01 00 32 00
 117.116621 1  14              Rx   d 8 24 63 B0 58 33 33 00 00
 117.116879 1  16              Rx   d 8 01 00 01 00 00 00 00 00
 117.118041 1  11              Rx   d 8 45 D7 28 00 01 00 32 00
 117.118299 1  18              Rx   d 8 00 00 00 00 00 00 00 00
 119.128255 1  15              Rx   d 8 4C 40 00 00 02 02 00 00
 119.129417 1  10              Rx   d 8 40 40 29 00 01 00 32 00
 119.156742 1  14              Rx   d 8 24 63 30 58 33 33 00 00
 119.157000 1  16              Rx   d 8 01 00 01 00 00 00 00 00
 119.158162 1  11              Rx   d 8 47 D7 28 00 02 00 31 00
 119.158420 1  18              Rx   d 8 00 00 00 00 00 00 00 00
 121.168376 1  15              Rx   d 8 4C 40 00 00 02 02 00 00
 121.169538 1  10              Rx   d 8 41 40 29 00 01 00 32 00
 121.196863 1  14              Rx   d 8 20 63 30 58 33 33 00 00
 121.197121 1  16              Rx   d 8 01 00 01 00 00 00 00 00
 121.198283 1  11              Rx   d 8 49 D7 28 00 02 00 30 00
 121.198584 1  18              Rx   d 8 00 00 00 00 00 00 00 00
 123.208454 1  15              Rx   d 8 4C 40 00 00 02 02 00 00
 123.209616 1  10              Rx   d 8 43 40 29 00 01 00 32 00
 123.236941 1  14              Rx   d 8 24 63 30 58 33 33 00 00
 123.237199 1  16              Rx   d 8 01 00 01 00 00 00 00 00
 123.238361 1  11              Rx   d 8 47 D7 28 00 02 00 32 00
 123.238662 1  18              Rx   d 8 00 00 00 00 00 00 00 00
 125.248532 1  15              Rx   d 8 4C 40 00 00 02 02 00 00
 125.249694 1  10              Rx   d 8 44 40 29 00 01 00 32 00
 125.277019 1  14              Rx   d 8 20 63 EC 57 33 33 00 00
 125.277320 1  16              Rx   d 8 01 00 01 00 00 00 00 00
 125.278482 1  11              Rx   d 8 48 D7 28 00 02 00 32 00
 125.278740 1  18              Rx   d 8 00 00 00 00 00 00 00 00
 127.288739 1  15              Rx   d 8 4C 40 00 00 02 02 00 00
 127.289901 1  10              Rx   d 8 45 40 29 00 01 00 32 00
 127.317226 1  14              Rx   d 8 20 63 30 58 33 33 00 00
 127.317484 1  16              Rx   d 8 01 00 01 00 00 00 00 00
 127.318646 1  11              Rx   d 8 4B D7 28 00 03 00 31 00
 127.318904 1  18              Rx   d 8 00 00 00 00 00 00 00 00
 129.329075 1  15              Rx   d 8 4C 40 00 00 02 02 00 00
 129.330237 1  10              Rx   d 8 46 40 29 00 01 00 32 00
 129.357562 1  14              Rx   d 8 14 63 30 58 33 33 00 00
 129.357864 1  16              Rx   d 8 01 00 01 00 00 00 00 00
 129.358982 1  11              Rx   d 8 53 D7 28 00 02 00 2D 00
 129.359284 1  18              Rx   d 8 00 00 00 00 00 00 00 00
 131.369454 1  15              Rx   d 8 4C 40 00 00 02 02 00 00
 131.370616 1  10              Rx   d 8 47 40 29 00 01 00 32 00
 131.397942 1  14              Rx   d 8 20 63 7C 58 33 33 00 00
 131.398243 1  16              Rx   d 8 01 00 01 00 00 00 00 00
 131.399362 1  11              Rx   d 8 51 D7 28 00 02 00 31 00
 131.399663 1  18              Rx   d 8 00 00 00 00 00 00 00 00
 133.409791 1  15              Rx   d 8 4C 40 00 00 02 02 00 00
 133.410953 1  10              Rx   d 8 47 40 29 00 01 00 32 00
 133.438278 1  14              Rx   d 8 18 63 30 58 33 33 00 00
 133.438536 1  16              Rx   d 8 01 00 01 00 00 00 00 00
 133.439698 1  11              Rx   d 8 57 D7 28 00 01 00 31 00
 133.439999 1  18              Rx   d 8 00 00 00 00 00 00 00 00
 135.450170 1  15              Rx   d 8 4C 40 00 00 02 02 00 00
 135.451332 1  10              Rx   d 8 49 40 29 00 01 00 32 00
 135.478657 1  14              Rx   d 8 18 63 30 58 33 33 00 00
 135.478958 1  16              Rx   d 8 01 00 01 00 00 00 00 00
 135.480077 1  11              Rx   d 8 57 D7 28 00 02 00 31 00
 135.480378 1  18              Rx   d 8 00 00 00 00 00 00 00 00
 137.490635 1  15              Rx   d 8 4C 40 00 00 02 02 00 00
 137.491797 1  10              Rx   d 8 4A 40 29 00 01 00 32 00
 137.519165 1  14              Rx   d 8 14 63 70 58 33 33 00 00
 137.519424 1  16              Rx   d 8 01 00 01 00 00 00 00 00
 137.520586 1  11              Rx   d 8 58 D7 28 00 01 00 31 00
 137.520844 1  18              Rx   d 8 00 00 00 00 00 00 00 00
 139.531014 1  15              Rx   d 8 4C 40 00 00 02 02 00 00
 139.532176 1  10              Rx   d 8 4A 40 29 00 01 00 32 00
 139.559502 1  14              Rx   d 8 18 63 BC 58 33 33 00 00
 139.559760 1  16              Rx   d 8 01 00 01 00 00 00 00 00
 139.560922 1  11              Rx   d 8 5B D7 28 00 02 00 31 00
 139.561180 1  18              Rx   d 8 00 00 00 00 00 00 00 00
 141.571394 1  15              Rx   d 8 4C 40 00 00 02 02 00 00
 141.572556 1  10              Rx   d 8 4B 40 29 00 01 00 32 00
 141.599924 1  14              Rx   d 8 14 63 B0 58 33 33 00 00
 141.600182 1  16              Rx   d 8 01 00 01 00 00 00 00 00
 141.601344 1  11              Rx   d 8 5A D7 28 00 02 00 30 00
 141.601602 1  18              Rx   d 8 00 00 00 00 00 00 00 00
 143.611730 1  15              Rx   d 8 4C 40 00 00 02 02 00 00
 143.612935 1  10              Rx   d 8 4C 40 29 00 01 00 32 00
 143.640260 1  14              Rx   d 8 14 63 FC 58 33 33 00 00
 143.640518 1  16              Rx   d 8 01 00 01 00 00 00 00 00
 143.641680 1  11              Rx   d 8 5C D7 28 00 02 00 30 00
 143.641981 1  18              Rx   d 8 00 00 00 00 00 00 00 00
 145.652066 1  15              Rx   d 8 4C 40 00 00 02 02 00 00
 145.653228 1  10              Rx   d 8 4D 40 29 00 01 00 32 00
 145.680596 1  14              Rx   d 8 14 63 FC 58 33 33 00 00
 145.680855 1  16              Rx   d 8 01 00 01 00 00 00 00 00
 145.682016 1  11              Rx   d 8 5D D7 28 00 01 00 31 00
 145.682275 1  18              Rx   d 8 00 00 00 00 00 00 00 00
 147.692359 1  15              Rx   d 8 4C 40 00 00 02 02 00 00
 147.693521 1  10              Rx   d 8 4E 40 29 00 01 00 32 00
 147.720890 1  14              Rx   d 8 0C 63 FC 58 33 33 00 00
 147.721148 1  16              Rx   d 8 01 00 01 00 00 00 00 00
 147.722310 1  11              Rx   d 8 60 D7 28 00 02 00 31 00
 147.722568 1  18              Rx   d 8 00 00 00 00 00 00 00 00
 179.550339 1  10              Rx   d 8 49 54 00 00 01 00 00 00
 181.522082 1  15              Rx   d 8 4C 40 00 00 02 02 00 00
 181.523201 1  10              Rx   d 8 5C 40 29 00 01 00 32 00
 181.551301 1  14              Rx   d 8 D0 62 80 59 33 33 00 00
 181.551559 1  16              Rx   d 8 01 00 01 00 00 00 00 00
 181.552721 1  11              Rx   d 8 B0 D7 28 00 7C 00 32 00
 181.553022 1  18              Rx   d 8 00 00 00 00 00 00 00 00
 183.562204 1  15              Rx   d 8 4C 40 00 00 02 02 00 00
 183.563408 1  10              Rx   d 8 5D 40 29 00 01 00 32 00
 183.591465 1  14              Rx   d 8 D0 62 80 59 33 33 00 00
 183.591723 1  16              Rx   d 8 01 00 01 00 00 00 00 00
 183.592885 1  11              Rx   d 8 AC D7 28 00 75 00 31 00
 183.593187 1  18              Rx   d 8 00 00 00 00 00 00 00 00
 185.602368 1  15              Rx   d 8 4C 40 00 00 02 02 00 00
 185.603529 1  10              Rx   d 8 5D 40 29 00 01 00 32 00
 185.631586 1  14              Rx   d 8 D0 62 C0 59 33 33 00 00
 185.631845 1  16              Rx   d 8 01 00 01 00 00 00 00 00
 185.633049 1  11              Rx   d 8 C6 D7 28 00 94 00 31 00
 185.633308 1  18              Rx   d 8 00 00 00 00 00 00 00 00
 187.642489 1  15              Rx   d 8 4C 40 00 00 02 02 00 00
 187.643694 1  10              Rx   d 8 5E 40 29 00 01 00 32 00
 187.671750 1  14              Rx   d 8 D0 62 C0 59 33 33 00 00
 187.672009 1  16              Rx   d 8 01 00 01 00 00 00 00 00
 187.673171 1  11              Rx   d 8 BD D7 28 00 84 00 31 00
 187.673429 1  18              Rx   d 8 00 00 00 00 00 00 00 00
 189.682825 1  15              Rx   d 8 4C 40 00 00 02 02 00 00
 189.683987 1  10              Rx   d 8 5F 40 29 00 01 00 32 00
 189.712044 1  14              Rx   d 8 D0 62 C0 59 33 33 00 00
 189.712302 1  16              Rx   d 8 01 00 01 00 00 00 00 00
 189.713507 1  11              Rx   d 8 CB D7 28 00 90 00 31 00
 189.713765 1  18              Rx   d 8 00 00 00 00 00 00 00 00
 191.723333 1  15              Rx   d 8 4C 40 00 00 02 02 00 00
 191.724495 1  10              Rx   d 8 61 40 29 00 01 00 32 00
 191.752552 1  14              Rx   d 8 D8 62 80 59 33 33 00 00
 191.752853 1  16              Rx   d 8 01 00 01 00 00 00 00 00
 191.754015 1  11              Rx   d 8 D3 D7 28 00 96 00 31 00
 191.754273 1  18              Rx   d 8 00 00 00 00 00 00 00 00
 193.763756 1  15              Rx   d 8 4C 40 00 00 02 02 00 00
 193.764917 1  10              Rx   d 8 61 40 29 00 01 00 32 00
 193.793017 1  14              Rx   d 8 D8 62 FC 58 33 33 00 00
 193.793275 1  16              Rx   d 8 01 00 01 00 00 00 00 00
 193.794437 1  11              Rx   d 8 AE D7 28 00 75 00 32 00
 193.794739 1  18              Rx   d 8 00 00 00 00 00 00 00 00
 195.804307 1  15              Rx   d 8 4C 40 00 00 02 02 00 00
 195.805469 1  10              Rx   d 8 62 40 29 00 00 00 32 00
 195.833526 1  14              Rx   d 8 D0 62 BC 58 33 33 00 00
 195.833784 1  16              Rx   d 8 01 00 01 00 00 00 00 00
 195.834989 1  11              Rx   d 8 93 D7 28 00 47 00 2F 00
 195.835247 1  18              Rx   d 8 00 00 00 00 00 00 00 00
 197.844815 1  15              Rx   d 8 4C 40 00 00 02 02 00 00
 197.845977 1  10              Rx   d 8 63 40 29 00 01 00 32 00
 197.874034 1  14              Rx   d 8 D8 62 7C 58 33 33 00 00
 197.874335 1  16              Rx   d 8 01 00 01 00 00 00 00 00
 197.875497 1  11              Rx   d 8 B9 D7 28 00 7D 00 31 00
 197.875755 1  18              Rx   d 8 00 00 00 00 00 00 00 00
 199.885238 1  15              Rx   d 8 4C 40 00 00 02 02 00 00
 199.886442 1  10              Rx   d 8 63 40 29 00 01 00 32 00
 199.914499 1  14              Rx   d 8 D8 62 BC 58 33 33 00 00
 199.914757 1  16              Rx   d 8 01 00 01 00 00 00 00 00
 199.915919 1  11              Rx   d 8 8D D7 28 00 33 00 2E 00
 199.916178 1  18              Rx   d 8 00 00 00 00 00 00 00 00
 201.925703 1  15              Rx   d 8 4C 40 00 00 02 02 00 00
 201.926865 1  10              Rx   d 8 64 40 29 00 01 00 32 00
 201.954922 1  14              Rx   d 8 D0 62 FC 58 33 33 00 00
 201.955180 1  16              Rx   d 8 01 00 01 00 00 00 00 00
 201.956385 1  11              Rx   d 8 E5 D7 28 00 BB 00 31 00
 201.956643 1  18              Rx   d 8 00 00 00 00 00 00 00 00
 203.966039 1  15              Rx   d 8 4C 40 00 00 02 02 00 00
 203.967201 1  10              Rx   d 8 64 40 29 00 01 00 32 00
 203.995301 1  14              Rx   d 8 D8 62 40 59 33 33 00 00
 203.995559 1  16              Rx   d 8 01 00 01 00 00 00 00 00
 203.996721 1  11              Rx   d 8 CE D7 28 00 8F 00 32 00
 203.996979 1  18              Rx   d 8 00 00 00 00 00 00 00 00
 206.006547 1  15              Rx   d 8 4C 40 00 00 02 02 00 00
 206.007709 1  10              Rx   d 8 66 40 29 00 01 00 32 00
 206.035809 1  14              Rx   d 8 D0 62 40 59 33 33 00 00
 206.036067 1  16              Rx   d 8 01 00 01 00 00 00 00 00
 206.037229 1  11              Rx   d 8 8F D7 28 00 33 00 2E 00
 206.037487 1  18              Rx   d 8 00 00 00 00 00 00 00 00
 208.047056 1  15              Rx   d 8 4C 40 00 00 02 02 00 00
 208.048218 1  10              Rx   d 8 67 40 29 00 01 00 32 00
 208.076318 1  14              Rx   d 8 D0 62 80 59 33 33 00 00
 208.076576 1  16              Rx   d 8 01 00 01 00 00 00 00 00
 208.077781 1  11              Rx   d 8 C2 D7 28 00 83 00 32 00
 208.078039 1  18              Rx   d 8 00 00 00 00 00 00 00 00
 210.087564 1  15              Rx   d 8 4C 40 00 00 02 02 00 00
 210.088726 1  10              Rx   d 8 68 40 29 00 01 00 32 00
 210.116826 1  14              Rx   d 8 D0 62 C0 59 33 33 00 00
 210.117084 1  16              Rx   d 8 01 00 01 00 00 00 00 00
 210.118246 1  11              Rx   d 8 C3 D7 28 00 84 00 31 00
 210.118547 1  18              Rx   d 8 00 00 00 00 00 00 00 00
 212.128029 1  15              Rx   d 8 4C 40 00 00 02 02 00 00
 212.129191 1  10              Rx   d 8 69 40 29 00 01 00 32 00
 212.157248 1  14              Rx   d 8 D8 62 C0 59 33 33 00 00
 212.157549 1  16              Rx   d 8 01 00 01 00 00 00 00 00
 212.158711 1  11              Rx   d 8 C5 D7 28 00 83 00 31 00
 212.158969 1  18              Rx   d 8 00 00 00 00 00 00 00 00
 214.168366 1  15              Rx   d 8 4C 40 00 00 02 02 00 00
 214.169527 1  10              Rx   d 8 69 40 29 00 01 00 32 00
 214.197627 1  14              Rx   d 8 D0 62 C0 59 33 33 00 00
 214.197886 1  16              Rx   d 8 01 00 01 00 00 00 00 00
 214.199047 1  11              Rx   d 8 A6 D7 28 00 63 00 30 00
 214.199306 1  18              Rx   d 8 00 00 00 00 00 00 00 00
 216.208788 1  15              Rx   d 8 4C 40 00 00 02 02 00 00
 216.209950 1  10              Rx   d 8 6A 40 29 00 01 00 32 00
 216.238050 1  14              Rx   d 8 D8 62 40 59 33 33 00 00
 216.238308 1  16              Rx   d 8 01 00 01 00 00 00 00 00
 216.239470 1  11              Rx   d 8 BD D7 28 00 7C 00 32 00
 216.239771 1  18              Rx   d 8 00 00 00 00 00 00 00 00
 219.049291 1  15              Rx   d 8 4C 40 00 00 02 02 00 00
 219.050496 1  10              Rx   d 8 6A 40 29 00 01 00 32 00
 219.077778 1  14              Rx   d 8 D0 62 BC 58 33 33 00 00
 219.078036 1  16              Rx   d 8 01 00 01 00 00 00 00 00
 219.079241 1  11              Rx   d 8 B0 D7 28 00 75 00 32 00
 219.079500 1  18              Rx   d 8 00 00 00 00 00 00 00 00
 221.089712 1  15              Rx   d 8 4C 40 00 00 02 02 00 00
 221.090874 1  10              Rx   d 8 6B 40 29 00 01 00 32 00
 221.118198 1  14              Rx   d 8 D8 62 7C 58 33 33 00 00
 221.118456 1  16              Rx   d 8 01 00 01 00 00 00 00 00
 221.119618 1  11              Rx   d 8 82 D7 28 00 02 00 31 00
 221.119919 1  18              Rx   d 8 00 00 00 00 00 00 00 00
 223.130079 1  15              Rx   d 8 4C 40 00 00 02 02 00 00
 223.131240 1  10              Rx   d 8 6C 40 29 00 01 00 32 00
 223.158521 1  14              Rx   d 8 CC 62 7C 58 33 33 00 00
 223.158779 1  16              Rx   d 8 01 00 01 00 00 00 00 00
 223.159984 1  11              Rx   d 8 82 D7 28 00 02 00 31 00
 223.160242 1  18              Rx   d 8 00 00 00 00 00 00 00 00
 225.170445 1  15              Rx   d 8 4C 40 00 00 02 02 00 00
 225.171606 1  10              Rx   d 8 6C 40 29 00 01 00 32 00
 225.198930 1  14              Rx   d 8 D8 62 BC 58 33 33 00 00
 225.199188 1  16              Rx   d 8 01 00 01 00 00 00 00 00
 225.200350 1  11              Rx   d 8 83 D7 28 00 02 00 31 00
 225.200608 1  18              Rx   d 8 00 00 00 00 00 00 00 00
 227.210768 1  15              Rx   d 8 4C 40 00 00 02 02 00 00
 227.211930 1  10              Rx   d 8 6D 40 29 00 01 00 32 00
 227.239253 1  14              Rx   d 8 D8 62 FC 58 33 33 00 00
 227.239511 1  16              Rx   d 8 01 00 01 00 00 00 00 00
 227.240673 1  11              Rx   d 8 84 D7 28 00 02 00 2F 00
 227.240931 1  18              Rx   d 8 00 00 00 00 00 00 00 00
 229.251134 1  15              Rx   d 8 4C 40 00 00 02 02 00 00
 229.252296 1  10              Rx   d 8 6E 40 29 00 01 00 32 00
 229.279619 1  14              Rx   d 8 D0 62 40 59 33 33 00 00
 229.279877 1  16              Rx   d 8 01 00 01 00 00 00 00 00
 229.281039 1  11              Rx   d 8 84 D7 28 00 02 00 30 00
 229.281297 1  18              Rx   d 8 00 00 00 00 00 00 00 00
 231.291457 1  15              Rx   d 8 4C 40 00 00 02 02 00 00
 231.292619 1  10              Rx   d 8 6E 40 29 00 01 00 32 00
 231.319899 1  14              Rx   d 8 D8 62 80 59 33 33 00 00
 231.320200 1  16              Rx   d 8 01 00 01 00 00 00 00 00
 231.321362 1  11              Rx   d 8 85 D7 28 00 02 00 30 00
 231.321620 1  18              Rx   d 8 00 00 00 00 00 00 00 00
 233.331823 1  15              Rx   d 8 4C 40 00 00 02 02 00 00
 233.332985 1  10              Rx   d 8 6F 40 29 00 01 00 32 00
 233.360308 1  14              Rx   d 8 D8 62 80 59 33 33 00 00
 233.360566 1  16              Rx   d 8 01 00 01 00 00 00 00 00
 233.361728 1  11              Rx   d 8 85 D7 28 00 02 00 31 00
 233.361986 1  18              Rx   d 8 00 00 00 00 00 00 00 00
 235.372189 1  15              Rx   d 8 4C 40 00 00 02 02 00 00
 235.373351 1  10              Rx   d 8 70 40 29 00 01 00 32 00
 235.400674 1  14              Rx   d 8 D0 62 40 59 33 33 00 00
 235.400932 1  16              Rx   d 8 01 00 01 00 00 00 00 00
 235.402094 1  11              Rx   d 8 86 D7 28 00 02 00 31 00
 235.402352 1  18              Rx   d 8 00 00 00 00 00 00 00 00
 237.412469 1  15              Rx   d 8 4C 40 00 00 02 02 00 00
 237.413631 1  10              Rx   d 8 71 40 29 00 01 00 32 00
 237.440911 1  14              Rx   d 8 D0 62 FC 58 33 33 00 00
 237.441212 1  16              Rx   d 8 01 00 01 00 00 00 00 00
 237.442374 1  11              Rx   d 8 87 D7 28 00 02 00 31 00
 237.442632 1  18              Rx   d 8 00 00 00 00 00 00 00 00
 239.452878 1  15              Rx   d 8 4C 40 00 00 02 02 00 00
 239.454040 1  10              Rx   d 8 72 40 29 00 01 00 32 00
 239.481320 1  14              Rx   d 8 CC 62 FC 58 33 33 00 00
 239.481622 1  16              Rx   d 8 01 00 01 00 00 00 00 00
 239.482740 1  11              Rx   d 8 87 D7 28 00 03 00 31 00
 239.483042 1  18              Rx   d 8 00 00 00 00 00 00 00 00
 241.493244 1  15              Rx   d 8 4C 40 00 00 02 02 00 00
 241.494406 1  10              Rx   d 8 73 40 29 00 01 00 32 00
 241.521687 1  14              Rx   d 8 D0 62 FC 58 33 33 00 00
 241.521988 1  16              Rx   d 8 01 00 01 00 00 00 00 00
 241.523149 1  11              Rx   d 8 86 D7 28 00 02 00 31 00
 241.523408 1  18              Rx   d 8 00 00 00 00 00 00 00 00
 243.533653 1  15              Rx   d 8 4C 40 00 00 02 02 00 00
 243.534815 1  10              Rx   d 8 73 40 29 00 01 00 32 00
 243.562139 1  14              Rx   d 8 CC 62 FC 58 33 33 00 00
 243.562397 1  16              Rx   d 8 01 00 01 00 00 00 00 00
 243.563559 1  11              Rx   d 8 88 D7 28 00 02 00 31 00
 243.563817 1  18              Rx   d 8 00 00 00 00 00 00 00 00
 245.574106 1  15              Rx   d 8 4C 40 00 00 02 02 00 00
 245.575267 1  10              Rx   d 8 74 40 29 00 01 00 32 00
 245.602591 1  14              Rx   d 8 CC 62 40 59 33 33 00 00
 245.602849 1  16              Rx   d 8 01 00 01 00 00 00 00 00
 245.604011 1  11              Rx   d 8 89 D7 28 00 02 00 32 00
 245.604269 1  18              Rx   d 8 00 00 00 00 00 00 00 00
 247.614515 1  15              Rx   d 8 4C 40 00 00 02 02 00 00
 247.615677 1  10              Rx   d 8 74 40 29 00 01 00 32 00
 247.642957 1  14              Rx   d 8 C8 62 FC 58 33 33 00 00
 247.643258 1  16              Rx   d 8 01 00 01 00 00 00 00 00
 247.644377 1  11              Rx   d 8 89 D7 28 00 03 00 2D 00
 247.644635 1  18              Rx   d 8 00 00 00 00 00 00 00 00
 249.654752 1  15              Rx   d 8 4C 40 00 00 02 02 00 00
 249.655957 1  10              Rx   d 8 75 40 29 00 01 00 32 00
 249.683237 1  14              Rx   d 8 C8 62 7C 58 33 33 00 00
 249.683495 1  16              Rx   d 8 01 00 01 00 00 00 00 00
 249.684657 1  11              Rx   d 8 8A D7 28 00 02 00 30 00
 249.684915 1  18              Rx   d 8 00 00 00 00 00 00 00 00
 251.694989 1  15              Rx   d 8 4C 40 00 00 02 02 00 00
 251.696151 1  10              Rx   d 8 75 40 29 00 01 00 32 00
 251.723431 1  14              Rx   d 8 C8 62 7C 58 33 33 00 00
 251.723732 1  16              Rx   d 8 01 00 01 00 00 00 00 00
 251.724894 1  11              Rx   d 8 8B D7 28 00 02 00 31 00
 251.725152 1  18              Rx   d 8 00 00 00 00 00 00 00 00
 253.735269 1  15              Rx   d 8 4C 40 00 00 02 02 00 00
 253.736474 1  10              Rx   d 8 76 40 29 00 01 00 32 00
 253.763754 1  14              Rx   d 8 CC 62 BC 58 33 33 00 00
 253.764012 1  16              Rx   d 8 01 00 01 00 00 00 00 00
 253.765174 1  11              Rx   d 8 8D D7 28 00 02 00 31 00
 253.765432 1  18              Rx   d 8 00 00 00 00 00 00 00 00
 255.775678 1  15              Rx   d 8 4C 40 00 00 02 02 00 00
 255.776840 1  10              Rx   d 8 77 40 29 00 01 00 32 00
 255.804163 1  14              Rx   d 8 C8 62 FC 58 33 33 00 00
 255.804421 1  16              Rx   d 8 01 00 01 00 00 00 00 00
 255.805583 1  11              Rx   d 8 8D D7 28 00 01 00 31 00
 255.805841 1  18              Rx   d 8 00 00 00 00 00 00 00 00
 257.815915 1  15              Rx   d 8 4C 40 00 00 02 02 00 00
 257.817077 1  10              Rx   d 8 77 40 29 00 01 00 32 00
 257.844357 1  14              Rx   d 8 C8 62 40 59 33 33 00 00
 257.844615 1  16              Rx   d 8 01 00 01 00 00 00 00 00
 257.845777 1  11              Rx   d 8 8E D7 28 00 02 00 30 00
 257.846078 1  18              Rx   d 8 00 00 00 00 00 00 00 00
 259.856539 1  15              Rx   d 8 4C 40 00 00 02 02 00 00
 259.857701 1  10              Rx   d 8 78 40 29 00 01 00 32 00
 259.885024 1  14              Rx   d 8 CC 62 40 59 33 33 00 00
 259.885283 1  16              Rx   d 8 01 00 01 00 00 00 00 00
 259.886444 1  11              Rx   d 8 8E D7 28 00 01 00 31 00
 259.886703 1  18              Rx   d 8 00 00 00 00 00 00 00 00
 276.235836 1  10              Rx   d 8 49 54 00 00 01 00 00 00
 278.207786 1  15              Rx   d 8 4C 40 00 00 02 02 00 00
 278.208948 1  10              Rx   d 8 7E 40 29 00 01 00 32 00
 278.237003 1  14              Rx   d 8 AC 62 08 59 33 33 00 00
 278.237261 1  16              Rx   d 8 01 00 01 00 00 00 00 00
 278.238466 1  11              Rx   d 8 C7 D7 28 00 6C 00 31 00
 278.238724 1  18              Rx   d 8 00 00 00 00 00 00 00 00
 280.248109 1  15              Rx   d 8 4C 40 00 00 02 02 00 00
 280.249271 1  10              Rx   d 8 7E 40 29 00 01 00 32 00
 280.277326 1  14              Rx   d 8 B4 62 08 59 33 33 00 00
 280.277584 1  16              Rx   d 8 01 00 01 00 00 00 00 00
 280.278789 1  11              Rx   d 8 E8 D7 28 00 8B 00 30 00
 280.279047 1  18              Rx   d 8 00 00 00 00 00 00 00 00
 282.288432 1  15              Rx   d 8 4C 40 00 00 02 02 00 00
 282.289594 1  10              Rx   d 8 7E 40 29 00 01 00 31 00
 282.317692 1  14              Rx   d 8 AC 62 C8 58 33 33 00 00
 282.317950 1  16              Rx   d 8 01 00 01 00 00 00 00 00
 282.319112 1  11              Rx   d 8 F6 D7 28 00 95 00 31 00
 282.319370 1  18              Rx   d 8 00 00 00 00 00 00 00 00
 284.328737 1  15              Rx   d 8 4C 40 00 00 02 02 00 00
 284.329899 1  10              Rx   d 8 7F 40 29 00 01 00 32 00
 284.357949 1  14              Rx   d 8 B4 62 C8 58 33 33 00 00
 284.358207 1  16              Rx   d 8 01 00 01 00 00 00 00 00
 284.359412 1  11              Rx   d 8 D0 D7 28 00 76 00 31 00
 284.359670 1  18              Rx   d 8 00 00 00 00 00 00 00 00
 286.368599 1  15              Rx   d 8 4C 40 00 00 02 02 00 00
 286.369804 1  10              Rx   d 8 80 40 29 00 01 00 32 00
 286.397854 1  14              Rx   d 8 B4 62 08 59 33 33 00 00
 286.398112 1  16              Rx   d 8 01 00 01 00 00 00 00 00
 286.399274 1  11              Rx   d 8 BB D7 28 00 55 00 31 00
 286.399532 1  18              Rx   d 8 00 00 00 00 00 00 00 00
 288.408590 1  15              Rx   d 8 4C 40 00 00 02 02 00 00
 288.409752 1  10              Rx   d 8 80 40 29 00 01 00 32 00
 288.437832 1  14              Rx   d 8 B4 62 48 59 33 33 00 00
 288.438133 1  16              Rx   d 8 01 00 01 00 00 00 00 00
 288.439295 1  11              Rx   d 8 0A D8 28 00 A1 00 32 00
 288.439553 1  18              Rx   d 8 00 00 00 00 00 00 00 00
 290.448698 1  15              Rx   d 8 4C 40 00 00 02 02 00 00
 290.449859 1  10              Rx   d 8 80 40 29 00 01 00 32 00
 290.477910 1  14              Rx   d 8 B4 62 48 59 33 33 00 00
 290.478168 1  16              Rx   d 8 01 00 01 00 00 00 00 00
 290.479372 1  11              Rx   d 8 EA D7 28 00 8B 00 31 00
 290.479630 1  18              Rx   d 8 00 00 00 00 00 00 00 00
 292.488861 1  15              Rx   d 8 4C 40 00 00 02 02 00 00
 292.490022 1  10              Rx   d 8 80 40 29 00 01 00 32 00
 292.518073 1  14              Rx   d 8 B8 62 48 59 33 33 00 00
 292.518331 1  16              Rx   d 8 01 00 01 00 00 00 00 00
 292.519493 1  11              Rx   d 8 D5 D7 28 00 73 00 32 00
 292.519794 1  18              Rx   d 8 00 00 00 00 00 00 00 00
 294.528981 1  15              Rx   d 8 4C 40 00 00 02 02 00 00
 294.530143 1  10              Rx   d 8 82 40 29 00 01 00 32 00
 294.558193 1  14              Rx   d 8 BC 62 FC 58 33 33 00 00
 294.558451 1  16              Rx   d 8 01 00 01 00 00 00 00 00
 294.559656 1  11              Rx   d 8 F1 D7 28 00 90 00 31 00
 294.559914 1  18              Rx   d 8 00 00 00 00 00 00 00 00
 296.569101 1  15              Rx   d 8 4C 40 00 00 02 02 00 00
 296.570306 1  10              Rx   d 8 82 40 29 00 01 00 32 00
 296.598356 1  14              Rx   d 8 B8 62 BC 58 33 33 00 00
 296.598614 1  16              Rx   d 8 01 00 01 00 00 00 00 00
 296.599819 1  11              Rx   d 8 2A D8 28 00 D4 00 32 00
 296.600077 1  18              Rx   d 8 00 00 00 00 00 00 00 00
 298.609351 1  15              Rx   d 8 4C 40 00 00 02 02 00 00
 298.610512 1  10              Rx   d 8 82 40 29 00 02 00 32 00
 298.638606 1  14              Rx   d 8 B8 62 BC 58 33 33 00 00
 298.638864 1  16              Rx   d 8 01 00 01 00 00 00 00 00
 298.640025 1  11              Rx   d 8 FA D7 28 00 95 00 31 00
 298.640283 1  18              Rx   d 8 00 00 00 00 00 00 00 00
 300.649471 1  15              Rx   d 8 4C 40 00 00 02 02 00 00
 300.650632 1  10              Rx   d 8 83 40 29 00 01 00 32 00
 300.678683 1  14              Rx   d 8 B8 62 7C 58 33 33 00 00
 300.678941 1  16              Rx   d 8 01 00 01 00 00 00 00 00
 300.680145 1  11              Rx   d 8 FF D7 28 00 99 00 32 00
 300.680404 1  18              Rx   d 8 00 00 00 00 00 00 00 00
 302.689720 1  15              Rx   d 8 4C 40 00 00 02 02 00 00
 302.690882 1  10              Rx   d 8 84 40 29 00 01 00 32 00
 302.718932 1  14              Rx   d 8 B8 62 7C 58 33 33 00 00
 302.719233 1  16              Rx   d 8 01 00 01 00 00 00 00 00
 302.720395 1  11              Rx   d 8 F8 D7 28 00 94 00 32 00
 302.720653 1  18              Rx   d 8 00 00 00 00 00 00 00 00
 304.729883 1  15              Rx   d 8 4C 40 00 00 02 02 00 00
 304.731045 1  10              Rx   d 8 84 40 29 00 01 00 32 00
 304.759095 1  14              Rx   d 8 BC 62 7C 58 33 33 00 00
 304.759353 1  16              Rx   d 8 01 00 01 00 00 00 00 00
 304.760515 1  11              Rx   d 8 AA D7 28 00 02 00 2E 00
 304.760773 1  18              Rx   d 8 00 00 00 00 00 00 00 00
 367.612664 1  15              Rx   d 8 4C 40 00 00 02 02 00 00
 367.613869 1  10              Rx   d 8 87 40 29 00 05 00 32 00
 367.641747 1  14              Rx   d 8 8C 62 FC 58 32 33 00 00
 367.642048 1  16              Rx   d 8 01 00 01 00 00 00 00 00
 367.643210 1  11              Rx   d 8 E5 D7 28 00 83 00 31 00
 367.643468 1  18              Rx   d 8 00 00 00 00 00 00 00 00
 369.652655 1  15              Rx   d 8 4C 40 00 00 02 02 00 00
 369.653817 1  10              Rx   d 8 91 40 29 00 01 00 32 00
 369.681738 1  14              Rx   d 8 90 62 48 59 33 33 00 00
 369.681996 1  16              Rx   d 8 01 00 01 00 00 00 00 00
 369.683158 1  11              Rx   d 8 AE D7 28 00 02 00 31 00
 369.683459 1  18              Rx   d 8 00 00 00 00 00 00 00 00
 371.692561 1  15              Rx   d 8 4C 40 00 00 02 02 00 00
 371.693722 1  10              Rx   d 8 92 40 29 00 01 00 32 00
 371.721643 1  14              Rx   d 8 8C 62 48 59 33 33 00 00
 371.721945 1  16              Rx   d 8 01 00 01 00 00 00 00 00
 371.723063 1  11              Rx   d 8 B6 D7 28 00 03 00 30 00
 371.723364 1  18              Rx   d 8 00 00 00 00 00 00 00 00
 373.732380 1  15              Rx   d 8 4C 40 00 00 02 02 00 00
 373.733541 1  10              Rx   d 8 92 40 29 00 01 00 32 00
 373.761462 1  14              Rx   d 8 94 62 48 59 33 33 00 00
 373.761721 1  16              Rx   d 8 01 00 01 00 00 00 00 00
 373.762925 1  11              Rx   d 8 BA D7 28 00 03 00 31 00
 373.763183 1  18              Rx   d 8 00 00 00 00 00 00 00 00
 375.772285 1  15              Rx   d 8 4C 40 00 00 02 02 00 00
 375.773446 1  10              Rx   d 8 92 40 29 00 01 00 32 00
 375.801368 1  14              Rx   d 8 90 62 8C 59 33 33 00 00
 375.801626 1  16              Rx   d 8 01 00 01 00 00 00 00 00
 375.802787 1  11              Rx   d 8 BE D7 28 00 02 00 31 00
 375.803045 1  18              Rx   d 8 00 00 00 00 00 00 00 00
 377.812190 1  15              Rx   d 8 4C 40 00 00 02 02 00 00
 377.813351 1  10              Rx   d 8 92 40 29 00 01 00 32 00
 377.841273 1  14              Rx   d 8 94 62 CC 59 33 33 00 00
 377.841531 1  16              Rx   d 8 01 00 01 00 00 00 00 00
 377.842692 1  11              Rx   d 8 BE D7 28 00 02 00 30 00
 377.842951 1  18              Rx   d 8 00 00 00 00 00 00 00 00
 379.851966 1  15              Rx   d 8 4C 40 00 00 02 02 00 00
 379.853127 1  10              Rx   d 8 92 40 29 00 01 00 32 00
 379.881006 1  14              Rx   d 8 94 62 CC 59 33 33 00 00
 379.881264 1  16              Rx   d 8 01 00 01 00 00 00 00 00
 379.882468 1  11              Rx   d 8 C0 D7 28 00 02 00 31 00
 379.882727 1  18              Rx   d 8 00 00 00 00 00 00 00 00
 438.415139 1  15              Rx   d 8 4C 40 00 00 02 02 00 00
 438.415395 1  10              Rx   d 8 58 40 29 00 28 00 31 00
 438.443384 1  14              Rx   d 8 A0 62 28 5F 98 98 00 00
 438.443640 1  16              Rx   d 8 01 00 01 00 00 00 00 00
 438.444792 1  11              Rx   d 8 6E D9 28 00 B6 00 32 00
 438.445048 1  18              Rx   d 8 00 00 00 00 00 00 00 00
 438.445346 1  15              Rx   d 8 4C 40 00 00 02 02 00 00
 438.446498 1  10              Rx   d 8 38 40 29 00 07 00 30 00
 438.474103 1  14              Rx   d 8 A0 62 28 5F 00 00 00 00
 438.474359 1  16              Rx   d 8 00 00 00 00 00 00 00 00
 438.475554 1  11              Rx   d 8 6E D9 28 00 B6 00 32 00
 438.475810 1  18              Rx   d 8 00 00 00 00 00 00 00 00
 438.481826 1  15              Rx   d 8 4C 40 00 00 02 02 00 00
 438.482978 1  10              Rx   d 8 59 40 29 00 2B 00 32 00
 438.510796 1  14              Rx   d 8 A0 62 28 5F 01 01 00 00
 438.511052 1  16              Rx   d 8 01 00 01 00 00 00 00 00
 438.512247 1  11              Rx   d 8 45 DB 28 00 FF 00 32 00
 438.512503 1  18              Rx   d 8 00 00 00 00 00 00 00 00
 440.504927 1  15              Rx   d 8 4C 40 00 00 02 02 00 00
 440.506089 1  10              Rx   d 8 A2 40 29 00 01 00 32 00
 440.534143 1  14              Rx   d 8 A0 62 68 5F 33 33 00 00
 440.534401 1  16              Rx   d 8 01 00 01 00 00 00 00 00
 440.535563 1  11              Rx   d 8 5D DC 28 00 02 00 30 00
 440.535821 1  18              Rx   d 8 00 00 00 00 00 00 00 00
 442.544514 1  15              Rx   d 8 4C 40 00 00 02 02 00 00
 442.545676 1  10              Rx   d 8 A2 40 29 00 01 00 32 00
 442.573730 1  14              Rx   d 8 A0 62 64 5E 33 33 00 00
 442.573988 1  16              Rx   d 8 01 00 01 00 00 00 00 00
 442.575193 1  11              Rx   d 8 7B DC 28 00 55 00 31 00
 442.575451 1  18              Rx   d 8 00 00 00 00 00 00 00 00
 481.777281 1  15              Rx   d 8 00 00 00 00 05 05 00 00
 481.778399 1  10              Rx   d 8 A3 40 29 00 01 00 32 00
 481.806540 1  14              Rx   d 8 B4 62 0C 5A 32 32 00 00
 481.806841 1  16              Rx   d 8 01 00 01 00 00 00 00 00
 481.807960 1  11              Rx   d 8 67 DC 28 00 02 00 2F 00
 481.808261 1  18              Rx   d 8 00 00 00 00 00 00 00 00
 483.816273 1  15              Rx   d 8 4C 40 00 00 05 05 00 00
 483.817478 1  10              Rx   d 8 EE F4 28 00 05 00 32 00
 483.845109 1  14              Rx   d 8 B8 62 50 5A 00 00 00 00
 483.845367 1  16              Rx   d 8 00 00 00 00 00 00 00 00
 483.846529 1  11              Rx   d 8 3B 96 28 00 02 00 32 00
 483.846787 1  18              Rx   d 8 00 00 00 00 00 00 00 00
 485.856378 1  15              Rx   d 8 4C 40 00 00 05 05 00 00
 485.857583 1  10              Rx   d 8 EE F4 28 00 05 00 32 00
 485.885213 1  14              Rx   d 8 B4 62 44 5A 00 00 00 00
 485.885471 1  16              Rx   d 8 00 00 00 00 00 00 00 00
 485.886633 1  11              Rx   d 8 3B 96 28 00 01 00 32 00
 485.886892 1  18              Rx   d 8 00 00 00 00 00 00 00 00
 487.896568 1  15              Rx   d 8 4C 40 00 00 05 05 00 00
 487.897730 1  10              Rx   d 8 F2 F4 28 00 06 00 32 00
 487.925360 1  14              Rx   d 8 B4 62 0C 5A 00 00 00 00
 487.925662 1  16              Rx   d 8 00 00 00 00 00 00 00 00
 487.926781 1  11              Rx   d 8 3E 96 28 00 01 00 31 00
 487.927082 1  18              Rx   d 8 00 00 00 00 00 00 00 00
 489.936715 1  15              Rx   d 8 4C 40 00 00 05 05 00 00
 489.937877 1  10              Rx   d 8 EF F4 28 00 05 00 32 00
 489.965551 1  14              Rx   d 8 B4 62 0C 5A 00 00 00 00
 489.965809 1  16              Rx   d 8 00 00 00 00 00 00 00 00
 489.966971 1  11              Rx   d 8 3C 96 28 00 01 00 32 00
 489.967229 1  18              Rx   d 8 00 00 00 00 00 00 00 00
 491.976863 1  15              Rx   d 8 4C 40 00 00 05 05 00 00
 491.978025 1  10              Rx   d 8 F0 F4 28 00 05 00 31 00
 492.005698 1  14              Rx   d 8 B4 62 0C 5A 00 00 00 00
 492.005956 1  16              Rx   d 8 00 00 00 00 00 00 00 00
 492.007118 1  11              Rx   d 8 3E 96 28 00 02 00 31 00
 492.007376 1  18              Rx   d 8 00 00 00 00 00 00 00 00
 494.017053 1  15              Rx   d 8 4C 40 00 00 05 05 00 00
 494.018215 1  10              Rx   d 8 EE F4 28 00 06 00 32 00
 494.045845 1  14              Rx   d 8 B8 62 CC 59 00 00 00 00
 494.046147 1  16              Rx   d 8 00 00 00 00 00 00 00 00
 494.047265 1  11              Rx   d 8 3F 96 28 00 02 00 30 00
 494.047567 1  18              Rx   d 8 00 00 00 00 00 00 00 00
 496.057329 1  15              Rx   d 8 4C 40 00 00 05 05 00 00
 496.058491 1  10              Rx   d 8 F0 F4 28 00 05 00 32 00
 496.086122 1  14              Rx   d 8 B4 62 C0 59 00 00 00 00
 496.086423 1  16              Rx   d 8 00 00 00 00 00 00 00 00
 496.087585 1  11              Rx   d 8 32 96 28 00 04 00 2F 00
 496.087843 1  18              Rx   d 8 00 00 00 00 00 00 00 00
 498.097649 1  15              Rx   d 8 4C 40 00 00 05 05 00 00
 498.098811 1  10              Rx   d 8 EC F4 28 00 07 00 32 00
 498.126484 1  14              Rx   d 8 B4 62 8C 59 00 00 00 00
 498.126742 1  16              Rx   d 8 00 00 00 00 00 00 00 00
 498.127904 1  11              Rx   d 8 33 96 28 00 03 00 31 00
 498.128163 1  18              Rx   d 8 00 00 00 00 00 00 00 00
 500.137925 1  15              Rx   d 8 4C 40 00 00 05 05 00 00
 500.139130 1  10              Rx   d 8 A6 F4 28 00 3F 00 32 00
 500.166717 1  14              Rx   d 8 B4 62 8C 59 00 00 00 00
 500.166976 1  16              Rx   d 8 00 00 00 00 00 00 00 00
 500.168181 1  11              Rx   d 8 EF 94 28 00 16 01 32 00
 500.168439 1  18              Rx   d 8 00 00 00 00 00 00 00 00
 502.178158 1  15              Rx   d 8 4C 40 00 00 05 05 00 00
 502.179363 1  10              Rx   d 8 72 F3 28 00 8D 00 32 00
 502.206951 1  14              Rx   d 8 B8 62 0C 5A 00 00 00 00
 502.207209 1  16              Rx   d 8 00 00 00 00 00 00 00 00
 502.208414 1  11              Rx   d 8 51 95 28 00 5F 00 32 00
 502.208672 1  18              Rx   d 8 00 00 00 00 00 00 00 00
 504.218349 1  15              Rx   d 8 4C 40 00 00 05 05 00 00
 504.219252 1  10              Rx   d 8 00 00 00 00 00 00 00 00
 504.247141 1  14              Rx   d 8 BC 62 48 5B 01 00 00 00
 504.247399 1  16              Rx   d 8 01 00 00 00 00 00 00 00
 504.248604 1  11              Rx   d 8 24 95 28 00 27 00 32 00
 504.248863 1  18              Rx   d 8 00 00 00 00 00 00 00 00
 506.258324 1  15              Rx   d 8 4C 40 00 00 05 05 00 00
 506.259486 1  10              Rx   d 8 23 32 25 00 10 00 32 00
 506.287116 1  14              Rx   d 8 CC 62 88 5B 00 00 00 00
 506.287374 1  16              Rx   d 8 00 00 00 00 00 00 00 00
 506.288580 1  11              Rx   d 8 7D 95 28 00 0B 00 32 00
 506.288838 1  18              Rx   d 8 00 00 00 00 00 00 00 00
 508.298342 1  15              Rx   d 8 4C 40 00 00 05 05 00 00
 508.299547 1  10              Rx   d 8 22 32 25 00 0B 00 31 00
 508.327134 1  14              Rx   d 8 D8 62 88 5B 00 00 00 00
 508.327393 1  16              Rx   d 8 00 00 00 00 00 00 00 00
 508.328555 1  11              Rx   d 8 8E 95 28 00 04 00 31 00
 508.328856 1  18              Rx   d 8 00 00 00 00 00 00 00 00
 510.338317 1  15              Rx   d 8 4C 40 00 00 05 05 00 00
 510.339479 1  10              Rx   d 8 A1 F3 28 00 16 00 32 00
 510.367110 1  14              Rx   d 8 DC 62 CC 5B 00 01 00 00
 510.367368 1  16              Rx   d 8 00 00 01 00 00 00 00 00
 510.368272 1  11              Rx   d 8 00 00 00 00 00 00 00 00
 510.368530 1  18              Rx   d 8 00 00 00 00 00 00 00 00
 512.378421 1  15              Rx   d 8 4C 40 00 00 05 05 00 00
 512.379626 1  10              Rx   d 8 7C F3 28 00 11 00 32 00
 512.407214 1  14              Rx   d 8 E4 62 CC 5B 00 01 00 00
 512.407472 1  16              Rx   d 8 00 00 01 00 00 00 00 00
 512.408677 1  11              Rx   d 8 C2 8E 26 00 49 05 31 00
 512.408978 1  18              Rx   d 8 00 00 00 00 00 00 00 00
 514.418483 1  15              Rx   d 8 4C 40 00 00 05 05 00 00
 514.419645 1  10              Rx   d 8 53 F3 28 00 13 00 32 00
 514.447275 1  14              Rx   d 8 F4 62 CC 5B 00 00 00 00
 514.447533 1  16              Rx   d 8 00 00 00 00 00 00 00 00
 514.448738 1  11              Rx   d 8 8F 88 26 00 D3 0F 2F 00
 514.448996 1  18              Rx   d 8 00 00 00 00 00 00 00 00
 516.458544 1  15              Rx   d 8 4C 40 00 00 05 05 00 00
 516.459706 1  10              Rx   d 8 50 F3 28 00 11 00 32 00
 516.487336 1  14              Rx   d 8 F4 62 88 5B 00 2F 00 00
 516.487594 1  16              Rx   d 8 00 00 01 00 00 00 00 00
 516.488713 1  11              Rx   d 8 10 15 24 00 91 1C 1B 00
 516.488972 1  18              Rx   d 8 00 00 00 00 00 00 00 00
 518.498648 1  15              Rx   d 8 4C 40 00 00 05 05 00 00
 518.499853 1  10              Rx   d 8 5F F3 28 00 19 00 32 00
 518.527440 1  14              Rx   d 8 F8 62 08 5B 00 1D 00 00
 518.527742 1  16              Rx   d 8 00 00 01 00 00 00 00 00
 518.528688 1  11              Rx   d 8 0B E6 25 00 7B 1E 05 00
 518.528947 1  18              Rx   d 8 00 00 00 00 00 00 00 00
 520.538666 1  15              Rx   d 8 4C 40 00 00 05 05 00 00
 520.539871 1  10              Rx   d 8 2C F3 28 00 2C 00 32 00
 520.567502 1  14              Rx   d 8 F8 62 C8 5A 00 00 00 00
 520.567760 1  16              Rx   d 8 00 00 00 00 00 00 00 00
 520.568621 1  11              Rx   d 8 00 00 00 00 00 00 00 00
 520.568922 1  18              Rx   d 8 00 00 00 00 00 00 00 00
 522.578727 1  15              Rx   d 8 4C 40 00 00 05 05 00 00
 522.579932 1  10              Rx   d 8 F3 F2 28 00 07 00 32 00
 522.607520 1  14              Rx   d 8 00 63 88 5B 00 0D 00 00
 522.607821 1  16              Rx   d 8 00 00 01 00 00 00 00 00
 522.608768 1  11              Rx   d 8 FE 63 24 00 72 24 04 00
 522.609026 1  18              Rx   d 8 00 00 00 00 00 00 00 00
 524.618573 1  15              Rx   d 8 4C 40 00 00 05 05 00 00
 524.619735 1  10              Rx   d 8 08 F3 28 00 04 00 32 00
 524.647366 1  14              Rx   d 8 00 63 90 5C 00 33 00 00
 524.647624 1  16              Rx   d 8 00 00 01 00 00 00 00 00
 524.648829 1  11              Rx   d 8 6E B8 21 00 FA 1E 32 00
 524.649130 1  18              Rx   d 8 00 00 00 00 00 00 00 00
 526.658505 1  15              Rx   d 8 4C 40 00 00 05 05 00 00
 526.659710 1  10              Rx   d 8 0E F3 28 00 07 00 32 00
 526.687341 1  14              Rx   d 8 04 63 D0 5C 00 23 00 00
 526.687599 1  16              Rx   d 8 00 00 01 00 00 00 00 00
 526.688460 1  11              Rx   d 8 00 00 00 00 00 00 00 00
 526.688761 1  18              Rx   d 8 00 00 00 00 00 00 00 00
 528.698481 1  15              Rx   d 8 4C 40 00 00 05 05 00 00
 528.699643 1  10              Rx   d 8 0F F3 28 00 05 00 32 00
 528.727273 1  14              Rx   d 8 0C 63 90 5C 00 00 00 00
 528.727531 1  16              Rx   d 8 00 00 00 00 00 00 00 00
 528.728736 1  11              Rx   d 8 CB EA 24 00 13 00 31 00
 528.728994 1  18              Rx   d 8 00 00 00 00 00 00 00 00
 530.738542 1  15              Rx   d 8 4C 40 00 00 05 05 00 00
 530.739704 1  10              Rx   d 8 00 F3 28 00 04 00 32 00
 530.767334 1  14              Rx   d 8 0C 63 CC 5B 00 08 00 00
 530.767592 1  16              Rx   d 8 00 00 01 00 00 00 00 00
 530.768582 1  11              Rx   d 8 C2 E4 24 00 11 04 04 00
 530.768841 1  18              Rx   d 8 00 00 00 00 00 00 00 00
 532.778517 1  15              Rx   d 8 4C 40 00 00 05 05 00 00
 532.779636 1  10              Rx   d 8 FC F2 28 00 01 00 2F 00
 532.807309 1  14              Rx   d 8 0C 63 88 5B 00 33 00 00
 532.807568 1  16              Rx   d 8 00 00 01 00 00 00 00 00
 532.808773 1  11              Rx   d 8 A3 B3 22 00 79 12 31 00
 532.809031 1  18              Rx   d 8 00 00 00 00 00 00 00 00
 534.818363 1  15              Rx   d 8 4C 40 00 00 05 05 00 00
 534.819525 1  10              Rx   d 8 FE F2 28 00 04 00 32 00
 534.847155 1  14              Rx   d 8 0C 63 C8 5A 00 06 00 00
 534.847414 1  16              Rx   d 8 00 00 01 00 00 00 00 00
 534.848317 1  11              Rx   d 8 00 00 00 00 00 00 00 00
 534.848576 1  18              Rx   d 8 00 00 00 00 00 00 00 00
 536.858381 1  15              Rx   d 8 4C 40 00 00 05 05 00 00
 536.859586 1  10              Rx   d 8 FD F2 28 00 03 00 32 00
 536.887217 1  14              Rx   d 8 0C 63 84 5A 00 00 00 00
 536.887475 1  16              Rx   d 8 00 00 00 00 00 00 00 00
 536.888637 1  11              Rx   d 8 85 EA 24 00 26 00 30 00
 536.888895 1  18              Rx   d 8 00 00 00 00 00 00 00 00
 538.898356 1  15              Rx   d 8 4C 40 00 00 05 05 00 00
 538.899518 1  10              Rx   d 8 F8 F2 28 00 03 00 32 00
 538.927192 1  14              Rx   d 8 18 63 84 5A 00 00 00 00
 538.927450 1  16              Rx   d 8 00 00 00 00 00 00 00 00
 538.928655 1  11              Rx   d 8 21 DF 24 00 FA 10 30 00
 538.928913 1  18              Rx   d 8 00 00 00 00 00 00 00 00
 540.938503 1  15              Rx   d 8 4C 40 00 00 05 05 00 00
 540.939665 1  10              Rx   d 8 F6 F2 28 00 03 00 32 00
 540.967296 1  14              Rx   d 8 18 63 38 5A 00 21 00 00
 540.967554 1  16              Rx   d 8 00 00 01 00 00 00 00 00
 540.968544 1  11              Rx   d 8 E2 47 23 00 C7 3E 04 00
 540.968802 1  18              Rx   d 8 00 00 00 00 00 00 00 00
 542.978522 1  15              Rx   d 8 4C 40 00 00 05 05 00 00
 542.979684 1  10              Rx   d 8 FB F2 28 00 02 00 31 00
 543.007314 1  14              Rx   d 8 18 63 38 5A 00 32 00 00
 543.007615 1  16              Rx   d 8 00 00 01 00 00 00 00 00
 543.008777 1  11              Rx   d 8 5F 2B 22 00 69 09 30 00
 543.009036 1  18              Rx   d 8 00 00 00 00 00 00 00 00
 545.018454 1  15              Rx   d 8 4C 40 00 00 05 05 00 00
 545.019616 1  10              Rx   d 8 06 F3 28 00 01 00 30 00
 545.047246 1  14              Rx   d 8 18 63 38 5A 00 00 00 00
 545.047547 1  16              Rx   d 8 00 00 00 00 00 00 00 00
 545.048752 1  11              Rx   d 8 45 EA 24 00 F8 01 31 00
 545.049011 1  18              Rx   d 8 00 00 00 00 00 00 00 00
 547.058644 1  15              Rx   d 8 4C 40 00 00 05 05 00 00
 547.059806 1  10              Rx   d 8 FF F2 28 00 03 00 31 00
 547.087436 1  14              Rx   d 8 18 63 B8 59 00 00 00 00
 547.087695 1  16              Rx   d 8 00 00 00 00 00 00 00 00
 547.088900 1  11              Rx   d 8 91 EA 24 00 11 00 31 00
 547.089158 1  18              Rx   d 8 00 00 00 00 00 00 00 00
 549.098920 1  15              Rx   d 8 4C 40 00 00 05 05 00 00
 549.100082 1  10              Rx   d 8 9B F3 28 00 80 00 32 00
 549.127713 1  14              Rx   d 8 14 63 74 59 00 00 00 00
 549.127971 1  16              Rx   d 8 00 00 00 00 00 00 00 00
 549.128875 1  11              Rx   d 8 00 00 00 00 00 00 00 00
 549.129133 1  18              Rx   d 8 00 00 00 00 00 00 00 00
 551.139154 1  15              Rx   d 8 4C 40 00 00 05 05 00 00
 551.140359 1  10              Rx   d 8 A1 F3 28 00 18 01 32 00
 551.167989 1  14              Rx   d 8 18 63 80 59 00 00 00 00
 551.168247 1  16              Rx   d 8 00 00 00 00 00 00 00 00
 551.169409 1  11              Rx   d 8 12 93 28 00 AC 00 31 00
 551.169668 1  18              Rx   d 8 00 00 00 00 00 00 00 00
 553.179473 1  15              Rx   d 8 4C 40 00 00 05 05 00 00
 553.180635 1  10              Rx   d 8 EA F3 28 00 2F 00 32 00
 553.208266 1  14              Rx   d 8 18 63 38 5A 00 00 00 00
 553.208524 1  16              Rx   d 8 00 00 00 00 00 00 00 00
 553.209729 1  11              Rx   d 8 DC 82 28 00 5D 07 32 00
 553.209987 1  18              Rx   d 8 00 00 00 00 00 00 00 00
 555.219707 1  15              Rx   d 8 4C 40 00 00 05 05 00 00
 555.220912 1  10              Rx   d 8 4A F3 28 00 6B 00 32 00
 555.248542 1  14              Rx   d 8 F8 62 BC 5A 00 00 00 00
 555.248800 1  16              Rx   d 8 00 00 00 00 00 00 00 00
 555.250005 1  11              Rx   d 8 0B 87 28 00 5A 01 31 00
 555.250264 1  18              Rx   d 8 00 00 00 00 00 00 00 00
 557.259940 1  15              Rx   d 8 4C 40 00 00 05 05 00 00
 557.261188 1  10              Rx   d 8 CD ED 28 00 C4 06 32 00
 557.288775 1  14              Rx   d 8 E4 62 08 5B 00 00 00 00
 557.289034 1  16              Rx   d 8 00 00 00 00 00 00 00 00
 557.289980 1  11              Rx   d 8 4E AF 28 00 B8 09 02 00
 557.290239 1  18              Rx   d 8 00 00 00 00 00 00 00 00
 559.300216 1  15              Rx   d 8 4C 40 00 00 05 05 00 00
 559.301378 1  10              Rx   d 8 4E F4 28 00 CA 01 2F 00
 559.329009 1  14              Rx   d 8 DC 62 CC 5B 00 00 00 00
 559.329267 1  16              Rx   d 8 00 00 00 00 00 00 00 00
 559.330386 1  11              Rx   d 8 2A 62 29 00 A3 13 1A 00
 559.330644 1  18              Rx   d 8 00 00 00 00 00 00 00 00
 561.340364 1  15              Rx   d 8 4C 40 00 00 05 05 00 00
 561.341396 1  10              Rx   d 8 53 74 29 00 7E 2F 0B 00
 561.369199 1  14              Rx   d 8 F0 62 20 60 15 01 00 00
 561.369457 1  16              Rx   d 8 01 00 01 00 00 00 00 00
 561.370447 1  11              Rx   d 8 C4 47 2A 00 EA 2C 0A 00
 561.370705 1  18              Rx   d 8 00 00 00 00 00 00 00 00
 563.380511 1  15              Rx   d 8 4C 40 00 00 05 05 00 00
 563.381716 1  10              Rx   d 8 66 76 2A 00 1F 10 32 00
 563.409346 1  14              Rx   d 8 F8 62 F4 63 33 00 00 00
 563.409605 1  16              Rx   d 8 01 00 00 00 00 00 00 00
 563.410810 1  11              Rx   d 8 81 38 2B 00 2B 14 30 00
 563.411068 1  18              Rx   d 8 00 00 00 00 00 00 00 00
 565.420701 1  15              Rx   d 8 4C 40 00 00 05 05 00 00
 565.421863 1  10              Rx   d 8 26 7E 2A 00 2A 00 32 00
 565.449494 1  14              Rx   d 8 00 63 A8 61 33 00 00 00
 565.449752 1  16              Rx   d 8 01 00 00 00 00 00 00 00
 565.450957 1  11              Rx   d 8 DA 3F 2B 00 50 00 31 00
 565.451215 1  18              Rx   d 8 00 00 00 00 00 00 00 00
 567.460805 1  15              Rx   d 8 4C 40 00 00 05 05 00 00
 567.461967 1  10              Rx   d 8 50 7E 2A 00 0E 00 32 00
 567.489598 1  14              Rx   d 8 00 63 E4 60 33 00 00 00
 567.489856 1  16              Rx   d 8 01 00 00 00 00 00 00 00
 567.491018 1  11              Rx   d 8 B9 40 2B 00 33 00 32 00
 567.491319 1  18              Rx   d 8 00 00 00 00 00 00 00 00
 569.500910 1  15              Rx   d 8 4C 40 00 00 05 05 00 00
 569.502072 1  10              Rx   d 8 45 7E 2A 00 13 00 31 00
 569.529732 1  14              Rx   d 8 00 63 A4 60 33 00 00 00
 569.530033 1  16              Rx   d 8 01 00 00 00 00 00 00 00
 569.531195 1  11              Rx   d 8 24 41 2B 00 28 00 31 00
 569.531454 1  18              Rx   d 8 00 00 00 00 00 00 00 00
 571.540915 1  15              Rx   d 8 4C 40 00 00 05 05 00 00
 571.542077 1  10              Rx   d 8 59 7E 2A 00 07 00 32 00
 571.569707 1  14              Rx   d 8 00 63 20 60 33 00 00 00
 571.569965 1  16              Rx   d 8 01 00 00 00 00 00 00 00
 571.571170 1  11              Rx   d 8 C6 41 2B 00 2D 00 31 00
 571.571429 1  18              Rx   d 8 00 00 00 00 00 00 00 00
 573.580933 1  15              Rx   d 8 4C 40 00 00 05 05 00 00
 573.582095 1  10              Rx   d 8 5F 7E 2A 00 08 00 32 00
 573.609725 1  14              Rx   d 8 00 63 E0 5F 33 00 00 00
 573.610027 1  16              Rx   d 8 01 00 00 00 00 00 00 00
 573.611189 1  11              Rx   d 8 54 42 2B 00 22 00 30 00
 573.611447 1  18              Rx   d 8 00 00 00 00 00 00 00 00
 575.620994 1  15              Rx   d 8 4C 40 00 00 05 05 00 00
 575.622156 1  10              Rx   d 8 67 7E 2A 00 08 00 30 00
 575.649787 1  14              Rx   d 8 00 63 5C 5F 33 00 00 00
 575.650045 1  16              Rx   d 8 01 00 00 00 00 00 00 00
 575.651250 1  11              Rx   d 8 C5 42 2B 00 1D 00 31 00
 575.651508 1  18              Rx   d 8 00 00 00 00 00 00 00 00
 577.661012 1  15              Rx   d 8 4C 40 00 00 05 05 00 00
 577.662174 1  10              Rx   d 8 79 7E 2A 00 0E 00 32 00
 577.689805 1  14              Rx   d 8 F8 62 98 5E 33 00 00 00
 577.690106 1  16              Rx   d 8 01 00 00 00 00 00 00 00
 577.691268 1  11              Rx   d 8 2F 43 2B 00 21 00 32 00
 577.691526 1  18              Rx   d 8 00 00 00 00 00 00 00 00
 613.664468 1  15              Rx   d 8 4C 40 00 00 06 06 00 00
 613.665673 1  10              Rx   d 8 0E 7F 2A 00 82 01 32 00
 613.693562 1  14              Rx   d 8 F4 62 7C 58 34 00 00 00
 613.693863 1  16              Rx   d 8 01 00 00 00 00 00 00 00
 613.695025 1  11              Rx   d 8 52 3E 2B 00 38 0E 32 00
 613.695327 1  18              Rx   d 8 00 00 00 00 00 00 00 00
 623.963546 1  10              Rx   d 8 49 54 00 00 01 00 00 00
 625.918435 1  15              Rx   d 8 4C 40 00 00 02 02 00 00
 625.919597 1  10              Rx   d 8 A3 72 2A 00 11 00 31 00
 625.947744 1  14              Rx   d 8 DC 62 FC 58 33 32 00 00
 625.948046 1  16              Rx   d 8 01 00 01 00 00 00 00 00
 625.949208 1  11              Rx   d 8 66 4D 2B 00 0D 00 31 00
 625.949466 1  18              Rx   d 8 00 00 00 00 00 00 00 00
 627.958841 1  15              Rx   d 8 4C 40 00 00 02 02 00 00
 627.960003 1  10              Rx   d 8 B9 72 2A 00 0A 00 32 00
 627.988150 1  14              Rx   d 8 E4 62 FC 58 33 33 00 00
 627.988451 1  16              Rx   d 8 01 00 01 00 00 00 00 00
 627.989613 1  11              Rx   d 8 85 4D 2B 00 08 00 32 00
 627.989871 1  18              Rx   d 8 00 00 00 00 00 00 00 00
 629.999333 1  15              Rx   d 8 4C 40 00 00 02 02 00 00
 630.000495 1  10              Rx   d 8 BD 72 2A 00 07 00 32 00
 630.028684 1  14              Rx   d 8 E4 62 FC 58 33 33 00 00
 630.028943 1  16              Rx   d 8 01 00 01 00 00 00 00 00
 630.030105 1  11              Rx   d 8 9F 4D 2B 00 09 00 32 00
 630.030363 1  18              Rx   d 8 00 00 00 00 00 00 00 00
 632.039867 1  15              Rx   d 8 4C 40 00 00 02 02 00 00
 632.041029 1  10              Rx   d 8 BC 72 2A 00 0B 00 32 00
 632.069206 1  14              Rx   d 8 E4 62 FC 58 33 33 00 00
 632.069507 1  16              Rx   d 8 01 00 01 00 00 00 00 00
 632.070669 1  11              Rx   d 8 B7 4D 2B 00 0A 00 31 00
 632.070928 1  18              Rx   d 8 00 00 00 00 00 00 00 00
 634.080475 1  15              Rx   d 8 4C 40 00 00 02 02 00 00
 634.081637 1  10              Rx   d 8 CF 72 2A 00 09 00 31 00
 634.109784 1  14              Rx   d 8 E4 62 40 59 33 33 00 00
 634.110085 1  16              Rx   d 8 01 00 01 00 00 00 00 00
 634.111247 1  11              Rx   d 8 D2 4D 2B 00 07 00 31 00
 634.111505 1  18              Rx   d 8 00 00 00 00 00 00 00 00
 636.120966 1  15              Rx   d 8 4C 40 00 00 02 02 00 00
 636.122171 1  10              Rx   d 8 CF 72 2A 00 09 00 32 00
 636.150318 1  14              Rx   d 8 E8 62 C0 59 33 33 00 00
 636.150577 1  16              Rx   d 8 01 00 01 00 00 00 00 00
 636.151739 1  11              Rx   d 8 E2 4D 2B 00 09 00 31 00
 636.151997 1  18              Rx   d 8 00 00 00 00 00 00 00 00
 638.161372 1  15              Rx   d 8 4C 40 00 00 02 02 00 00
 638.162534 1  10              Rx   d 8 E0 72 2A 00 09 00 32 00
 638.190681 1  14              Rx   d 8 E8 62 04 5A 33 33 00 00
 638.190939 1  16              Rx   d 8 01 00 01 00 00 00 00 00
 638.192101 1  11              Rx   d 8 FE 4D 2B 00 07 00 32 00
 638.192402 1  18              Rx   d 8 00 00 00 00 00 00 00 00
 640.201863 1  15              Rx   d 8 4C 40 00 00 02 02 00 00
 640.203026 1  10              Rx   d 8 E0 72 2A 00 07 00 31 00
 640.231172 1  14              Rx   d 8 E8 62 44 5A 33 33 00 00
 640.231431 1  16              Rx   d 8 01 00 01 00 00 00 00 00
 640.232636 1  11              Rx   d 8 16 4E 2B 00 07 00 32 00
 640.232894 1  18              Rx   d 8 00 00 00 00 00 00 00 00
 642.242312 1  15              Rx   d 8 4C 40 00 00 02 02 00 00
 642.243517 1  10              Rx   d 8 DE 72 2A 00 07 00 32 00
 642.271664 1  14              Rx   d 8 E4 62 84 5A 33 33 00 00
 642.271922 1  16              Rx   d 8 01 00 01 00 00 00 00 00
 642.273084 1  11              Rx   d 8 2D 4E 2B 00 06 00 31 00
 642.273342 1  18              Rx   d 8 00 00 00 00 00 00 00 00
 644.282933 1  15              Rx   d 8 4C 40 00 00 02 02 00 00
 644.284095 1  10              Rx   d 8 EE 72 2A 00 11 00 32 00
 644.312242 1  14              Rx   d 8 E8 62 84 5A 33 33 00 00
 644.312500 1  16              Rx   d 8 01 00 01 00 00 00 00 00
 644.313705 1  11              Rx   d 8 59 4E 2B 00 54 00 31 00
 644.313963 1  18              Rx   d 8 00 00 00 00 00 00 00 00
 646.323500 1  15              Rx   d 8 4C 40 00 00 02 02 00 00
 646.324662 1  10              Rx   d 8 F6 72 2A 00 09 00 32 00
 646.352807 1  14              Rx   d 8 F0 62 C8 5A 33 33 00 00
 646.353065 1  16              Rx   d 8 01 00 01 00 00 00 00 00
 646.354227 1  11              Rx   d 8 50 4E 2B 00 07 00 30 00
 646.354486 1  18              Rx   d 8 00 00 00 00 00 00 00 00
 648.363936 1  15              Rx   d 8 4C 40 00 00 02 02 00 00
 648.365141 1  10              Rx   d 8 FF 72 2A 00 09 00 32 00
 648.393243 1  14              Rx   d 8 F0 62 84 5A 33 33 00 00
 648.393544 1  16              Rx   d 8 01 00 01 00 00 00 00 00
 648.394706 1  11              Rx   d 8 65 4E 2B 00 07 00 30 00
 648.394964 1  18              Rx   d 8 00 00 00 00 00 00 00 00
 650.444437 1  15              Rx   d 8 4C 40 00 00 06 05 00 00
 650.445642 1  10              Rx   d 8 9A 83 2A 00 09 00 2F 00
 650.473787 1  14              Rx   d 8 E8 62 44 5A 34 03 00 00
 650.474045 1  16              Rx   d 8 01 00 01 00 00 00 00 00
 650.475207 1  11              Rx   d 8 10 48 2B 00 33 00 2F 00
 650.475465 1  18              Rx   d 8 00 00 00 00 00 00 00 00
 652.484872 1  15              Rx   d 8 4C 40 00 00 06 05 00 00
 652.486077 1  10              Rx   d 8 97 83 2A 00 07 00 32 00
 652.514222 1  14              Rx   d 8 F0 62 80 59 33 00 00 00
 652.514480 1  16              Rx   d 8 01 00 00 00 00 00 00 00
 652.515642 1  11              Rx   d 8 0C 48 2B 00 01 00 32 00
 652.515900 1  18              Rx   d 8 00 00 00 00 00 00 00 00
 654.525222 1  15              Rx   d 8 4C 40 00 00 06 05 00 00
 654.526427 1  10              Rx   d 8 9B 83 2A 00 06 00 32 00
 654.554571 1  14              Rx   d 8 F0 62 40 59 33 00 00 00
 654.554830 1  16              Rx   d 8 01 00 00 00 00 00 00 00
 654.555992 1  11              Rx   d 8 11 48 2B 00 02 00 31 00
 654.556250 1  18              Rx   d 8 00 00 00 00 00 00 00 00
 656.565485 1  15              Rx   d 8 4C 40 00 00 06 05 00 00
 656.566647 1  10              Rx   d 8 A8 83 2A 00 07 00 32 00
 656.594792 1  14              Rx   d 8 E8 62 FC 58 33 00 00 00
 656.595093 1  16              Rx   d 8 01 00 00 00 00 00 00 00
 656.596212 1  11              Rx   d 8 1C 48 2B 00 06 00 31 00
 656.596513 1  18              Rx   d 8 00 00 00 00 00 00 00 00
 658.605748 1  15              Rx   d 8 4C 40 00 00 06 05 00 00
 658.606910 1  10              Rx   d 8 AD 83 2A 00 06 00 31 00
 658.635098 1  14              Rx   d 8 F0 62 BC 58 33 00 00 00
 658.635356 1  16              Rx   d 8 01 00 00 00 00 00 00 00
 658.636518 1  11              Rx   d 8 2A 48 2B 00 0A 00 31 00
 658.636776 1  18              Rx   d 8 00 00 00 00 00 00 00 00
 660.646011 1  15              Rx   d 8 4C 40 00 00 06 05 00 00
 660.647173 1  10              Rx   d 8 AA 83 2A 00 07 00 32 00
 660.675318 1  14              Rx   d 8 E8 62 BC 58 33 00 00 00
 660.675576 1  16              Rx   d 8 01 00 00 00 00 00 00 00
 660.676781 1  11              Rx   d 8 34 48 2B 00 09 00 32 00
 660.677040 1  18              Rx   d 8 00 00 00 00 00 00 00 00
 662.686232 1  15              Rx   d 8 4C 40 00 00 06 05 00 00
 662.687394 1  10              Rx   d 8 B7 83 2A 00 08 00 30 00
 662.715581 1  14              Rx   d 8 F0 62 FC 58 33 00 00 00
 662.715840 1  16              Rx   d 8 01 00 00 00 00 00 00 00
 662.717002 1  11              Rx   d 8 44 48 2B 00 08 00 32 00
 662.717260 1  18              Rx   d 8 00 00 00 00 00 00 00 00
 664.726409 1  15              Rx   d 8 4C 40 00 00 06 05 00 00
 664.727571 1  10              Rx   d 8 C6 83 2A 00 0A 00 32 00
 664.755716 1  14              Rx   d 8 F4 62 80 59 33 00 00 00
 664.755974 1  16              Rx   d 8 01 00 00 00 00 00 00 00
 664.757136 1  11              Rx   d 8 4B 48 2B 00 07 00 30 00
 664.757394 1  18              Rx   d 8 00 00 00 00 00 00 00 00
 666.766629 1  15              Rx   d 8 4C 40 00 00 06 05 00 00
 666.767834 1  10              Rx   d 8 BE 83 2A 00 08 00 31 00
 666.795979 1  14              Rx   d 8 F0 62 C0 59 33 00 00 00
 666.796237 1  16              Rx   d 8 01 00 00 00 00 00 00 00
 666.797399 1  11              Rx   d 8 53 48 2B 00 07 00 31 00
 666.797657 1  18              Rx   d 8 00 00 00 00 00 00 00 00
 668.806849 1  15              Rx   d 8 4C 40 00 00 06 05 00 00
 668.808011 1  10              Rx   d 8 E4 83 2A 00 14 00 32 00
 668.836156 1  14              Rx   d 8 F0 62 C0 59 33 00 00 00
 668.836414 1  16              Rx   d 8 01 00 00 00 00 00 00 00
 668.837576 1  11              Rx   d 8 54 48 2B 00 12 00 32 00
 668.837878 1  18              Rx   d 8 00 00 00 00 00 00 00 00
 670.847027 1  15              Rx   d 8 4C 40 00 00 06 05 00 00
 670.848232 1  10              Rx   d 8 F1 83 2A 00 0B 00 32 00
 670.876376 1  14              Rx   d 8 F0 62 40 59 33 00 00 00
 670.876635 1  16              Rx   d 8 01 00 00 00 00 00 00 00
 670.877797 1  11              Rx   d 8 83 48 2B 00 0E 00 31 00
 670.878055 1  18              Rx   d 8 00 00 00 00 00 00 00 00
 672.887290 1  15              Rx   d 8 4C 40 00 00 06 05 00 00
 672.888452 1  10              Rx   d 8 02 84 2A 00 0D 00 32 00
 672.916597 1  14              Rx   d 8 F0 62 FC 58 33 00 00 00
 672.916855 1  16              Rx   d 8 01 00 00 00 00 00 00 00
 672.918017 1  11              Rx   d 8 A4 48 2B 00 0A 00 32 00
 672.918318 1  18              Rx   d 8 00 00 00 00 00 00 00 00
 674.927553 1  15              Rx   d 8 4C 40 00 00 06 05 00 00
 674.928715 1  10              Rx   d 8 03 84 2A 00 06 00 32 00
 674.956860 1  14              Rx   d 8 F4 62 BC 58 33 00 00 00
 674.957161 1  16              Rx   d 8 01 00 00 00 00 00 00 00
 674.958323 1  11              Rx   d 8 BB 48 2B 00 09 00 32 00
 674.958581 1  18              Rx   d 8 00 00 00 00 00 00 00 00
 676.967859 1  15              Rx   d 8 4C 40 00 00 06 05 00 00
 676.969064 1  10              Rx   d 8 B1 83 2A 00 2B 00 32 00
 676.997209 1  14              Rx   d 8 F0 62 BC 58 33 00 00 00
 676.997467 1  16              Rx   d 8 01 00 00 00 00 00 00 00
 676.998629 1  11              Rx   d 8 90 48 2B 00 1E 00 32 00
 676.998931 1  18              Rx   d 8 00 00 00 00 00 00 00 00
 679.008037 1  15              Rx   d 8 4C 40 00 00 06 05 00 00
 679.009199 1  10              Rx   d 8 B1 83 2A 00 15 00 32 00
 679.037343 1  14              Rx   d 8 E8 62 BC 58 33 00 00 00
 679.037602 1  16              Rx   d 8 01 00 00 00 00 00 00 00
 679.038807 1  11              Rx   d 8 91 48 2B 00 0C 00 32 00
 679.039065 1  18              Rx   d 8 00 00 00 00 00 00 00 00
 681.048343 1  15              Rx   d 8 4C 40 00 00 06 05 00 00
 681.049505 1  10              Rx   d 8 B5 83 2A 00 13 00 31 00
 681.077650 1  14              Rx   d 8 F0 62 7C 58 33 00 00 00
 681.077951 1  16              Rx   d 8 01 00 00 00 00 00 00 00
 681.079113 1  11              Rx   d 8 9B 48 2B 00 0B 00 32 00
 681.079371 1  18              Rx   d 8 00 00 00 00 00 00 00 00
 683.088692 1  15              Rx   d 8 4C 40 00 00 06 05 00 00
 683.089897 1  10              Rx   d 8 33 84 2A 00 19 00 31 00
 683.118042 1  14              Rx   d 8 E8 62 7C 58 33 00 00 00
 683.118300 1  16              Rx   d 8 01 00 00 00 00 00 00 00
 683.119462 1  11              Rx   d 8 0C 49 2B 00 24 00 31 00
 683.119721 1  18              Rx   d 8 00 00 00 00 00 00 00 00
 685.128999 1  15              Rx   d 8 4C 40 00 00 06 05 00 00
 685.130161 1  10              Rx   d 8 2F 84 2A 00 0D 00 32 00
 685.158305 1  14              Rx   d 8 F0 62 BC 58 33 00 00 00
 685.158564 1  16              Rx   d 8 01 00 00 00 00 00 00 00
 685.159769 1  11              Rx   d 8 3B 49 2B 00 0E 00 31 00
 685.160027 1  18              Rx   d 8 00 00 00 00 00 00 00 00
 687.169305 1  15              Rx   d 8 4C 40 00 00 06 05 00 00
 687.170467 1  10              Rx   d 8 37 84 2A 00 0C 00 31 00
 687.198612 1  14              Rx   d 8 F0 62 BC 58 33 00 00 00
 687.198913 1  16              Rx   d 8 01 00 00 00 00 00 00 00
 687.200075 1  11              Rx   d 8 53 49 2B 00 0B 00 32 00
 687.200333 1  18              Rx   d 8 00 00 00 00 00 00 00 00
 689.209568 1  15              Rx   d 8 4C 40 00 00 06 05 00 00
 689.210730 1  10              Rx   d 8 38 84 2A 00 0B 00 31 00
 689.238875 1  14              Rx   d 8 F0 62 BC 58 33 00 00 00
 689.239176 1  16              Rx   d 8 01 00 00 00 00 00 00 00
 689.240338 1  11              Rx   d 8 69 49 2B 00 10 00 31 00
 689.240596 1  18              Rx   d 8 00 00 00 00 00 00 00 00
 691.249918 1  15              Rx   d 8 4C 40 00 00 06 05 00 00
 691.251079 1  10              Rx   d 8 4A 84 2A 00 15 00 30 00
 691.279267 1  14              Rx   d 8 F0 62 7C 58 33 00 00 00
 691.279526 1  16              Rx   d 8 01 00 00 00 00 00 00 00
 691.280688 1  11              Rx   d 8 45 49 2B 00 26 00 31 00
 691.280946 1  18              Rx   d 8 00 00 00 00 00 00 00 00
 693.290009 1  15              Rx   d 8 4C 40 00 00 06 05 00 00
 693.291171 1  10              Rx   d 8 3E 84 2A 00 09 00 32 00
 693.319359 1  14              Rx   d 8 F0 62 7C 58 33 00 00 00
 693.319617 1  16              Rx   d 8 01 00 00 00 00 00 00 00
 693.320779 1  11              Rx   d 8 30 49 2B 00 09 00 32 00
 693.321037 1  18              Rx   d 8 00 00 00 00 00 00 00 00
 702.485997 1  10              Rx   d 8 49 54 00 00 01 00 00 00
 704.416220 1  15              Rx   d 8 4C 40 00 00 04 04 00 00
 704.417382 1  10              Rx   d 8 58 7D 2A 00 01 00 31 00
 704.444968 1  14              Rx   d 8 E8 62 40 59 33 31 00 00
 704.445226 1  16              Rx   d 8 01 00 01 00 00 00 00 00
 704.446388 1  11              Rx   d 8 D1 53 2B 00 07 00 31 00
 704.446646 1  18              Rx   d 8 00 00 00 00 00 00 00 00
 706.456441 1  15              Rx   d 8 4C 40 00 00 04 04 00 00
 706.457602 1  10              Rx   d 8 58 7D 2A 00 01 00 32 00
 706.485188 1  14              Rx   d 8 E8 62 80 59 33 33 00 00
 706.485446 1  16              Rx   d 8 01 00 01 00 00 00 00 00
 706.486608 1  11              Rx   d 8 DB 53 2B 00 05 00 31 00
 706.486866 1  18              Rx   d 8 00 00 00 00 00 00 00 00
 708.496618 1  15              Rx   d 8 4C 40 00 00 04 04 00 00
 708.497780 1  10              Rx   d 8 58 7D 2A 00 01 00 32 00
 708.525408 1  14              Rx   d 8 E8 62 80 59 33 33 00 00
 708.525666 1  16              Rx   d 8 01 00 01 00 00 00 00 00
 708.526828 1  11              Rx   d 8 ED 53 2B 00 0C 00 32 00
 708.527086 1  18              Rx   d 8 00 00 00 00 00 00 00 00
 710.536881 1  15              Rx   d 8 4C 40 00 00 04 04 00 00
 710.538043 1  10              Rx   d 8 58 7D 2A 00 01 00 32 00
 710.565628 1  14              Rx   d 8 E4 62 40 59 33 33 00 00
 710.565930 1  16              Rx   d 8 01 00 01 00 00 00 00 00
 710.567092 1  11              Rx   d 8 FE 53 2B 00 06 00 30 00
 710.567350 1  18              Rx   d 8 00 00 00 00 00 00 00 00
 712.577101 1  15              Rx   d 8 4C 40 00 00 04 04 00 00
 712.578263 1  10              Rx   d 8 58 7D 2A 00 01 00 32 00
 712.605849 1  14              Rx   d 8 E8 62 FC 58 33 33 00 00
 712.606107 1  16              Rx   d 8 01 00 01 00 00 00 00 00
 712.607269 1  11              Rx   d 8 1B 54 2B 00 07 00 32 00
 712.607570 1  18              Rx   d 8 00 00 00 00 00 00 00 00
 714.617235 1  15              Rx   d 8 4C 40 00 00 04 04 00 00
 714.618440 1  10              Rx   d 8 58 7D 2A 00 01 00 32 00
 714.646026 1  14              Rx   d 8 F0 62 BC 58 33 33 00 00
 714.646284 1  16              Rx   d 8 01 00 01 00 00 00 00 00
 714.647446 1  11              Rx   d 8 29 54 2B 00 07 00 32 00
 714.647704 1  18              Rx   d 8 00 00 00 00 00 00 00 00
 716.657499 1  15              Rx   d 8 4C 40 00 00 04 04 00 00
 716.658661 1  10              Rx   d 8 58 7D 2A 00 01 00 32 00
 716.686246 1  14              Rx   d 8 E8 62 7C 58 33 33 00 00
 716.686504 1  16              Rx   d 8 01 00 01 00 00 00 00 00
 716.687666 1  11              Rx   d 8 3F 54 2B 00 08 00 31 00
 716.687924 1  18              Rx   d 8 00 00 00 00 00 00 00 00
 718.697590 1  15              Rx   d 8 4C 40 00 00 04 04 00 00
 718.698795 1  10              Rx   d 8 58 7D 2A 00 01 00 32 00
 718.726380 1  14              Rx   d 8 E8 62 7C 58 33 33 00 00
 718.726638 1  16              Rx   d 8 01 00 01 00 00 00 00 00
 718.727800 1  11              Rx   d 8 4E 54 2B 00 0A 00 31 00
 718.728059 1  18              Rx   d 8 00 00 00 00 00 00 00 00
 720.737810 1  15              Rx   d 8 4C 40 00 00 04 04 00 00
 720.738972 1  10              Rx   d 8 58 7D 2A 00 01 00 32 00
