date Sun Feb 11 09:12:53.908 PM 2024
base hex  timestamps absolute
internal events logged
Begin Triggerblock Sun Feb 11 09:12:56.353 PM 2024
 0.000000 Start of measurement
 0.000000 1  15              Rx   d 8 4C 40 00 00 04 04 00 00
 0.000256 1  10              Rx   d 8 33 A4 29 00 01 00 32 00
 0.027989 1  14              Rx   d 8 28 64 04 56 3B 3B 00 00
 0.028288 1  16              Rx   d 8 01 00 01 00 00 00 00 00
 0.029440 1  11              Rx   d 8 67 38 25 00 5E 00 32 00
 0.029696 1  18              Rx   d 8 00 00 00 00 00 00 00 00
 0.029952 1  15              Rx   d 8 4C 40 00 00 04 04 00 00
 0.030250 1  16              Rx   d 8 01 00 01 00 00 00 00 00
 0.030506 1  18              Rx   d 8 00 00 00 00 00 00 00 00
 0.030762 1  14              Rx   d 8 28 64 04 56 00 00 00 00
 2.090689 1  15              Rx   d 8 4C 40 00 00 09 05 00 00
 2.091894 1  10              Rx   d 8 B8 E0 28 00 07 00 32 00
 2.119431 1  14              Rx   d 8 28 64 D0 55 34 33 00 00
 2.119732 1  16              Rx   d 8 01 00 01 00 00 00 00 00
 2.120894 1  11              Rx   d 8 B0 3A 25 00 1D 00 32 00
 2.121152 1  18              Rx   d 8 00 00 00 00 00 00 00 00
 4.130143 1  15              Rx   d 8 4C 40 00 00 09 05 00 00
 4.131305 1  10              Rx   d 8 B9 E0 28 00 04 00 31 00
 4.158885 1  14              Rx   d 8 28 64 10 56 33 33 00 00
 4.159143 1  16              Rx   d 8 01 00 01 00 00 00 00 00
 4.160305 1  11              Rx   d 8 C6 3A 25 00 0F 00 30 00
 4.160606 1  18              Rx   d 8 00 00 00 00 00 00 00 00
 6.169726 1  15              Rx   d 8 4C 40 00 00 09 05 00 00
 6.170887 1  10              Rx   d 8 BC E0 28 00 04 00 31 00
 6.198468 1  14              Rx   d 8 28 64 10 56 33 33 00 00
 6.198726 1  16              Rx   d 8 01 00 01 00 00 00 00 00
 6.199931 1  11              Rx   d 8 D8 3A 25 00 16 00 32 00
 6.200189 1  18              Rx   d 8 00 00 00 00 00 00 00 00
 8.209222 1  15              Rx   d 8 4C 40 00 00 09 05 00 00
 8.210427 1  10              Rx   d 8 C5 E0 28 00 06 00 32 00
 8.237964 1  14              Rx   d 8 2C 64 D0 55 33 33 00 00
 8.238266 1  16              Rx   d 8 01 00 01 00 00 00 00 00
 8.239427 1  11              Rx   d 8 FD 3A 25 00 20 00 32 00
 8.239686 1  18              Rx   d 8 00 00 00 00 00 00 00 00
 10.248805 1  15              Rx   d 8 4C 40 00 00 09 05 00 00
 10.249967 1  10              Rx   d 8 CB E0 28 00 03 00 31 00
 10.277547 1  14              Rx   d 8 2C 64 D0 55 33 33 00 00
 10.277805 1  16              Rx   d 8 01 00 01 00 00 00 00 00
 10.278967 1  11              Rx   d 8 0D 3B 25 00 14 00 31 00
 10.279225 1  18              Rx   d 8 00 00 00 00 00 00 00 00
 12.288345 1  15              Rx   d 8 4C 40 00 00 09 05 00 00
 12.289550 1  10              Rx   d 8 8B E0 28 00 5B 00 31 00
 12.317087 1  14              Rx   d 8 28 64 8C 55 33 33 00 00
 12.317345 1  16              Rx   d 8 01 00 01 00 00 00 00 00
 12.318550 1  11              Rx   d 8 79 3B 25 00 76 00 31 00
 12.318808 1  18              Rx   d 8 00 00 00 00 00 00 00 00
 14.327928 1  15              Rx   d 8 4C 40 00 00 09 05 00 00
 14.329090 1  10              Rx   d 8 3B 7A 28 00 8D 0E 28 00
 14.356670 1  14              Rx   d 8 28 64 10 56 33 33 00 00
 14.356971 1  16              Rx   d 8 01 00 01 00 00 00 00 00
 14.358176 1  11              Rx   d 8 4D 23 25 00 FB 1B 32 00
 14.358434 1  18              Rx   d 8 00 00 00 00 00 00 00 00
 16.367597 1  15              Rx   d 8 4C 40 00 00 09 05 00 00
 16.368802 1  10              Rx   d 8 46 6B 28 00 F1 01 32 00
 16.396339 1  14              Rx   d 8 28 64 D0 55 33 33 00 00
 16.396597 1  16              Rx   d 8 01 00 01 00 00 00 00 00
 16.397802 1  11              Rx   d 8 6C 77 25 00 3E 12 32 00
 16.398060 1  18              Rx   d 8 00 00 00 00 00 00 00 00
 18.407180 1  15              Rx   d 8 4C 40 00 00 09 05 00 00
 18.408384 1  10              Rx   d 8 47 68 28 00 28 02 32 00
 18.435965 1  14              Rx   d 8 28 64 8C 55 33 33 00 00
 18.436223 1  16              Rx   d 8 01 00 01 00 00 00 00 00
 18.437428 1  11              Rx   d 8 A6 A4 25 00 B7 0F 32 00
 18.437686 1  18              Rx   d 8 00 00 00 00 00 00 00 00
 20.446805 1  15              Rx   d 8 4C 40 00 00 09 05 00 00
 20.448010 1  10              Rx   d 8 91 66 28 00 D1 02 32 00
 20.475548 1  14              Rx   d 8 28 64 4C 55 33 33 00 00
 20.475806 1  16              Rx   d 8 01 00 01 00 00 00 00 00
 20.476795 1  11              Rx   d 8 CC F3 25 00 A2 1C 0D 00
 20.477053 1  18              Rx   d 8 00 00 00 00 00 00 00 00
 22.486259 1  15              Rx   d 8 4C 40 00 00 09 05 00 00
 22.487421 1  10              Rx   d 8 89 59 28 00 EE 00 30 00
 22.515001 1  14              Rx   d 8 28 64 0C 55 33 2B 00 00
 22.515259 1  16              Rx   d 8 01 00 01 00 00 00 00 00
 22.516378 1  11              Rx   d 8 4A 97 28 00 EF 09 22 00
 22.516636 1  18              Rx   d 8 00 00 00 00 00 00 00 00
 24.525842 1  15              Rx   d 8 4C 40 00 00 09 05 00 00
 24.527004 1  10              Rx   d 8 E9 58 28 00 35 00 32 00
 24.554584 1  14              Rx   d 8 28 64 C8 54 33 33 00 00
 24.554842 1  16              Rx   d 8 01 00 01 00 00 00 00 00
 24.556004 1  11              Rx   d 8 C5 97 28 00 5A 00 32 00
 24.556305 1  18              Rx   d 8 00 00 00 00 00 00 00 00
 26.565597 1  15              Rx   d 8 4C 40 00 00 09 05 00 00
 26.566759 1  10              Rx   d 8 73 58 28 00 22 00 30 00
 26.594339 1  14              Rx   d 8 20 64 88 54 33 33 00 00
 26.594640 1  16              Rx   d 8 01 00 01 00 00 00 00 00
 26.595802 1  11              Rx   d 8 30 98 28 00 6B 00 32 00
 26.596060 1  18              Rx   d 8 00 00 00 00 00 00 00 00
 28.605438 1  15              Rx   d 8 4C 40 00 00 09 05 00 00
 28.606643 1  10              Rx   d 8 EF 58 28 00 49 00 32 00
 28.634180 1  14              Rx   d 8 1C 64 C8 54 33 11 00 00
 28.634438 1  16              Rx   d 8 01 00 01 00 00 00 00 00
 28.635643 1  11              Rx   d 8 F7 9C 28 00 0C 05 32 00
 28.635944 1  18              Rx   d 8 00 00 00 00 00 00 00 00
 30.645279 1  15              Rx   d 8 4C 40 00 00 09 05 00 00
 30.646484 1  10              Rx   d 8 BF 5C 28 00 8E 02 32 00
 30.674064 1  14              Rx   d 8 18 64 10 56 33 0C 00 00
 30.674322 1  16              Rx   d 8 01 00 01 00 00 00 00 00
 30.675484 1  11              Rx   d 8 E5 8D 28 00 76 08 2F 00
 30.675742 1  18              Rx   d 8 00 00 00 00 00 00 00 00
 32.685077 1  15              Rx   d 8 4C 40 00 00 09 05 00 00
 32.686282 1  10              Rx   d 8 90 4C 28 00 61 0C 32 00
 32.713819 1  14              Rx   d 8 18 64 14 57 33 15 00 00
 32.714120 1  16              Rx   d 8 01 00 01 00 00 00 00 00
 32.715282 1  11              Rx   d 8 54 93 28 00 85 00 31 00
 32.715540 1  18              Rx   d 8 00 00 00 00 00 00 00 00
 34.725004 1  15              Rx   d 8 4C 40 00 00 09 05 00 00
 34.726037 1  10              Rx   d 8 13 47 26 00 EB 0B 16 00
 34.753746 1  14              Rx   d 8 1C 64 14 57 33 00 00 00
 34.754004 1  16              Rx   d 8 01 00 00 00 00 00 00 00
 34.755209 1  11              Rx   d 8 9A 93 28 00 1D 00 32 00
 34.755467 1  18              Rx   d 8 00 00 00 00 00 00 00 00
 36.764931 1  15              Rx   d 8 4C 40 00 00 09 05 00 00
 36.766136 1  10              Rx   d 8 B0 5D 26 00 2D 00 32 00
 36.793673 1  14              Rx   d 8 1C 64 90 56 33 00 00 00
 36.793974 1  16              Rx   d 8 01 00 00 00 00 00 00 00
 36.795136 1  11              Rx   d 8 82 93 28 00 1A 00 32 00
 36.795394 1  18              Rx   d 8 00 00 00 00 00 00 00 00
 38.804858 1  15              Rx   d 8 4C 40 00 00 09 05 00 00
 38.806063 1  10              Rx   d 8 29 5F 28 00 0E 01 2F 00
 38.833600 1  14              Rx   d 8 18 64 10 56 33 00 00 00
 38.833858 1  16              Rx   d 8 01 00 00 00 00 00 00 00
 38.835063 1  11              Rx   d 8 D8 91 28 00 C6 03 32 00
 38.835364 1  18              Rx   d 8 00 00 00 00 00 00 00 00
 40.844613 1  15              Rx   d 8 4C 40 00 00 09 05 00 00
 40.845775 1  10              Rx   d 8 EE 5E 28 00 01 00 32 00
 40.873355 1  14              Rx   d 8 10 64 D0 55 33 00 00 00
 40.873613 1  16              Rx   d 8 01 00 00 00 00 00 00 00
 40.874818 1  11              Rx   d 8 C9 93 28 00 16 00 32 00
 40.875076 1  18              Rx   d 8 00 00 00 00 00 00 00 00
 42.884282 1  15              Rx   d 8 4C 40 00 00 09 05 00 00
 42.885444 1  10              Rx   d 8 ED 5E 28 00 01 00 32 00
 42.913024 1  14              Rx   d 8 0C 64 10 56 33 00 00 00
 42.913325 1  16              Rx   d 8 01 00 00 00 00 00 00 00
 42.914444 1  11              Rx   d 8 A9 93 28 00 06 00 31 00
 42.914745 1  18              Rx   d 8 00 00 00 00 00 00 00 00
 44.923951 1  15              Rx   d 8 4C 40 00 00 09 05 00 00
 44.925112 1  10              Rx   d 8 EB 5E 28 00 01 00 32 00
 44.952736 1  14              Rx   d 8 04 64 10 56 33 00 00 00
 44.952994 1  16              Rx   d 8 01 00 00 00 00 00 00 00
 44.954156 1  11              Rx   d 8 9E 93 28 00 03 00 32 00
 44.954414 1  18              Rx   d 8 00 00 00 00 00 00 00 00
 46.963663 1  15              Rx   d 8 4C 40 00 00 09 05 00 00
 46.964824 1  10              Rx   d 8 EB 5E 28 00 01 00 32 00
 46.992405 1  14              Rx   d 8 04 64 10 56 33 00 00 00
 46.992663 1  16              Rx   d 8 01 00 00 00 00 00 00 00
 46.993868 1  11              Rx   d 8 74 93 28 00 19 00 32 00
 46.994126 1  18              Rx   d 8 00 00 00 00 00 00 00 00
 49.003375 1  15              Rx   d 8 4C 40 00 00 09 05 00 00
 49.004536 1  10              Rx   d 8 EB 5E 28 00 01 00 32 00
 49.032160 1  14              Rx   d 8 00 64 10 56 33 00 00 00
 49.032418 1  16              Rx   d 8 01 00 00 00 00 00 00 00
 49.033580 1  11              Rx   d 8 65 93 28 00 03 00 32 00
 49.033838 1  18              Rx   d 8 00 00 00 00 00 00 00 00
 51.043129 1  15              Rx   d 8 4C 40 00 00 09 05 00 00
 51.044291 1  10              Rx   d 8 E8 5E 28 00 02 00 32 00
 51.071872 1  14              Rx   d 8 FC 63 10 56 33 00 00 00
 51.072130 1  16              Rx   d 8 01 00 00 00 00 00 00 00
 51.073334 1  11              Rx   d 8 39 93 28 00 18 00 32 00
 51.073593 1  18              Rx   d 8 00 00 00 00 00 00 00 00
 53.082755 1  15              Rx   d 8 4C 40 00 00 09 05 00 00
 53.083917 1  10              Rx   d 8 E5 5E 28 00 01 00 32 00
 53.111540 1  14              Rx   d 8 FC 63 10 56 33 00 00 00
 53.111799 1  16              Rx   d 8 01 00 00 00 00 00 00 00
 53.112960 1  11              Rx   d 8 21 93 28 00 05 00 31 00
 53.113218 1  18              Rx   d 8 00 00 00 00 00 00 00 00
 55.122510 1  15              Rx   d 8 4C 40 00 00 09 05 00 00
 55.123672 1  10              Rx   d 8 E5 5E 28 00 01 00 32 00
 55.151252 1  14              Rx   d 8 F4 63 10 56 33 00 00 00
 55.151510 1  16              Rx   d 8 01 00 00 00 00 00 00 00
 55.152672 1  11              Rx   d 8 11 93 28 00 04 00 32 00
 55.152973 1  18              Rx   d 8 00 00 00 00 00 00 00 00
 57.162353 1  15              Rx   d 8 4C 40 00 00 09 05 00 00
 57.163558 1  10              Rx   d 8 E4 5E 28 00 01 00 32 00
 57.191144 1  14              Rx   d 8 F0 63 10 56 33 00 00 00
 57.191402 1  16              Rx   d 8 01 00 00 00 00 00 00 00
 57.192564 1  11              Rx   d 8 FF 92 28 00 03 00 30 00
 57.192822 1  18              Rx   d 8 00 00 00 00 00 00 00 00
 59.202574 1  15              Rx   d 8 4C 40 00 00 09 05 00 00
 59.203736 1  10              Rx   d 8 E5 5E 28 00 00 00 32 00
 59.231321 1  14              Rx   d 8 E8 63 D0 55 33 00 00 00
 59.231579 1  16              Rx   d 8 01 00 00 00 00 00 00 00
 59.232741 1  11              Rx   d 8 FA 92 28 00 01 00 32 00
 59.232999 1  18              Rx   d 8 00 00 00 00 00 00 00 00
 61.242751 1  15              Rx   d 8 4C 40 00 00 09 05 00 00
 61.243913 1  10              Rx   d 8 E5 5E 28 00 00 00 32 00
 61.271498 1  14              Rx   d 8 E8 63 10 56 33 00 00 00
 61.271800 1  16              Rx   d 8 01 00 00 00 00 00 00 00
 61.272918 1  11              Rx   d 8 F3 92 28 00 02 00 30 00
 61.273220 1  18              Rx   d 8 00 00 00 00 00 00 00 00
 63.282842 1  15              Rx   d 8 4C 40 00 00 09 05 00 00
 63.284004 1  10              Rx   d 8 E5 5E 28 00 00 00 32 00
 63.311589 1  14              Rx   d 8 E0 63 10 56 33 00 00 00
 63.311848 1  16              Rx   d 8 01 00 00 00 00 00 00 00
 63.313010 1  11              Rx   d 8 ED 92 28 00 07 00 2F 00
 63.313311 1  18              Rx   d 8 00 00 00 00 00 00 00 00
 65.322976 1  15              Rx   d 8 4C 40 00 00 09 05 00 00
 65.324138 1  10              Rx   d 8 E6 5E 28 00 00 00 32 00
 65.351724 1  14              Rx   d 8 DC 63 10 56 33 00 00 00
 65.351982 1  16              Rx   d 8 01 00 00 00 00 00 00 00
 65.353144 1  11              Rx   d 8 B4 92 28 00 05 00 32 00
 65.353402 1  18              Rx   d 8 00 00 00 00 00 00 00 00
 67.363110 1  15              Rx   d 8 4C 40 00 00 09 05 00 00
 67.364272 1  10              Rx   d 8 E6 5E 28 00 01 00 32 00
 67.391858 1  14              Rx   d 8 DC 63 10 56 33 00 00 00
 67.392116 1  16              Rx   d 8 01 00 00 00 00 00 00 00
 67.393278 1  11              Rx   d 8 B1 92 28 00 01 00 2F 00
 67.393536 1  18              Rx   d 8 00 00 00 00 00 00 00 00
 69.403288 1  15              Rx   d 8 4C 40 00 00 09 05 00 00
 69.404450 1  10              Rx   d 8 E6 5E 28 00 01 00 32 00
 254.611719 1  15              Rx   d 8 4C 40 00 00 09 05 00 00
 254.611975 1  10              Rx   d 8 79 70 2A 00 1F 07 32 00
 254.639196 1  14              Rx   d 8 C8 63 B8 5C 8E 00 00 00
 254.639452 1  16              Rx   d 8 01 00 00 00 00 00 00 00
 254.640647 1  11              Rx   d 8 6F 9B 28 00 2B 00 32 00
 254.640903 1  18              Rx   d 8 00 00 00 00 00 00 00 00
 254.641159 1  15              Rx   d 8 4C 40 00 00 09 05 00 00
 254.642353 1  10              Rx   d 8 EF 8C 2A 00 0A 02 30 00
 254.669916 1  14              Rx   d 8 C8 63 B8 5C 00 00 00 00
 254.670172 1  16              Rx   d 8 00 00 00 00 00 00 00 00
 254.671366 1  11              Rx   d 8 6F 9B 28 00 2B 00 32 00
 254.671622 1  18              Rx   d 8 00 00 00 00 00 00 00 00
 255.069653 1  15              Rx   d 8 4C 40 00 00 09 05 00 00
 255.070848 1  10              Rx   d 8 04 8C 2A 00 CC 00 31 00
 255.098197 1  14              Rx   d 8 C8 63 78 5C 0B 00 00 00
 255.098453 1  16              Rx   d 8 01 00 00 00 00 00 00 00
 255.099648 1  11              Rx   d 8 40 9C 28 00 73 00 32 00
 255.099904 1  18              Rx   d 8 00 00 00 00 00 00 00 00
 257.096150 1  15              Rx   d 8 4C 40 00 00 09 05 00 00
 257.097354 1  10              Rx   d 8 9D 8A 2A 00 5C 00 32 00
 257.124892 1  14              Rx   d 8 C0 63 74 5B 33 00 00 00
 257.125150 1  16              Rx   d 8 01 00 00 00 00 00 00 00
 257.126312 1  11              Rx   d 8 A2 9C 28 00 00 00 32 00
 257.126570 1  18              Rx   d 8 00 00 00 00 00 00 00 00
 259.135603 1  15              Rx   d 8 4C 40 00 00 09 05 00 00
 259.136765 1  10              Rx   d 8 EB 89 2A 00 2B 00 32 00
 259.164345 1  14              Rx   d 8 C4 63 EC 59 33 00 00 00
 259.164604 1  16              Rx   d 8 01 00 00 00 00 00 00 00
 259.165765 1  11              Rx   d 8 A2 9C 28 00 01 00 32 00
 259.166023 1  18              Rx   d 8 00 00 00 00 00 00 00 00
 261.174971 1  15              Rx   d 8 4C 40 00 00 09 05 00 00
 261.176176 1  10              Rx   d 8 71 89 2A 00 19 00 32 00
 261.203713 1  14              Rx   d 8 C8 63 68 59 33 00 00 00
 261.204014 1  16              Rx   d 8 01 00 00 00 00 00 00 00
 261.205176 1  11              Rx   d 8 A2 9C 28 00 01 00 31 00
 261.205434 1  18              Rx   d 8 00 00 00 00 00 00 00 00
 263.214339 1  15              Rx   d 8 4C 40 00 00 09 05 00 00
 263.215500 1  10              Rx   d 8 12 89 2A 00 18 00 32 00
 263.243081 1  14              Rx   d 8 C4 63 E8 58 33 00 00 00
 263.243339 1  16              Rx   d 8 01 00 00 00 00 00 00 00
 263.244501 1  11              Rx   d 8 A2 9C 28 00 01 00 32 00
 263.244759 1  18              Rx   d 8 00 00 00 00 00 00 00 00
 265.253749 1  15              Rx   d 8 4C 40 00 00 09 05 00 00
 265.254911 1  10              Rx   d 8 B5 88 2A 00 13 00 32 00
 265.282491 1  14              Rx   d 8 C0 63 24 58 33 00 00 00
 265.282750 1  16              Rx   d 8 01 00 00 00 00 00 00 00
 265.283911 1  11              Rx   d 8 A2 9C 28 00 01 00 32 00
 265.284170 1  18              Rx   d 8 00 00 00 00 00 00 00 00
 267.293160 1  15              Rx   d 8 4C 40 00 00 09 05 00 00
 267.294365 1  10              Rx   d 8 7F 88 2A 00 13 00 32 00
 267.321945 1  14              Rx   d 8 C0 63 A0 57 33 00 00 00
 267.322203 1  16              Rx   d 8 01 00 00 00 00 00 00 00
 267.323322 1  11              Rx   d 8 A2 9C 28 00 01 00 32 00
 267.323623 1  18              Rx   d 8 00 00 00 00 00 00 00 00
 269.332528 1  15              Rx   d 8 4C 40 00 00 09 05 00 00
 269.333690 1  10              Rx   d 8 42 88 2A 00 11 00 32 00
 269.361270 1  14              Rx   d 8 C4 63 20 57 33 00 00 00
 269.361528 1  16              Rx   d 8 01 00 00 00 00 00 00 00
 269.362690 1  11              Rx   d 8 A2 9C 28 00 01 00 32 00
 269.362948 1  18              Rx   d 8 00 00 00 00 00 00 00 00
 271.411954 1  15              Rx   d 8 4C 40 00 00 05 05 00 00
 271.413158 1  10              Rx   d 8 12 84 2A 00 0D 04 32 00
 271.440696 1  14              Rx   d 8 C0 63 9C 56 34 00 00 00
 271.440954 1  16              Rx   d 8 01 00 00 00 00 00 00 00
 271.442116 1  11              Rx   d 8 A2 9C 28 00 01 00 32 00
 271.442374 1  18              Rx   d 8 00 00 00 00 00 00 00 00
 273.451493 1  15              Rx   d 8 4C 40 00 00 05 05 00 00
 273.452655 1  10              Rx   d 8 F3 7F 2A 00 0C 00 32 00
 273.480236 1  14              Rx   d 8 C0 63 9C 56 33 00 00 00
 273.480494 1  16              Rx   d 8 01 00 00 00 00 00 00 00
 273.481655 1  11              Rx   d 8 A2 9C 28 00 01 00 32 00
 273.481914 1  18              Rx   d 8 00 00 00 00 00 00 00 00
 275.491033 1  15              Rx   d 8 4C 40 00 00 05 05 00 00
 275.492195 1  10              Rx   d 8 C8 7F 2A 00 12 00 32 00
 275.519775 1  14              Rx   d 8 C0 63 5C 56 33 00 00 00
 275.520033 1  16              Rx   d 8 01 00 00 00 00 00 00 00
 275.521195 1  11              Rx   d 8 A2 9C 28 00 01 00 32 00
 275.521453 1  18              Rx   d 8 00 00 00 00 00 00 00 00
 277.530659 1  15              Rx   d 8 4C 40 00 00 05 05 00 00
 277.531821 1  10              Rx   d 8 A0 7F 2A 00 0F 00 32 00
 277.559401 1  14              Rx   d 8 B8 63 5C 56 33 00 00 00
 277.559659 1  16              Rx   d 8 01 00 00 00 00 00 00 00
 277.560821 1  11              Rx   d 8 A2 9C 28 00 01 00 32 00
 277.561079 1  18              Rx   d 8 00 00 00 00 00 00 00 00
 279.570328 1  15              Rx   d 8 4C 40 00 00 05 05 00 00
 279.571490 1  10              Rx   d 8 7F 7F 2A 00 12 00 31 00
 279.599070 1  14              Rx   d 8 B4 63 18 56 33 00 00 00
 279.599328 1  16              Rx   d 8 01 00 00 00 00 00 00 00
 279.600490 1  11              Rx   d 8 A2 9C 28 00 01 00 32 00
 279.600748 1  18              Rx   d 8 00 00 00 00 00 00 00 00
 281.610040 1  15              Rx   d 8 4C 40 00 00 05 05 00 00
 281.611159 1  10              Rx   d 8 6D 7F 2A 00 0A 00 2F 00
 281.638782 1  14              Rx   d 8 B8 63 18 56 33 00 00 00
 281.639040 1  16              Rx   d 8 01 00 00 00 00 00 00 00
 281.640159 1  11              Rx   d 8 A2 9C 28 00 01 00 32 00
 281.640460 1  18              Rx   d 8 00 00 00 00 00 00 00 00
 283.649709 1  15              Rx   d 8 4C 40 00 00 05 05 00 00
 283.650871 1  10              Rx   d 8 7A 7F 2A 00 0D 00 30 00
 283.678451 1  14              Rx   d 8 AC 63 18 56 33 00 00 00
 283.678709 1  16              Rx   d 8 01 00 00 00 00 00 00 00
 283.679871 1  11              Rx   d 8 A2 9C 28 00 01 00 32 00
 283.680129 1  18              Rx   d 8 00 00 00 00 00 00 00 00
 285.689335 1  15              Rx   d 8 4C 40 00 00 05 05 00 00
 285.690539 1  10              Rx   d 8 72 7F 2A 00 0B 00 32 00
 285.718077 1  14              Rx   d 8 B4 63 5C 56 33 00 00 00
 285.718335 1  16              Rx   d 8 01 00 00 00 00 00 00 00
 285.719497 1  11              Rx   d 8 A2 9C 28 00 00 00 32 00
 285.719755 1  18              Rx   d 8 00 00 00 00 00 00 00 00
 287.728961 1  15              Rx   d 8 4C 40 00 00 05 05 00 00
 287.730122 1  10              Rx   d 8 60 7F 2A 00 0A 00 32 00
 287.757703 1  14              Rx   d 8 B4 63 5C 56 33 00 00 00
 287.757961 1  16              Rx   d 8 01 00 00 00 00 00 00 00
 287.759122 1  11              Rx   d 8 A2 9C 28 00 01 00 32 00
 287.759381 1  18              Rx   d 8 00 00 00 00 00 00 00 00
 289.768285 1  15              Rx   d 8 4C 40 00 00 05 05 00 00
 289.769447 1  10              Rx   d 8 51 7F 2A 00 0A 00 32 00
 289.797027 1  14              Rx   d 8 A8 63 5C 56 33 00 00 00
 289.797285 1  16              Rx   d 8 01 00 00 00 00 00 00 00
 289.798447 1  11              Rx   d 8 A2 9C 28 00 01 00 32 00
 289.798705 1  18              Rx   d 8 00 00 00 00 00 00 00 00
 291.807696 1  15              Rx   d 8 4C 40 00 00 05 05 00 00
 291.808858 1  10              Rx   d 8 3B 7F 2A 00 0B 00 32 00
 291.836438 1  14              Rx   d 8 A8 63 5C 56 33 00 00 00
 291.836696 1  16              Rx   d 8 01 00 00 00 00 00 00 00
 291.837858 1  11              Rx   d 8 A2 9C 28 00 01 00 32 00
 291.838116 1  18              Rx   d 8 00 00 00 00 00 00 00 00
 293.847280 1  15              Rx   d 8 4C 40 00 00 05 05 00 00
 293.848485 1  10              Rx   d 8 27 7F 2A 00 09 00 31 00
 293.876030 1  14              Rx   d 8 A8 63 5C 56 33 00 00 00
 293.876331 1  16              Rx   d 8 01 00 00 00 00 00 00 00
 293.877450 1  11              Rx   d 8 A2 9C 28 00 01 00 32 00
 293.877752 1  18              Rx   d 8 00 00 00 00 00 00 00 00
 295.887302 1  15              Rx   d 8 4C 40 00 00 05 05 00 00
 295.888508 1  10              Rx   d 8 1B 7F 2A 00 07 00 32 00
 295.916096 1  14              Rx   d 8 A0 63 5C 56 33 00 00 00
 295.916354 1  16              Rx   d 8 01 00 00 00 00 00 00 00
 295.917473 1  11              Rx   d 8 A2 9C 28 00 01 00 32 00
 295.917774 1  18              Rx   d 8 00 00 00 00 00 00 00 00
 297.967424 1  15              Rx   d 8 4C 40 00 00 0A 05 00 00
 297.968629 1  10              Rx   d 8 2D 79 2A 00 D3 04 32 00
 297.996174 1  14              Rx   d 8 A0 63 9C 56 14 00 00 00
 297.996433 1  16              Rx   d 8 01 00 00 00 00 00 00 00
 297.997595 1  11              Rx   d 8 A2 9C 28 00 01 00 32 00
 297.997853 1  18              Rx   d 8 00 00 00 00 00 00 00 00
 300.007447 1  15              Rx   d 8 4C 40 00 00 0A 05 00 00
 300.008609 1  10              Rx   d 8 32 75 2A 00 0B 00 30 00
 300.036240 1  14              Rx   d 8 94 63 9C 56 00 00 00 00
 300.036498 1  16              Rx   d 8 00 00 00 00 00 00 00 00
 300.037660 1  11              Rx   d 8 A2 9C 28 00 01 00 32 00
 300.037918 1  18              Rx   d 8 00 00 00 00 00 00 00 00
 302.047512 1  15              Rx   d 8 4C 40 00 00 0A 05 00 00
 302.048674 1  10              Rx   d 8 27 75 2A 00 0E 00 32 00
 302.076262 1  14              Rx   d 8 98 63 9C 56 00 00 00 00
 302.076521 1  16              Rx   d 8 00 00 00 00 00 00 00 00
 302.077683 1  11              Rx   d 8 A2 9C 28 00 01 00 32 00
 302.077941 1  18              Rx   d 8 00 00 00 00 00 00 00 00
 304.087578 1  15              Rx   d 8 4C 40 00 00 0A 05 00 00
 304.088740 1  10              Rx   d 8 29 75 2A 00 1D 00 31 00
 304.116328 1  14              Rx   d 8 94 63 5C 56 00 00 00 00
 304.116586 1  16              Rx   d 8 00 00 00 00 00 00 00 00
 304.117748 1  11              Rx   d 8 A2 9C 28 00 00 00 32 00
 304.118006 1  18              Rx   d 8 00 00 00 00 00 00 00 00
 306.127687 1  15              Rx   d 8 4C 40 00 00 0A 05 00 00
 306.128849 1  10              Rx   d 8 44 75 2A 00 11 00 31 00
 306.156437 1  14              Rx   d 8 94 63 5C 56 00 00 00 00
 306.156695 1  16              Rx   d 8 00 00 00 00 00 00 00 00
 306.157857 1  11              Rx   d 8 A2 9C 28 00 01 00 32 00
 306.158115 1  18              Rx   d 8 00 00 00 00 00 00 00 00
 308.167838 1  15              Rx   d 8 4C 40 00 00 0A 05 00 00
 308.169000 1  10              Rx   d 8 3E 75 2A 00 0D 00 32 00
 308.196588 1  14              Rx   d 8 94 63 5C 56 00 00 00 00
 308.196889 1  16              Rx   d 8 00 00 00 00 00 00 00 00
 308.198008 1  11              Rx   d 8 A2 9C 28 00 01 00 32 00
 308.198310 1  18              Rx   d 8 00 00 00 00 00 00 00 00
 310.207990 1  15              Rx   d 8 4C 40 00 00 0A 05 00 00
 310.209195 1  10              Rx   d 8 39 75 2A 00 10 00 31 00
 310.236783 1  14              Rx   d 8 8C 63 5C 56 00 00 00 00
 310.237041 1  16              Rx   d 8 00 00 00 00 00 00 00 00
 310.238203 1  11              Rx   d 8 A2 9C 28 00 01 00 32 00
 310.238461 1  18              Rx   d 8 00 00 00 00 00 00 00 00
 312.248141 1  15              Rx   d 8 4C 40 00 00 0A 05 00 00
 312.249303 1  10              Rx   d 8 33 75 2A 00 10 00 31 00
 312.276891 1  14              Rx   d 8 88 63 5C 56 00 00 00 00
 312.277193 1  16              Rx   d 8 00 00 00 00 00 00 00 00
 312.278312 1  11              Rx   d 8 A3 9C 28 00 01 00 32 00
 312.278570 1  18              Rx   d 8 00 00 00 00 00 00 00 00
 314.288293 1  15              Rx   d 8 4C 40 00 00 0A 05 00 00
 314.289455 1  10              Rx   d 8 21 75 2A 00 0C 00 30 00
 314.317043 1  14              Rx   d 8 88 63 5C 56 00 00 00 00
 314.317301 1  16              Rx   d 8 00 00 00 00 00 00 00 00
 314.318463 1  11              Rx   d 8 A2 9C 28 00 01 00 32 00
 314.318722 1  18              Rx   d 8 00 00 00 00 00 00 00 00
 316.328488 1  15              Rx   d 8 4C 40 00 00 0A 05 00 00
 316.329650 1  10              Rx   d 8 17 75 2A 00 11 00 30 00
 316.357238 1  14              Rx   d 8 84 63 5C 56 00 00 00 00
 316.357496 1  16              Rx   d 8 00 00 00 00 00 00 00 00
 316.358658 1  11              Rx   d 8 A2 9C 28 00 01 00 32 00
 316.358916 1  18              Rx   d 8 00 00 00 00 00 00 00 00
 318.368639 1  15              Rx   d 8 4C 40 00 00 0A 05 00 00
 318.369844 1  10              Rx   d 8 0B 75 2A 00 0D 00 32 00
 318.397432 1  14              Rx   d 8 84 63 5C 56 00 00 00 00
 318.397691 1  16              Rx   d 8 00 00 00 00 00 00 00 00
 318.398853 1  11              Rx   d 8 A2 9C 28 00 01 00 32 00
 318.399111 1  18              Rx   d 8 00 00 00 00 00 00 00 00
 320.408877 1  15              Rx   d 8 4C 40 00 00 0A 05 00 00
 320.410039 1  10              Rx   d 8 03 75 2A 00 0A 00 32 00
 320.437627 1  14              Rx   d 8 84 63 5C 56 00 00 00 00
 320.437885 1  16              Rx   d 8 00 00 00 00 00 00 00 00
 320.439047 1  11              Rx   d 8 A2 9C 28 00 01 00 32 00
 320.439306 1  18              Rx   d 8 00 00 00 00 00 00 00 00
 322.448943 1  15              Rx   d 8 4C 40 00 00 0A 05 00 00
 322.450148 1  10              Rx   d 8 EE 74 2A 00 12 00 31 00
 322.477693 1  14              Rx   d 8 7C 63 5C 56 00 00 00 00
 322.477951 1  16              Rx   d 8 00 00 00 00 00 00 00 00
 322.479113 1  11              Rx   d 8 A2 9C 28 00 01 00 32 00
 322.479371 1  18              Rx   d 8 00 00 00 00 00 00 00 00
 324.488965 1  15              Rx   d 8 4C 40 00 00 0A 05 00 00
 324.490127 1  10              Rx   d 8 E5 74 2A 00 0F 00 31 00
 324.517715 1  14              Rx   d 8 84 63 5C 56 00 00 00 00
 324.517973 1  16              Rx   d 8 00 00 00 00 00 00 00 00
 324.519136 1  11              Rx   d 8 A2 9C 28 00 01 00 32 00
 324.519394 1  18              Rx   d 8 00 00 00 00 00 00 00 00
 326.528988 1  15              Rx   d 8 4C 40 00 00 0A 05 00 00
 326.530150 1  10              Rx   d 8 EA 74 2A 00 11 00 31 00
 326.557781 1  14              Rx   d 8 7C 63 5C 56 00 00 00 00
 326.558039 1  16              Rx   d 8 00 00 00 00 00 00 00 00
 326.559158 1  11              Rx   d 8 A3 9C 28 00 01 00 32 00
 326.559459 1  18              Rx   d 8 00 00 00 00 00 00 00 00
 328.569096 1  15              Rx   d 8 4C 40 00 00 0A 05 00 00
 328.570258 1  10              Rx   d 8 ED 74 2A 00 16 00 31 00
 328.597846 1  14              Rx   d 8 78 63 9C 56 00 00 00 00
 328.598105 1  16              Rx   d 8 00 00 00 00 00 00 00 00
 328.599267 1  11              Rx   d 8 A2 9C 28 00 01 00 32 00
 328.599525 1  18              Rx   d 8 00 00 00 00 00 00 00 00
 330.609291 1  15              Rx   d 8 4C 40 00 00 0A 05 00 00
 330.610453 1  10              Rx   d 8 0B 75 2A 00 11 00 31 00
 330.638041 1  14              Rx   d 8 78 63 5C 56 00 00 00 00
 330.638299 1  16              Rx   d 8 00 00 00 00 00 00 00 00
 330.639461 1  11              Rx   d 8 A2 9C 28 00 01 00 32 00
 330.639720 1  18              Rx   d 8 00 00 00 00 00 00 00 00
 332.649572 1  15              Rx   d 8 4C 40 00 00 0A 05 00 00
 332.650734 1  10              Rx   d 8 E7 74 2A 00 0D 00 32 00
 332.678322 1  14              Rx   d 8 70 63 9C 56 00 00 00 00
 332.678580 1  16              Rx   d 8 00 00 00 00 00 00 00 00
 332.679742 1  11              Rx   d 8 A3 9C 28 00 01 00 32 00
 332.680000 1  18              Rx   d 8 00 00 00 00 00 00 00 00
 334.689853 1  15              Rx   d 8 4C 40 00 00 0A 05 00 00
 334.691015 1  10              Rx   d 8 E2 74 2A 00 0A 00 32 00
 334.718603 1  14              Rx   d 8 6C 63 A8 56 00 00 00 00
 334.718861 1  16              Rx   d 8 00 00 00 00 00 00 00 00
 334.720023 1  11              Rx   d 8 A2 9C 28 00 01 00 31 00
 334.720281 1  18              Rx   d 8 00 00 00 00 00 00 00 00
 336.730133 1  15              Rx   d 8 4C 40 00 00 0A 05 00 00
 336.731295 1  10              Rx   d 8 D3 74 2A 00 0A 00 31 00
 336.758883 1  14              Rx   d 8 70 63 A8 56 00 00 00 00
 336.759185 1  16              Rx   d 8 00 00 00 00 00 00 00 00
 336.760347 1  11              Rx   d 8 A2 9C 28 00 01 00 31 00
 336.760605 1  18              Rx   d 8 00 00 00 00 00 00 00 00
 338.770457 1  15              Rx   d 8 4C 40 00 00 0A 05 00 00
 338.771662 1  10              Rx   d 8 DC 74 2A 00 0E 00 32 00
 338.799250 1  14              Rx   d 8 64 63 A8 56 00 00 00 00
 338.799508 1  16              Rx   d 8 00 00 00 00 00 00 00 00
 338.800670 1  11              Rx   d 8 A2 9C 28 00 01 00 32 00
 338.800929 1  18              Rx   d 8 00 00 00 00 00 00 00 00
 340.810738 1  15              Rx   d 8 4C 40 00 00 0A 05 00 00
 340.811943 1  10              Rx   d 8 E2 74 2A 00 0F 00 32 00
 340.839531 1  14              Rx   d 8 60 63 A8 56 00 00 00 00
 340.839789 1  16              Rx   d 8 00 00 00 00 00 00 00 00
 340.840951 1  11              Rx   d 8 A2 9C 28 00 01 00 32 00
 340.841209 1  18              Rx   d 8 00 00 00 00 00 00 00 00
 342.851062 1  15              Rx   d 8 4C 40 00 00 0A 05 00 00
 342.852224 1  10              Rx   d 8 C7 74 2A 00 0D 00 32 00
 342.879855 1  14              Rx   d 8 64 63 64 56 00 00 00 00
 342.880113 1  16              Rx   d 8 00 00 00 00 00 00 00 00
 342.881275 1  11              Rx   d 8 A2 9C 28 00 01 00 31 00
 342.881533 1  18              Rx   d 8 00 00 00 00 00 00 00 00
 344.891342 1  15              Rx   d 8 4C 40 00 00 0A 05 00 00
 344.892504 1  10              Rx   d 8 C5 74 2A 00 18 00 32 00
 344.920092 1  14              Rx   d 8 60 63 64 56 00 00 00 00
 344.920351 1  16              Rx   d 8 00 00 00 00 00 00 00 00
 344.921513 1  11              Rx   d 8 A2 9C 28 00 01 00 32 00
 344.921771 1  18              Rx   d 8 00 00 00 00 00 00 00 00
 346.931494 1  15              Rx   d 8 4C 40 00 00 0A 05 00 00
 346.932699 1  10              Rx   d 8 A3 74 2A 00 24 00 32 00
 346.960287 1  14              Rx   d 8 64 63 64 56 00 00 00 00
 346.960545 1  16              Rx   d 8 00 00 00 00 00 00 00 00
 346.961707 1  11              Rx   d 8 A3 9C 28 00 01 00 32 00
 346.961966 1  18              Rx   d 8 00 00 00 00 00 00 00 00
 348.971732 1  15              Rx   d 8 4C 40 00 00 0A 05 00 00
 348.972894 1  10              Rx   d 8 9A 74 2A 00 1B 00 32 00
 349.000482 1  14              Rx   d 8 60 63 A8 56 00 00 00 00
 349.000740 1  16              Rx   d 8 00 00 00 00 00 00 00 00
 349.001902 1  11              Rx   d 8 A3 9C 28 00 01 00 32 00
 349.002160 1  18              Rx   d 8 00 00 00 00 00 00 00 00
