date Mon Feb 12 09:58:53.969 PM 2024
base hex  timestamps absolute
internal events logged
Begin Triggerblock Wed Dec 31 07:06:47.627 PM 1969
 0.000000 Start of measurement
 0.000000 1  18              Rx   d 8 00 00 00 00 00 00 00 00
 4.236164 1  15              Rx   d 8 44 40 00 00 05 04 00 00
 4.236412 1  10              Rx   d 8 F1 F4 28 00 05 00 32 00
 4.254869 1  1A              Tx   d 8 05 04 0A 09 00 00 00 00
 4.255118 1  ErrorFrame
 4.264950 1  14              Rx   d 8 2C 64 A0 4D 00 00 00 00
 4.265209 1  16              Rx   d 8 00 00 00 00 00 00 00 00
 4.265891 1  11              Rx   d 8 26 B4 28 00 02 00 32 00
 4.266150 1  18              Rx   d 8 00 00 00 00 00 00 00 00
 4.266399 1  15              Rx   d 8 08 00 00 00 05 04 00 00
 4.267083 1  10              Rx   d 8 E8 F4 28 00 04 00 31 00
 4.294955 1  14              Rx   d 8 2C 64 A8 4D 00 00 00 00
 4.295209 1  16              Rx   d 8 00 00 00 00 00 00 00 00
 4.295892 1  11              Rx   d 8 26 B4 28 00 02 00 32 00
 4.296146 1  18              Rx   d 8 00 00 00 00 00 00 00 00
 4.306628 1  2A              Tx   d 8 0D 0B 0B 07 00 00 00 00
 4.306868 1  ErrorFrame
 4.358117 1  3A              Tx   d 8 09 0A 0D 0A 00 00 00 00
 4.358354 1  ErrorFrame
 4.409622 1  4A              Tx   d 8 0A 0B 0A 09 00 00 00 00
 4.409868 1  ErrorFrame
 4.409868 1  ErrorFrame
 5.770787 1  15              Rx   d 8 44 40 00 00 05 04 00 00
 5.771484 1  10              Rx   d 8 EF F4 28 00 07 00 32 00
 5.799057 1  14              Rx   d 8 28 64 A8 4D 00 00 00 00
 5.799311 1  16              Rx   d 8 00 00 00 00 00 00 00 00
 5.799993 1  11              Rx   d 8 2B B4 28 00 03 00 30 00
 5.800255 1  18              Rx   d 8 00 00 00 00 00 00 00 00
 5.800255 1  18              Rx   d 8 00 00 00 00 00 00 00 00
 7.690883 1  15              Rx   d 8 44 40 00 00 05 04 00 00
 7.691572 1  10              Rx   d 8 F0 F4 28 00 07 00 32 00
 7.719147 1  14              Rx   d 8 20 64 A8 4D 00 00 00 00
 7.719398 1  16              Rx   d 8 00 00 00 00 00 00 00 00
 7.720087 1  11              Rx   d 8 2C B4 28 00 02 00 32 00
 7.720339 1  18              Rx   d 8 00 00 00 00 00 00 00 00
 7.720339 1  18              Rx   d 8 00 00 00 00 00 00 00 00
 9.611050 1  15              Rx   d 8 44 40 00 00 05 04 00 00
 9.611748 1  10              Rx   d 8 F4 F4 28 00 06 00 32 00
 9.639316 1  14              Rx   d 8 1C 64 A8 4D 00 00 00 00
 9.639576 1  16              Rx   d 8 00 00 00 00 00 00 00 00
 9.640251 1  11              Rx   d 8 2E B4 28 00 02 00 30 00
 9.640511 1  18              Rx   d 8 00 00 00 00 00 00 00 00
 9.640511 1  18              Rx   d 8 00 00 00 00 00 00 00 00
 11.531199 1  15              Rx   d 8 44 40 00 00 05 04 00 00
 11.531895 1  10              Rx   d 8 F5 F4 28 00 05 00 31 00
 11.559470 1  14              Rx   d 8 18 64 E8 4D 00 00 00 00
 11.559732 1  16              Rx   d 8 00 00 00 00 00 00 00 00
 11.560417 1  11              Rx   d 8 30 B4 28 00 02 00 31 00
 11.560669 1  18              Rx   d 8 00 00 00 00 00 00 00 00
 11.560669 1  18              Rx   d 8 00 00 00 00 00 00 00 00
 13.451459 1  15              Rx   d 8 44 40 00 00 05 04 00 00
 13.452156 1  10              Rx   d 8 F7 F4 28 00 06 00 32 00
 13.479732 1  14              Rx   d 8 10 64 E8 4D 00 00 00 00
 13.479992 1  16              Rx   d 8 00 00 00 00 00 00 00 00
 13.480663 1  11              Rx   d 8 31 B4 28 00 02 00 31 00
 13.480925 1  18              Rx   d 8 00 00 00 00 00 00 00 00
 13.480925 1  18              Rx   d 8 00 00 00 00 00 00 00 00
 15.351531 1  15              Rx   d 8 4C 40 00 00 05 04 00 00
 15.352229 1  10              Rx   d 8 F7 F4 28 00 06 00 32 00
 15.379794 1  14              Rx   d 8 10 64 E8 4D 00 00 00 00
 15.380054 1  16              Rx   d 8 00 00 00 00 00 00 00 00
 15.380734 1  11              Rx   d 8 31 B4 28 00 02 00 32 00
 15.380987 1  18              Rx   d 8 00 00 00 00 00 00 00 00
 15.380987 1  18              Rx   d 8 00 00 00 00 00 00 00 00
 17.271550 1  15              Rx   d 8 44 40 00 00 05 04 00 00
 17.272247 1  10              Rx   d 8 F9 F4 28 00 05 00 32 00
 17.299814 1  14              Rx   d 8 0C 64 E8 4D 00 00 00 00
 17.300077 1  16              Rx   d 8 00 00 00 00 00 00 00 00
 17.300757 1  11              Rx   d 8 33 B4 28 00 02 00 32 00
 17.301018 1  18              Rx   d 8 00 00 00 00 00 00 00 00
 17.301018 1  18              Rx   d 8 00 00 00 00 00 00 00 00
 19.191755 1  15              Rx   d 8 44 40 00 00 05 04 00 00
 19.192451 1  10              Rx   d 8 F7 F4 28 00 06 00 32 00
 19.220020 1  14              Rx   d 8 04 64 E8 4D 00 00 00 00
 19.220281 1  16              Rx   d 8 00 00 00 00 00 00 00 00
 19.220961 1  11              Rx   d 8 32 B4 28 00 01 00 32 00
 19.221215 1  18              Rx   d 8 00 00 00 00 00 00 00 00
 19.221215 1  18              Rx   d 8 00 00 00 00 00 00 00 00
 21.111894 1  15              Rx   d 8 44 40 00 00 05 04 00 00
 21.112599 1  10              Rx   d 8 FD F4 28 00 06 00 32 00
 21.140167 1  14              Rx   d 8 04 64 E8 4D 00 00 00 00
 21.140427 1  16              Rx   d 8 00 00 00 00 00 00 00 00
 21.141112 1  11              Rx   d 8 34 B4 28 00 02 00 31 00
 21.141363 1  18              Rx   d 8 00 00 00 00 00 00 00 00
 21.141363 1  18              Rx   d 8 00 00 00 00 00 00 00 00
 23.032986 1  15              Rx   d 8 00 00 00 00 05 04 00 00
 23.033675 1  10              Rx   d 8 FD F4 28 00 07 00 32 00
 23.061374 1  14              Rx   d 8 04 64 E8 4D 00 00 00 00
 23.061636 1  16              Rx   d 8 00 00 00 00 00 00 00 00
 23.062319 1  11              Rx   d 8 35 B4 28 00 02 00 32 00
 23.062577 1  18              Rx   d 8 00 00 00 00 00 00 00 00
 23.062577 1  18              Rx   d 8 00 00 00 00 00 00 00 00
 24.952349 1  15              Rx   d 8 44 40 00 00 05 04 00 00
 24.953037 1  10              Rx   d 8 FE F4 28 00 07 00 32 00
 24.980615 1  14              Rx   d 8 00 64 E8 4D 00 00 00 00
 24.980878 1  16              Rx   d 8 00 00 00 00 00 00 00 00
 24.981551 1  11              Rx   d 8 36 B4 28 00 01 00 32 00
 24.981808 1  18              Rx   d 8 00 00 00 00 00 00 00 00
 24.981808 1  18              Rx   d 8 00 00 00 00 00 00 00 00
 26.872345 1  15              Rx   d 8 44 40 00 00 05 04 00 00
 26.873047 1  10              Rx   d 8 FF F4 28 00 06 00 32 00
 26.900616 1  14              Rx   d 8 00 64 E8 4D 00 00 00 00
 26.900876 1  16              Rx   d 8 00 00 00 00 00 00 00 00
 26.901550 1  11              Rx   d 8 36 B4 28 00 01 00 32 00
 26.901808 1  18              Rx   d 8 00 00 00 00 00 00 00 00
 26.901808 1  18              Rx   d 8 00 00 00 00 00 00 00 00
 28.792388 1  15              Rx   d 8 44 40 00 00 05 04 00 00
 28.793084 1  10              Rx   d 8 FE F4 28 00 07 00 32 00
 28.820652 1  14              Rx   d 8 FC 63 2C 4E 00 00 00 00
 28.820904 1  16              Rx   d 8 00 00 00 00 00 00 00 00
 28.821578 1  11              Rx   d 8 37 B4 28 00 01 00 2F 00
 28.821836 1  18              Rx   d 8 00 00 00 00 00 00 00 00
 28.821836 1  18              Rx   d 8 00 00 00 00 00 00 00 00
 30.712568 1  15              Rx   d 8 4C 40 00 00 05 04 00 00
 30.713266 1  10              Rx   d 8 FF F4 28 00 06 00 32 00
 30.740835 1  14              Rx   d 8 F4 63 2C 4E 00 00 00 00
 30.741096 1  16              Rx   d 8 00 00 00 00 00 00 00 00
 30.741773 1  11              Rx   d 8 37 B4 28 00 01 00 32 00
 30.742033 1  18              Rx   d 8 00 00 00 00 00 00 00 00
 30.742033 1  18              Rx   d 8 00 00 00 00 00 00 00 00
 32.612771 1  15              Rx   d 8 44 40 00 00 05 04 00 00
 32.613460 1  10              Rx   d 8 01 F5 28 00 07 00 32 00
 32.641037 1  14              Rx   d 8 FC 63 6C 4E 00 00 00 00
 32.641292 1  16              Rx   d 8 00 00 00 00 00 00 00 00
 32.641980 1  11              Rx   d 8 39 B4 28 00 02 00 31 00
 32.642235 1  18              Rx   d 8 00 00 00 00 00 00 00 00
 32.642235 1  18              Rx   d 8 00 00 00 00 00 00 00 00
 34.532960 1  15              Rx   d 8 44 40 00 00 05 04 00 00
 34.533657 1  10              Rx   d 8 03 F5 28 00 06 00 32 00
 34.561235 1  14              Rx   d 8 F4 63 6C 4E 00 00 00 00
 34.561488 1  16              Rx   d 8 00 00 00 00 00 00 00 00
 34.562168 1  11              Rx   d 8 3B B4 28 00 02 00 32 00
 34.562428 1  18              Rx   d 8 00 00 00 00 00 00 00 00
 34.562428 1  18              Rx   d 8 00 00 00 00 00 00 00 00
 36.453107 1  15              Rx   d 8 44 40 00 00 05 04 00 00
 36.453803 1  10              Rx   d 8 06 F5 28 00 06 00 32 00
 36.481381 1  14              Rx   d 8 F0 63 6C 4E 00 00 00 00
 36.481642 1  16              Rx   d 8 00 00 00 00 00 00 00 00
 36.482318 1  11              Rx   d 8 3D B4 28 00 01 00 32 00
 36.482578 1  18              Rx   d 8 00 00 00 00 00 00 00 00
 36.482578 1  18              Rx   d 8 00 00 00 00 00 00 00 00
 38.373285 1  15              Rx   d 8 44 40 00 00 05 04 00 00
 38.373981 1  10              Rx   d 8 08 F5 28 00 06 00 32 00
 38.401551 1  14              Rx   d 8 F0 63 2C 4E 00 00 00 00
 38.401811 1  16              Rx   d 8 00 00 00 00 00 00 00 00
 38.402487 1  11              Rx   d 8 3D B4 28 00 02 00 32 00
 38.402749 1  18              Rx   d 8 00 00 00 00 00 00 00 00
 38.402749 1  18              Rx   d 8 00 00 00 00 00 00 00 00
 40.293407 1  15              Rx   d 8 44 40 00 00 05 04 00 00
 40.294087 1  10              Rx   d 8 06 F5 28 00 04 00 31 00
 40.321671 1  14              Rx   d 8 E0 63 E8 4D 00 00 00 00
 40.321931 1  16              Rx   d 8 00 00 00 00 00 00 00 00
 40.322613 1  11              Rx   d 8 3C B4 28 00 02 00 31 00
 40.322873 1  18              Rx   d 8 00 00 00 00 00 00 00 00
 40.322873 1  18              Rx   d 8 00 00 00 00 00 00 00 00
 42.214364 1  15              Rx   d 8 00 00 00 00 05 04 00 00
 42.215049 1  10              Rx   d 8 0B F5 28 00 07 00 31 00
 42.242749 1  14              Rx   d 8 E8 63 A8 4D 00 00 00 00
 42.243002 1  16              Rx   d 8 00 00 00 00 00 00 00 00
 42.243692 1  11              Rx   d 8 3F B4 28 00 02 00 32 00
 42.243944 1  18              Rx   d 8 00 00 00 00 00 00 00 00
 42.243944 1  18              Rx   d 8 00 00 00 00 00 00 00 00
 44.133498 1  15              Rx   d 8 44 40 00 00 05 04 00 00
 44.134194 1  10              Rx   d 8 0D F5 28 00 07 00 32 00
 44.161769 1  14              Rx   d 8 D4 63 A8 4D 00 00 00 00
 44.162022 1  16              Rx   d 8 00 00 00 00 00 00 00 00
 44.162697 1  11              Rx   d 8 40 B4 28 00 02 00 31 00
 44.162958 1  18              Rx   d 8 00 00 00 00 00 00 00 00
 44.162958 1  18              Rx   d 8 00 00 00 00 00 00 00 00
 46.053592 1  15              Rx   d 8 4C 40 00 00 05 04 00 00
 46.054289 1  10              Rx   d 8 0F F5 28 00 07 00 32 00
 46.081862 1  14              Rx   d 8 DC 63 68 4D 00 00 00 00
 46.082113 1  16              Rx   d 8 00 00 00 00 00 00 00 00
 46.082807 1  11              Rx   d 8 40 B4 28 00 02 00 30 00
 46.083057 1  18              Rx   d 8 00 00 00 00 00 00 00 00
 46.083057 1  18              Rx   d 8 00 00 00 00 00 00 00 00
 47.953742 1  15              Rx   d 8 44 40 00 00 05 04 00 00
 47.954430 1  10              Rx   d 8 10 F5 28 00 07 00 32 00
 47.982005 1  14              Rx   d 8 D4 63 68 4D 00 00 00 00
 47.982266 1  16              Rx   d 8 00 00 00 00 00 00 00 00
 47.982941 1  11              Rx   d 8 42 B4 28 00 02 00 32 00
 47.983202 1  18              Rx   d 8 00 00 00 00 00 00 00 00
 47.983202 1  18              Rx   d 8 00 00 00 00 00 00 00 00
 49.873856 1  15              Rx   d 8 44 40 00 00 05 04 00 00
 49.874552 1  10              Rx   d 8 15 F5 28 00 08 00 32 00
 49.902130 1  14              Rx   d 8 C8 63 A8 4D 00 00 00 00
 49.902390 1  16              Rx   d 8 00 00 00 00 00 00 00 00
 49.903065 1  11              Rx   d 8 43 B4 28 00 02 00 31 00
 49.903325 1  18              Rx   d 8 00 00 00 00 00 00 00 00
 49.903325 1  18              Rx   d 8 00 00 00 00 00 00 00 00
 51.794038 1  15              Rx   d 8 44 40 00 00 05 04 00 00
 51.794736 1  10              Rx   d 8 17 F5 28 00 09 00 32 00
 51.822313 1  14              Rx   d 8 C8 63 B0 4D 00 00 00 00
 51.822565 1  16              Rx   d 8 00 00 00 00 00 00 00 00
 51.823245 1  11              Rx   d 8 44 B4 28 00 02 00 31 00
 51.823504 1  18              Rx   d 8 00 00 00 00 00 00 00 00
 51.823504 1  18              Rx   d 8 00 00 00 00 00 00 00 00
 53.714244 1  15              Rx   d 8 44 40 00 00 05 04 00 00
 53.714940 1  10              Rx   d 8 19 F5 28 00 09 00 32 00
 53.742508 1  14              Rx   d 8 C4 63 B0 4D 00 00 00 00
 53.742768 1  16              Rx   d 8 00 00 00 00 00 00 00 00
 53.743446 1  11              Rx   d 8 46 B4 28 00 02 00 32 00
 53.743704 1  18              Rx   d 8 00 00 00 00 00 00 00 00
 53.743704 1  18              Rx   d 8 00 00 00 00 00 00 00 00
 55.634450 1  15              Rx   d 8 44 40 00 00 05 04 00 00
 55.635146 1  10              Rx   d 8 1A F5 28 00 08 00 32 00
 55.662723 1  14              Rx   d 8 C0 63 F4 4D 00 00 00 00
 55.662974 1  16              Rx   d 8 00 00 00 00 00 00 00 00
 55.663656 1  11              Rx   d 8 46 B4 28 00 01 00 32 00
 55.663907 1  18              Rx   d 8 00 00 00 00 00 00 00 00
 55.663907 1  18              Rx   d 8 00 00 00 00 00 00 00 00
 57.555480 1  15              Rx   d 8 00 00 00 00 05 04 00 00
 57.556169 1  10              Rx   d 8 19 F5 28 00 08 00 32 00
 57.583876 1  14              Rx   d 8 C0 63 F4 4D 00 00 00 00
 57.584129 1  16              Rx   d 8 00 00 00 00 00 00 00 00
 57.584815 1  11              Rx   d 8 45 B4 28 00 01 00 31 00
 57.585074 1  18              Rx   d 8 00 00 00 00 00 00 00 00
 57.585074 1  18              Rx   d 8 00 00 00 00 00 00 00 00
 59.474679 1  15              Rx   d 8 44 40 00 00 05 04 00 00
 59.475377 1  10              Rx   d 8 18 F5 28 00 08 00 32 00
 59.502954 1  14              Rx   d 8 C0 63 34 4E 00 00 00 00
 59.503208 1  16              Rx   d 8 00 00 00 00 00 00 00 00
 59.503878 1  11              Rx   d 8 46 B4 28 00 01 00 32 00
 59.504138 1  18              Rx   d 8 00 00 00 00 00 00 00 00
 59.504138 1  18              Rx   d 8 00 00 00 00 00 00 00 00
 61.394934 1  15              Rx   d 8 44 40 00 00 05 04 00 00
 61.395630 1  10              Rx   d 8 1C F5 28 00 09 00 31 00
 61.423199 1  14              Rx   d 8 B8 63 34 4E 00 00 00 00
 61.423461 1  16              Rx   d 8 00 00 00 00 00 00 00 00
 61.424136 1  11              Rx   d 8 46 B4 28 00 02 00 32 00
 61.424394 1  18              Rx   d 8 00 00 00 00 00 00 00 00
 61.424394 1  18              Rx   d 8 00 00 00 00 00 00 00 00
 63.295225 1  15              Rx   d 8 4C 40 00 00 05 04 00 00
 63.295930 1  10              Rx   d 8 E3 F4 28 00 6A 00 32 00
 63.323498 1  14              Rx   d 8 B8 63 34 4E 00 00 00 00
 63.323751 1  16              Rx   d 8 00 00 00 00 00 00 00 00
 63.324442 1  11              Rx   d 8 40 B4 28 00 0D 00 31 00
 63.324698 1  18              Rx   d 8 00 00 00 00 00 00 00 00
 63.324698 1  18              Rx   d 8 00 00 00 00 00 00 00 00
 65.215509 1  15              Rx   d 8 44 40 00 00 05 04 00 00
 65.216129 1  10              Rx   d 8 45 6F 27 00 56 2B 07 00
 65.243765 1  14              Rx   d 8 B8 63 F8 4E 26 00 00 00
 65.244027 1  16              Rx   d 8 01 00 00 00 00 00 00 00
 65.244712 1  11              Rx   d 8 F4 B3 28 00 21 00 31 00
 65.244965 1  18              Rx   d 8 00 00 00 00 00 00 00 00
 65.244965 1  18              Rx   d 8 00 00 00 00 00 00 00 00
 67.135712 1  15              Rx   d 8 44 40 00 00 05 04 00 00
 67.136415 1  10              Rx   d 8 EB 85 25 00 61 0A 32 00
 67.163981 1  14              Rx   d 8 C4 63 BC 4F 60 00 00 00
 67.164233 1  16              Rx   d 8 01 00 00 00 00 00 00 00
 67.164912 1  11              Rx   d 8 E4 B3 28 00 04 00 31 00
 67.165174 1  18              Rx   d 8 00 00 00 00 00 00 00 00
 67.165174 1  18              Rx   d 8 00 00 00 00 00 00 00 00
 69.055836 1  15              Rx   d 8 44 40 00 00 05 04 00 00
 69.056541 1  10              Rx   d 8 0E 6C 25 00 D9 06 32 00
 69.084101 1  14              Rx   d 8 D0 63 80 50 60 00 00 00
 69.084361 1  16              Rx   d 8 01 00 00 00 00 00 00 00
 69.085043 1  11              Rx   d 8 DF B3 28 00 03 00 31 00
 69.085298 1  18              Rx   d 8 00 00 00 00 00 00 00 00
 69.085298 1  18              Rx   d 8 00 00 00 00 00 00 00 00
 70.975975 1  15              Rx   d 8 44 40 00 00 05 04 00 00
 70.976686 1  10              Rx   d 8 03 59 25 00 3D 04 32 00
 71.004237 1  14              Rx   d 8 DC 63 80 50 60 00 00 00
 71.004497 1  16              Rx   d 8 01 00 00 00 00 00 00 00
 71.005184 1  11              Rx   d 8 DA B3 28 00 04 00 32 00
 71.005435 1  18              Rx   d 8 00 00 00 00 00 00 00 00
 71.005435 1  18              Rx   d 8 00 00 00 00 00 00 00 00
 72.896199 1  15              Rx   d 8 44 40 00 00 05 04 00 00
 72.896902 1  10              Rx   d 8 4C 50 25 00 A5 00 32 00
 72.924469 1  14              Rx   d 8 F4 63 B8 50 60 00 00 00
 72.924729 1  16              Rx   d 8 01 00 00 00 00 00 00 00
 72.925411 1  11              Rx   d 8 D3 B3 28 00 04 00 32 00
 72.925671 1  18              Rx   d 8 00 00 00 00 00 00 00 00
 72.925671 1  18              Rx   d 8 00 00 00 00 00 00 00 00
 74.816407 1  15              Rx   d 8 44 40 00 00 05 04 00 00
 74.817112 1  10              Rx   d 8 BE 4D 25 00 FF 00 32 00
 74.844678 1  14              Rx   d 8 00 64 FC 51 60 00 00 00
 74.844940 1  16              Rx   d 8 01 00 00 00 00 00 00 00
 74.845618 1  11              Rx   d 8 CF B3 28 00 03 00 32 00
 74.845879 1  18              Rx   d 8 00 00 00 00 00 00 00 00
 74.845879 1  18              Rx   d 8 00 00 00 00 00 00 00 00
 76.737343 1  15              Rx   d 8 00 00 00 00 05 04 00 00
 76.738048 1  10              Rx   d 8 9D 4A 25 00 15 01 32 00
 76.765736 1  14              Rx   d 8 10 64 D0 55 60 00 00 00
 76.765989 1  16              Rx   d 8 01 00 00 00 00 00 00 00
 76.766671 1  11              Rx   d 8 CD B3 28 00 03 00 31 00
 76.766924 1  18              Rx   d 8 00 00 00 00 00 00 00 00
 76.766924 1  18              Rx   d 8 00 00 00 00 00 00 00 00
 78.656443 1  15              Rx   d 8 4C 40 00 00 05 04 00 00
 78.657157 1  10              Rx   d 8 1C 47 25 00 9F 01 32 00
 78.684713 1  14              Rx   d 8 1C 64 9C 58 60 00 00 00
 78.684973 1  16              Rx   d 8 01 00 00 00 00 00 00 00
 78.685646 1  11              Rx   d 8 CD B3 28 00 02 00 30 00
 78.685907 1  18              Rx   d 8 00 00 00 00 00 00 00 00
 78.685907 1  18              Rx   d 8 00 00 00 00 00 00 00 00
 80.556366 1  15              Rx   d 8 44 40 00 00 05 04 00 00
 80.557071 1  10              Rx   d 8 BE 64 25 00 8B 13 30 00
 80.584630 1  14              Rx   d 8 20 64 A0 59 5F 00 00 00
 80.584890 1  16              Rx   d 8 01 00 00 00 00 00 00 00
 80.585576 1  11              Rx   d 8 BC B3 28 00 0F 00 30 00
 80.585829 1  18              Rx   d 8 00 00 00 00 00 00 00 00
 80.585829 1  18              Rx   d 8 00 00 00 00 00 00 00 00
 82.476390 1  15              Rx   d 8 44 40 00 00 05 04 00 00
 82.477006 1  10              Rx   d 8 9E C1 28 00 30 33 05 00
 82.504656 1  14              Rx   d 8 20 64 98 57 09 00 00 00
 82.504909 1  16              Rx   d 8 01 00 00 00 00 00 00 00
 82.505604 1  11              Rx   d 8 CA B3 28 00 43 00 32 00
 82.505857 1  18              Rx   d 8 00 00 00 00 00 00 00 00
 82.505857 1  18              Rx   d 8 00 00 00 00 00 00 00 00
 84.396490 1  15              Rx   d 8 44 40 00 00 05 04 00 00
 84.397178 1  10              Rx   d 8 CC F4 28 00 07 00 32 00
 84.424762 1  14              Rx   d 8 20 64 88 54 00 00 00 00
 84.425022 1  16              Rx   d 8 00 00 00 00 00 00 00 00
 84.425699 1  11              Rx   d 8 99 B3 28 00 03 00 32 00
 84.425959 1  18              Rx   d 8 00 00 00 00 00 00 00 00
 84.425959 1  18              Rx   d 8 00 00 00 00 00 00 00 00
 86.316744 1  15              Rx   d 8 44 40 00 00 05 04 00 00
 86.317433 1  10              Rx   d 8 D3 F4 28 00 06 00 32 00
 86.345017 1  14              Rx   d 8 1C 64 3C 52 00 00 00 00
 86.345270 1  16              Rx   d 8 00 00 00 00 00 00 00 00
 86.345957 1  11              Rx   d 8 8F B3 28 00 05 00 32 00
 86.346216 1  18              Rx   d 8 00 00 00 00 00 00 00 00
 86.346216 1  18              Rx   d 8 00 00 00 00 00 00 00 00
 88.237956 1  15              Rx   d 8 00 00 00 00 05 04 00 00
 88.238651 1  10              Rx   d 8 D5 F4 28 00 06 00 32 00
 88.266358 1  14              Rx   d 8 18 64 B8 50 00 00 00 00
 88.266609 1  16              Rx   d 8 00 00 00 00 00 00 00 00
 88.267284 1  11              Rx   d 8 86 B3 28 00 02 00 32 00
 88.267544 1  18              Rx   d 8 00 00 00 00 00 00 00 00
 88.267544 1  18              Rx   d 8 00 00 00 00 00 00 00 00
 90.157356 1  15              Rx   d 8 44 40 00 00 05 04 00 00
 90.158050 1  10              Rx   d 8 D7 F4 28 00 06 00 32 00
 90.185629 1  14              Rx   d 8 10 64 70 4F 00 00 00 00
 90.185890 1  16              Rx   d 8 00 00 00 00 00 00 00 00
 90.186567 1  11              Rx   d 8 82 B3 28 00 02 00 30 00
 90.186817 1  18              Rx   d 8 00 00 00 00 00 00 00 00
 90.186817 1  18              Rx   d 8 00 00 00 00 00 00 00 00
 92.077566 1  15              Rx   d 8 44 40 00 00 05 04 00 00
 92.078262 1  10              Rx   d 8 DC F4 28 00 06 00 32 00
 92.105839 1  14              Rx   d 8 10 64 AC 4E 00 00 00 00
 92.106094 1  16              Rx   d 8 00 00 00 00 00 00 00 00
 92.106775 1  11              Rx   d 8 81 B3 28 00 02 00 2F 00
 92.107026 1  18              Rx   d 8 00 00 00 00 00 00 00 00
 92.107026 1  18              Rx   d 8 00 00 00 00 00 00 00 00
 93.997715 1  15              Rx   d 8 4C 40 00 00 05 04 00 00
 93.998413 1  10              Rx   d 8 DD F4 28 00 07 00 32 00
 94.025981 1  14              Rx   d 8 0C 64 AC 4E 00 00 00 00
 94.026240 1  16              Rx   d 8 00 00 00 00 00 00 00 00
 94.026916 1  11              Rx   d 8 7E B3 28 00 02 00 31 00
 94.027176 1  18              Rx   d 8 00 00 00 00 00 00 00 00
 94.027176 1  18              Rx   d 8 00 00 00 00 00 00 00 00
 95.897892 1  15              Rx   d 8 44 40 00 00 05 04 00 00
 95.898580 1  10              Rx   d 8 DB F4 28 00 07 00 32 00
 95.926157 1  14              Rx   d 8 0C 64 F0 4E 00 00 00 00
 95.926418 1  16              Rx   d 8 00 00 00 00 00 00 00 00
 95.927099 1  11              Rx   d 8 79 B3 28 00 01 00 32 00
 95.927356 1  18              Rx   d 8 00 00 00 00 00 00 00 00
 95.927356 1  18              Rx   d 8 00 00 00 00 00 00 00 00
 97.818085 1  15              Rx   d 8 44 40 00 00 05 04 00 00
 97.818772 1  10              Rx   d 8 E0 F4 28 00 06 00 32 00
 97.846358 1  14              Rx   d 8 04 64 70 4F 00 00 00 00
 97.846611 1  16              Rx   d 8 00 00 00 00 00 00 00 00
 97.847289 1  11              Rx   d 8 79 B3 28 00 01 00 31 00
 97.847550 1  18              Rx   d 8 00 00 00 00 00 00 00 00
 97.847550 1  18              Rx   d 8 00 00 00 00 00 00 00 00
 99.738173 1  15              Rx   d 8 44 40 00 00 05 04 00 00
 99.738860 1  10              Rx   d 8 E0 F4 28 00 06 00 31 00
 99.766446 1  14              Rx   d 8 00 64 B0 4F 00 00 00 00
 99.766699 1  16              Rx   d 8 00 00 00 00 00 00 00 00
 99.767390 1  11              Rx   d 8 79 B3 28 00 01 00 32 00
 99.767643 1  18              Rx   d 8 00 00 00 00 00 00 00 00
 99.767643 1  18              Rx   d 8 00 00 00 00 00 00 00 00
 101.658342 1  15              Rx   d 8 44 40 00 00 05 04 00 00
 101.659037 1  10              Rx   d 8 E5 F4 28 00 07 00 32 00
 101.686612 1  14              Rx   d 8 00 64 B0 4F 00 00 00 00
 101.686872 1  16              Rx   d 8 00 00 00 00 00 00 00 00
 101.687551 1  11              Rx   d 8 7A B3 28 00 01 00 32 00
 101.687804 1  18              Rx   d 8 00 00 00 00 00 00 00 00
 101.687804 1  18              Rx   d 8 00 00 00 00 00 00 00 00
 103.579246 1  15              Rx   d 8 00 00 00 00 05 04 00 00
 103.579933 1  10              Rx   d 8 E2 F4 28 00 07 00 32 00
 103.607640 1  14              Rx   d 8 FC 63 B0 4F 00 00 00 00
 103.607900 1  16              Rx   d 8 00 00 00 00 00 00 00 00
 103.608569 1  11              Rx   d 8 78 B3 28 00 01 00 31 00
 103.608829 1  18              Rx   d 8 00 00 00 00 00 00 00 00
 103.608829 1  18              Rx   d 8 00 00 00 00 00 00 00 00
 105.498372 1  15              Rx   d 8 44 40 00 00 05 04 00 00
 105.499077 1  10              Rx   d 8 E5 F4 28 00 06 00 32 00
 105.526645 1  14              Rx   d 8 F0 63 70 4F 00 00 00 00
 105.526906 1  16              Rx   d 8 00 00 00 00 00 00 00 00
 105.527587 1  11              Rx   d 8 79 B3 28 00 01 00 32 00
 105.527840 1  18              Rx   d 8 00 00 00 00 00 00 00 00
 105.527840 1  18              Rx   d 8 00 00 00 00 00 00 00 00
 107.418597 1  15              Rx   d 8 44 40 00 00 05 04 00 00
 107.419294 1  10              Rx   d 8 E6 F4 28 00 06 00 32 00
 107.446874 1  14              Rx   d 8 F0 63 70 4F 00 00 00 00
 107.447126 1  16              Rx   d 8 00 00 00 00 00 00 00 00
 107.447802 1  11              Rx   d 8 79 B3 28 00 01 00 31 00
 107.448061 1  18              Rx   d 8 00 00 00 00 00 00 00 00
 107.448061 1  18              Rx   d 8 00 00 00 00 00 00 00 00
 109.338837 1  15              Rx   d 8 44 40 00 00 05 04 00 00
 109.339534 1  10              Rx   d 8 E7 F4 28 00 07 00 32 00
 109.367109 1  14              Rx   d 8 E8 63 70 4F 00 00 00 00
 109.367370 1  16              Rx   d 8 00 00 00 00 00 00 00 00
 109.368047 1  11              Rx   d 8 79 B3 28 00 01 00 31 00
 109.368302 1  18              Rx   d 8 00 00 00 00 00 00 00 00
 109.368302 1  18              Rx   d 8 00 00 00 00 00 00 00 00
 111.239026 1  15              Rx   d 8 4C 40 00 00 05 04 00 00
 111.239715 1  10              Rx   d 8 EA F4 28 00 06 00 32 00
 111.267292 1  14              Rx   d 8 E0 63 70 4F 00 00 00 00
 111.267553 1  16              Rx   d 8 00 00 00 00 00 00 00 00
 111.268228 1  11              Rx   d 8 78 B3 28 00 01 00 32 00
 111.268488 1  18              Rx   d 8 00 00 00 00 00 00 00 00
 111.268488 1  18              Rx   d 8 00 00 00 00 00 00 00 00
 113.159307 1  15              Rx   d 8 44 40 00 00 05 04 00 00
 113.160011 1  10              Rx   d 8 E9 F4 28 00 06 00 32 00
 113.187579 1  14              Rx   d 8 E0 63 70 4F 00 00 00 00
 113.187839 1  16              Rx   d 8 00 00 00 00 00 00 00 00
 113.188520 1  11              Rx   d 8 79 B3 28 00 01 00 32 00
 113.188772 1  18              Rx   d 8 00 00 00 00 00 00 00 00
 113.188772 1  18              Rx   d 8 00 00 00 00 00 00 00 00
 115.079505 1  15              Rx   d 8 44 40 00 00 05 04 00 00
 115.080194 1  10              Rx   d 8 EB F4 28 00 06 00 32 00
 115.107770 1  14              Rx   d 8 DC 63 30 4F 00 00 00 00
 115.108023 1  16              Rx   d 8 00 00 00 00 00 00 00 00
 115.108701 1  11              Rx   d 8 78 B3 28 00 01 00 31 00
 115.108952 1  18              Rx   d 8 00 00 00 00 00 00 00 00
 115.108952 1  18              Rx   d 8 00 00 00 00 00 00 00 00
 116.999714 1  15              Rx   d 8 44 40 00 00 05 04 00 00
 117.000411 1  10              Rx   d 8 EE F4 28 00 07 00 32 00
 117.027987 1  14              Rx   d 8 DC 63 F0 4E 00 00 00 00
 117.028241 1  16              Rx   d 8 00 00 00 00 00 00 00 00
 117.028922 1  11              Rx   d 8 7A B3 28 00 02 00 31 00
 117.029183 1  18              Rx   d 8 00 00 00 00 00 00 00 00
 117.029183 1  18              Rx   d 8 00 00 00 00 00 00 00 00
 118.920023 1  15              Rx   d 8 44 40 00 00 05 04 00 00
 118.920720 1  10              Rx   d 8 ED F4 28 00 06 00 32 00
 118.948298 1  14              Rx   d 8 DC 63 F0 4E 00 00 00 00
 118.948551 1  16              Rx   d 8 00 00 00 00 00 00 00 00
 118.949237 1  11              Rx   d 8 79 B3 28 00 02 00 31 00
 118.949495 1  18              Rx   d 8 00 00 00 00 00 00 00 00
 118.949495 1  18              Rx   d 8 00 00 00 00 00 00 00 00
 120.840349 1  15              Rx   d 8 44 40 00 00 05 04 00 00
 120.841035 1  10              Rx   d 8 EF F4 28 00 05 00 32 00
 120.868613 1  14              Rx   d 8 D4 63 30 4F 00 00 00 00
 120.868866 1  16              Rx   d 8 00 00 00 00 00 00 00 00
 120.869551 1  11              Rx   d 8 7A B3 28 00 01 00 32 00
 120.869802 1  18              Rx   d 8 00 00 00 00 00 00 00 00
 120.869802 1  18              Rx   d 8 00 00 00 00 00 00 00 00
 122.760638 1  15              Rx   d 8 44 40 00 00 05 04 00 00
 122.761335 1  10              Rx   d 8 F1 F4 28 00 05 00 32 00
 122.788911 1  14              Rx   d 8 D4 63 70 4F 00 00 00 00
 122.789164 1  16              Rx   d 8 00 00 00 00 00 00 00 00
 122.789839 1  11              Rx   d 8 7A B3 28 00 01 00 32 00
 122.790099 1  18              Rx   d 8 00 00 00 00 00 00 00 00
 122.790099 1  18              Rx   d 8 00 00 00 00 00 00 00 00
 124.680899 1  15              Rx   d 8 44 40 00 00 05 04 00 00
 124.681597 1  10              Rx   d 8 F0 F4 28 00 07 00 32 00
 124.709174 1  14              Rx   d 8 D4 63 70 4F 00 00 00 00
 124.709427 1  16              Rx   d 8 00 00 00 00 00 00 00 00
 124.710110 1  11              Rx   d 8 79 B3 28 00 02 00 32 00
 124.710368 1  18              Rx   d 8 00 00 00 00 00 00 00 00
 124.710368 1  18              Rx   d 8 00 00 00 00 00 00 00 00
 126.601109 1  15              Rx   d 8 4C 40 00 00 05 04 00 00
 126.601812 1  10              Rx   d 8 F1 F4 28 00 06 00 32 00
 126.629389 1  14              Rx   d 8 D0 63 30 4F 00 00 00 00
 126.629649 1  16              Rx   d 8 00 00 00 00 00 00 00 00
 126.630330 1  11              Rx   d 8 7A B3 28 00 02 00 32 00
 126.630592 1  18              Rx   d 8 00 00 00 00 00 00 00 00
 126.630592 1  18              Rx   d 8 00 00 00 00 00 00 00 00
 128.501370 1  15              Rx   d 8 44 40 00 00 05 04 00 00
 128.502055 1  10              Rx   d 8 F2 F4 28 00 07 00 32 00
 128.529630 1  14              Rx   d 8 C8 63 38 4F 00 00 00 00
 128.529889 1  16              Rx   d 8 00 00 00 00 00 00 00 00
 128.530572 1  11              Rx   d 8 7A B3 28 00 01 00 32 00
 128.530825 1  18              Rx   d 8 00 00 00 00 00 00 00 00
 128.530825 1  18              Rx   d 8 00 00 00 00 00 00 00 00
 130.421624 1  15              Rx   d 8 44 40 00 00 05 04 00 00
 130.422320 1  10              Rx   d 8 F5 F4 28 00 08 00 32 00
 130.449896 1  14              Rx   d 8 C8 63 B8 4E 00 00 00 00
 130.450150 1  16              Rx   d 8 00 00 00 00 00 00 00 00
 130.450834 1  11              Rx   d 8 7D B3 28 00 02 00 32 00
 130.451088 1  18              Rx   d 8 00 00 00 00 00 00 00 00
 130.451088 1  18              Rx   d 8 00 00 00 00 00 00 00 00
 132.341793 1  15              Rx   d 8 44 40 00 00 05 04 00 00
 132.342486 1  10              Rx   d 8 F7 F4 28 00 07 00 32 00
 132.370059 1  14              Rx   d 8 C4 63 B8 4E 00 00 00 00
 132.370312 1  16              Rx   d 8 00 00 00 00 00 00 00 00
 132.370996 1  11              Rx   d 8 7E B3 28 00 02 00 32 00
 132.371259 1  18              Rx   d 8 00 00 00 00 00 00 00 00
 132.371259 1  18              Rx   d 8 00 00 00 00 00 00 00 00
 134.262057 1  15              Rx   d 8 44 40 00 00 05 04 00 00
 134.262755 1  10              Rx   d 8 F6 F4 28 00 08 00 32 00
 134.290330 1  14              Rx   d 8 C4 63 F8 4E 00 00 00 00
 134.290581 1  16              Rx   d 8 00 00 00 00 00 00 00 00
 134.291261 1  11              Rx   d 8 7B B3 28 00 02 00 32 00
 134.291522 1  18              Rx   d 8 00 00 00 00 00 00 00 00
 134.291522 1  18              Rx   d 8 00 00 00 00 00 00 00 00
 136.182270 1  15              Rx   d 8 44 40 00 00 05 04 00 00
 136.182967 1  10              Rx   d 8 F8 F4 28 00 07 00 32 00
 136.210533 1  14              Rx   d 8 C4 63 38 4F 00 00 00 00
 136.210793 1  16              Rx   d 8 00 00 00 00 00 00 00 00
 136.211476 1  11              Rx   d 8 7C B3 28 00 02 00 31 00
 136.211728 1  18              Rx   d 8 00 00 00 00 00 00 00 00
 136.211728 1  18              Rx   d 8 00 00 00 00 00 00 00 00
 138.102424 1  15              Rx   d 8 44 40 00 00 05 04 00 00
 138.103112 1  10              Rx   d 8 F3 F4 28 00 08 00 32 00
 138.130685 1  14              Rx   d 8 C4 63 BC 4F 00 00 00 00
 138.130947 1  16              Rx   d 8 00 00 00 00 00 00 00 00
 138.131617 1  11              Rx   d 8 78 B3 28 00 01 00 32 00
 138.131877 1  18              Rx   d 8 00 00 00 00 00 00 00 00
 138.131877 1  18              Rx   d 8 00 00 00 00 00 00 00 00
 140.022712 1  15              Rx   d 8 44 40 00 00 05 04 00 00
 140.023400 1  10              Rx   d 8 F2 F4 28 00 06 00 30 00
 140.050982 1  14              Rx   d 8 C0 63 7C 4F 00 00 00 00
 140.051245 1  16              Rx   d 8 00 00 00 00 00 00 00 00
 140.051921 1  11              Rx   d 8 78 B3 28 00 01 00 31 00
 140.052174 1  18              Rx   d 8 00 00 00 00 00 00 00 00
 140.052174 1  18              Rx   d 8 00 00 00 00 00 00 00 00
 141.943889 1  15              Rx   d 8 00 00 00 00 05 04 00 00
 141.944578 1  10              Rx   d 8 F6 F4 28 00 08 00 32 00
 141.972283 1  14              Rx   d 8 C0 63 38 4F 00 00 00 00
 141.972536 1  16              Rx   d 8 00 00 00 00 00 00 00 00
 141.973220 1  11              Rx   d 8 79 B3 28 00 01 00 31 00
 141.973471 1  18              Rx   d 8 00 00 00 00 00 00 00 00
 141.973471 1  18              Rx   d 8 00 00 00 00 00 00 00 00
 143.843347 1  15              Rx   d 8 44 40 00 00 05 04 00 00
 143.844042 1  10              Rx   d 8 F9 F4 28 00 08 00 32 00
 143.871619 1  14              Rx   d 8 B8 63 38 4F 00 00 00 00
 143.871872 1  16              Rx   d 8 00 00 00 00 00 00 00 00
 143.872556 1  11              Rx   d 8 79 B3 28 00 01 00 32 00
 143.872816 1  18              Rx   d 8 00 00 00 00 00 00 00 00
 143.872816 1  18              Rx   d 8 00 00 00 00 00 00 00 00
 145.763790 1  15              Rx   d 8 44 40 00 00 05 04 00 00
 145.764477 1  10              Rx   d 8 F6 F4 28 00 08 00 32 00
 145.792061 1  14              Rx   d 8 C0 63 38 4F 00 00 00 00
 145.792323 1  16              Rx   d 8 00 00 00 00 00 00 00 00
 145.792994 1  11              Rx   d 8 78 B3 28 00 01 00 32 00
 145.793255 1  18              Rx   d 8 00 00 00 00 00 00 00 00
 145.793255 1  18              Rx   d 8 00 00 00 00 00 00 00 00
 147.684162 1  15              Rx   d 8 44 40 00 00 05 04 00 00
 147.684857 1  10              Rx   d 8 F9 F4 28 00 07 00 32 00
 147.712434 1  14              Rx   d 8 C0 63 7C 4F 00 00 00 00
 147.712686 1  16              Rx   d 8 00 00 00 00 00 00 00 00
 147.713362 1  11              Rx   d 8 79 B3 28 00 01 00 30 00
 147.713618 1  18              Rx   d 8 00 00 00 00 00 00 00 00
 147.713618 1  18              Rx   d 8 00 00 00 00 00 00 00 00
 149.604516 1  15              Rx   d 8 44 40 00 00 05 04 00 00
 149.605212 1  10              Rx   d 8 F9 F4 28 00 07 00 32 00
 149.632786 1  14              Rx   d 8 B8 63 7C 4F 00 00 00 00
 149.633046 1  16              Rx   d 8 00 00 00 00 00 00 00 00
 149.633719 1  11              Rx   d 8 7A B3 28 00 02 00 31 00
 149.633977 1  18              Rx   d 8 00 00 00 00 00 00 00 00
 149.633977 1  18              Rx   d 8 00 00 00 00 00 00 00 00
 151.524869 1  15              Rx   d 8 44 40 00 00 05 04 00 00
 151.525567 1  10              Rx   d 8 FD F4 28 00 08 00 32 00
 151.553145 1  14              Rx   d 8 B8 63 7C 4F 00 00 00 00
 151.553397 1  16              Rx   d 8 00 00 00 00 00 00 00 00
 151.554082 1  11              Rx   d 8 7A B3 28 00 02 00 30 00
 151.554333 1  18              Rx   d 8 00 00 00 00 00 00 00 00
 151.554333 1  18              Rx   d 8 00 00 00 00 00 00 00 00
 153.446133 1  15              Rx   d 8 00 00 00 00 05 04 00 00
 153.446821 1  10              Rx   d 8 FB F4 28 00 08 00 31 00
 153.474530 1  14              Rx   d 8 B8 63 7C 4F 00 00 00 00
 153.474783 1  16              Rx   d 8 00 00 00 00 00 00 00 00
 153.475463 1  11              Rx   d 8 7B B3 28 00 02 00 32 00
 153.475722 1  18              Rx   d 8 00 00 00 00 00 00 00 00
 153.475722 1  18              Rx   d 8 00 00 00 00 00 00 00 00
 155.365587 1  15              Rx   d 8 44 40 00 00 05 04 00 00
 155.366283 1  10              Rx   d 8 FB F4 28 00 08 00 32 00
 155.393859 1  14              Rx   d 8 B4 63 7C 4F 00 00 00 00
 155.394108 1  16              Rx   d 8 00 00 00 00 00 00 00 00
 155.394783 1  11              Rx   d 8 7A B3 28 00 02 00 30 00
 155.395043 1  18              Rx   d 8 00 00 00 00 00 00 00 00
 155.395043 1  18              Rx   d 8 00 00 00 00 00 00 00 00
 157.286788 1  15              Rx   d 8 08 00 00 00 05 04 00 00
 157.287492 1  10              Rx   d 8 01 F5 28 00 08 00 32 00
 157.315191 1  14              Rx   d 8 AC 63 7C 4F 00 00 00 00
 157.315444 1  16              Rx   d 8 00 00 00 00 00 00 00 00
 157.316126 1  11              Rx   d 8 7B B3 28 00 02 00 32 00
 157.316385 1  18              Rx   d 8 00 00 00 00 00 00 00 00
 157.316385 1  18              Rx   d 8 00 00 00 00 00 00 00 00
 159.186128 1  15              Rx   d 8 4C 40 00 00 05 04 00 00
 159.186823 1  10              Rx   d 8 00 F5 28 00 07 00 32 00
 159.214391 1  14              Rx   d 8 B8 63 7C 4F 00 00 00 00
 159.214653 1  16              Rx   d 8 00 00 00 00 00 00 00 00
 159.215330 1  11              Rx   d 8 7C B3 28 00 02 00 32 00
 159.215590 1  18              Rx   d 8 00 00 00 00 00 00 00 00
 159.215590 1  18              Rx   d 8 00 00 00 00 00 00 00 00
 161.106291 1  15              Rx   d 8 44 40 00 00 05 04 00 00
 161.106987 1  10              Rx   d 8 00 F5 28 00 08 00 31 00
 161.134556 1  14              Rx   d 8 B4 63 7C 4F 00 00 00 00
 161.134817 1  16              Rx   d 8 00 00 00 00 00 00 00 00
 161.135497 1  11              Rx   d 8 7E B3 28 00 02 00 30 00
 161.135758 1  18              Rx   d 8 00 00 00 00 00 00 00 00
 161.135758 1  18              Rx   d 8 00 00 00 00 00 00 00 00
 163.026585 1  15              Rx   d 8 44 40 00 00 05 04 00 00
 163.027281 1  10              Rx   d 8 03 F5 28 00 06 00 30 00
 163.054857 1  14              Rx   d 8 B4 63 BC 4F 00 00 00 00
 163.055110 1  16              Rx   d 8 00 00 00 00 00 00 00 00
 163.055792 1  11              Rx   d 8 7E B3 28 00 01 00 32 00
 163.056052 1  18              Rx   d 8 00 00 00 00 00 00 00 00
 163.056052 1  18              Rx   d 8 00 00 00 00 00 00 00 00
 164.946814 1  15              Rx   d 8 44 40 00 00 05 04 00 00
 164.947509 1  10              Rx   d 8 FF F4 28 00 07 00 32 00
 164.975085 1  14              Rx   d 8 B4 63 7C 4F 00 00 00 00
 164.975338 1  16              Rx   d 8 00 00 00 00 00 00 00 00
 164.976010 1  11              Rx   d 8 7A B3 28 00 01 00 32 00
 164.976273 1  18              Rx   d 8 00 00 00 00 00 00 00 00
 164.976273 1  18              Rx   d 8 00 00 00 00 00 00 00 00
 166.867053 1  15              Rx   d 8 44 40 00 00 05 04 00 00
 166.867742 1  10              Rx   d 8 01 F5 28 00 07 00 32 00
 166.895319 1  14              Rx   d 8 AC 63 38 4F 00 00 00 00
 166.895572 1  16              Rx   d 8 00 00 00 00 00 00 00 00
 166.896247 1  11              Rx   d 8 7B B3 28 00 02 00 32 00
 166.896507 1  18              Rx   d 8 00 00 00 00 00 00 00 00
 166.896507 1  18              Rx   d 8 00 00 00 00 00 00 00 00
 168.787270 1  15              Rx   d 8 44 40 00 00 05 04 00 00
 168.787965 1  10              Rx   d 8 02 F5 28 00 08 00 32 00
 168.815538 1  14              Rx   d 8 A0 63 38 4F 00 00 00 00
 168.815789 1  16              Rx   d 8 00 00 00 00 00 00 00 00
 168.816470 1  11              Rx   d 8 7C B3 28 00 02 00 31 00
 168.816729 1  18              Rx   d 8 00 00 00 00 00 00 00 00
 168.816729 1  18              Rx   d 8 00 00 00 00 00 00 00 00
 170.707349 1  15              Rx   d 8 44 40 00 00 05 04 00 00
 170.708046 1  10              Rx   d 8 06 F5 28 00 09 00 32 00
 170.735614 1  14              Rx   d 8 A0 63 38 4F 00 00 00 00
 170.735875 1  16              Rx   d 8 00 00 00 00 00 00 00 00
 170.736552 1  11              Rx   d 8 7C B3 28 00 02 00 31 00
 170.736812 1  18              Rx   d 8 00 00 00 00 00 00 00 00
 170.736812 1  18              Rx   d 8 00 00 00 00 00 00 00 00
 172.627453 1  15              Rx   d 8 44 40 00 00 05 04 00 00
 172.628150 1  10              Rx   d 8 06 F5 28 00 07 00 32 00
 172.655724 1  14              Rx   d 8 A0 63 7C 4F 00 00 00 00
 172.655984 1  16              Rx   d 8 00 00 00 00 00 00 00 00
 172.656659 1  11              Rx   d 8 7D B3 28 00 01 00 32 00
 172.656921 1  18              Rx   d 8 00 00 00 00 00 00 00 00
 172.656921 1  18              Rx   d 8 00 00 00 00 00 00 00 00
 174.527452 1  15              Rx   d 8 4C 40 00 00 05 04 00 00
 174.528150 1  10              Rx   d 8 0B F5 28 00 08 00 32 00
 174.555730 1  14              Rx   d 8 A0 63 7C 4F 00 00 00 00
 174.555990 1  16              Rx   d 8 00 00 00 00 00 00 00 00
 174.556669 1  11              Rx   d 8 7C B3 28 00 02 00 32 00
 174.556920 1  18              Rx   d 8 00 00 00 00 00 00 00 00
 174.556920 1  18              Rx   d 8 00 00 00 00 00 00 00 00
 176.448523 1  15              Rx   d 8 00 00 00 00 05 04 00 00
 176.449210 1  10              Rx   d 8 0D F5 28 00 08 00 32 00
 176.476915 1  14              Rx   d 8 98 63 7C 4F 00 00 00 00
 176.477169 1  16              Rx   d 8 00 00 00 00 00 00 00 00
 176.477856 1  11              Rx   d 8 7E B3 28 00 02 00 32 00
 176.478111 1  18              Rx   d 8 00 00 00 00 00 00 00 00
 176.478111 1  18              Rx   d 8 00 00 00 00 00 00 00 00
 178.367948 1  15              Rx   d 8 44 40 00 00 05 04 00 00
 178.368645 1  10              Rx   d 8 0F F5 28 00 09 00 32 00
 178.396213 1  14              Rx   d 8 94 63 7C 4F 00 00 00 00
 178.396475 1  16              Rx   d 8 00 00 00 00 00 00 00 00
 178.397156 1  11              Rx   d 8 7F B3 28 00 01 00 31 00
 178.397411 1  18              Rx   d 8 00 00 00 00 00 00 00 00
 178.397411 1  18              Rx   d 8 00 00 00 00 00 00 00 00
 180.288967 1  15              Rx   d 8 00 00 00 00 05 04 00 00
 180.289656 1  10              Rx   d 8 0B F5 28 00 08 00 32 00
 180.317364 1  14              Rx   d 8 94 63 7C 4F 00 00 00 00
 180.317615 1  16              Rx   d 8 00 00 00 00 00 00 00 00
 180.318297 1  11              Rx   d 8 7D B3 28 00 02 00 32 00
 180.318556 1  18              Rx   d 8 00 00 00 00 00 00 00 00
 180.318556 1  18              Rx   d 8 00 00 00 00 00 00 00 00
 182.208346 1  15              Rx   d 8 44 40 00 00 05 04 00 00
 182.209042 1  10              Rx   d 8 0B F5 28 00 08 00 31 00
 182.236610 1  14              Rx   d 8 8C 63 BC 4F 00 00 00 00
 182.236870 1  16              Rx   d 8 00 00 00 00 00 00 00 00
 182.237551 1  11              Rx   d 8 7D B3 28 00 02 00 32 00
 182.237810 1  18              Rx   d 8 00 00 00 00 00 00 00 00
 182.237810 1  18              Rx   d 8 00 00 00 00 00 00 00 00
 184.129365 1  15              Rx   d 8 00 00 00 00 05 04 00 00
 184.130052 1  10              Rx   d 8 12 F5 28 00 09 00 32 00
 184.157761 1  14              Rx   d 8 94 63 7C 4F 00 00 00 00
 184.158014 1  16              Rx   d 8 00 00 00 00 00 00 00 00
 184.158693 1  11              Rx   d 8 7E B3 28 00 02 00 30 00
 184.158951 1  18              Rx   d 8 00 00 00 00 00 00 00 00
 184.158951 1  18              Rx   d 8 00 00 00 00 00 00 00 00
 186.048624 1  15              Rx   d 8 44 40 00 00 05 04 00 00
 186.049320 1  10              Rx   d 8 0F F5 28 00 0A 00 32 00
 186.076895 1  14              Rx   d 8 94 63 7C 4F 00 00 00 00
 186.077150 1  16              Rx   d 8 00 00 00 00 00 00 00 00
 186.077829 1  11              Rx   d 8 7E B3 28 00 01 00 32 00
 186.078089 1  18              Rx   d 8 00 00 00 00 00 00 00 00
 186.078089 1  18              Rx   d 8 00 00 00 00 00 00 00 00
 187.968666 1  15              Rx   d 8 44 40 00 00 05 04 00 00
 187.969371 1  10              Rx   d 8 13 F5 28 00 0A 00 32 00
 187.996929 1  14              Rx   d 8 88 63 7C 4F 00 00 00 00
 187.997188 1  16              Rx   d 8 00 00 00 00 00 00 00 00
 187.997874 1  11              Rx   d 8 7D B3 28 00 01 00 30 00
 187.998135 1  18              Rx   d 8 00 00 00 00 00 00 00 00
 187.998135 1  18              Rx   d 8 00 00 00 00 00 00 00 00
 189.888761 1  15              Rx   d 8 4C 40 00 00 05 04 00 00
 189.889456 1  10              Rx   d 8 10 F5 28 00 0A 00 32 00
 189.917038 1  14              Rx   d 8 8C 63 7C 4F 00 00 00 00
 189.917290 1  16              Rx   d 8 00 00 00 00 00 00 00 00
 189.917973 1  11              Rx   d 8 7D B3 28 00 01 00 32 00
 189.918232 1  18              Rx   d 8 00 00 00 00 00 00 00 00
 189.918232 1  18              Rx   d 8 00 00 00 00 00 00 00 00
 191.788933 1  15              Rx   d 8 44 40 00 00 05 04 00 00
 191.789631 1  10              Rx   d 8 0D F5 28 00 07 00 31 00
 191.817201 1  14              Rx   d 8 8C 63 7C 4F 00 00 00 00
 191.817452 1  16              Rx   d 8 00 00 00 00 00 00 00 00
 191.818136 1  11              Rx   d 8 7C B3 28 00 02 00 31 00
 191.818388 1  18              Rx   d 8 00 00 00 00 00 00 00 00
 191.818388 1  18              Rx   d 8 00 00 00 00 00 00 00 00
 193.709084 1  15              Rx   d 8 44 40 00 00 05 04 00 00
 193.709772 1  10              Rx   d 8 16 F5 28 00 0C 00 32 00
 193.737350 1  14              Rx   d 8 88 63 7C 4F 00 00 00 00
 193.737603 1  16              Rx   d 8 00 00 00 00 00 00 00 00
 193.738284 1  11              Rx   d 8 7F B3 28 00 02 00 31 00
 193.738545 1  18              Rx   d 8 00 00 00 00 00 00 00 00
 193.738545 1  18              Rx   d 8 00 00 00 00 00 00 00 00
 195.629195 1  15              Rx   d 8 44 40 00 00 05 04 00 00
 195.629898 1  10              Rx   d 8 19 F5 28 00 0E 00 32 00
 195.657472 1  14              Rx   d 8 84 63 38 4F 00 00 00 00
 195.657725 1  16              Rx   d 8 00 00 00 00 00 00 00 00
 195.658403 1  11              Rx   d 8 7E B3 28 00 02 00 31 00
 195.658664 1  18              Rx   d 8 00 00 00 00 00 00 00 00
 195.658664 1  18              Rx   d 8 00 00 00 00 00 00 00 00
 197.549328 1  15              Rx   d 8 44 40 00 00 05 04 00 00
 197.550023 1  10              Rx   d 8 1B F5 28 00 0C 00 32 00
 197.577590 1  14              Rx   d 8 84 63 38 4F 00 00 00 00
 197.577852 1  16              Rx   d 8 00 00 00 00 00 00 00 00
 197.578530 1  11              Rx   d 8 7F B3 28 00 02 00 32 00
 197.578790 1  18              Rx   d 8 00 00 00 00 00 00 00 00
 197.578790 1  18              Rx   d 8 00 00 00 00 00 00 00 00
 199.470324 1  15              Rx   d 8 00 00 00 00 05 04 00 00
 199.471018 1  10              Rx   d 8 13 F5 28 00 09 00 32 00
 199.498715 1  14              Rx   d 8 7C 63 38 4F 00 00 00 00
 199.498968 1  16              Rx   d 8 00 00 00 00 00 00 00 00
 199.499647 1  11              Rx   d 8 7E B3 28 00 01 00 31 00
 199.499907 1  18              Rx   d 8 00 00 00 00 00 00 00 00
 199.499907 1  18              Rx   d 8 00 00 00 00 00 00 00 00
 201.389612 1  15              Rx   d 8 44 40 00 00 05 04 00 00
 201.390310 1  10              Rx   d 8 13 F5 28 00 09 00 32 00
 201.417876 1  14              Rx   d 8 84 63 7C 4F 00 00 00 00
 201.418131 1  16              Rx   d 8 00 00 00 00 00 00 00 00
 201.418810 1  11              Rx   d 8 7E B3 28 00 02 00 31 00
 201.419070 1  18              Rx   d 8 00 00 00 00 00 00 00 00
 201.419070 1  18              Rx   d 8 00 00 00 00 00 00 00 00
 203.309782 1  15              Rx   d 8 44 40 00 00 05 04 00 00
 203.310471 1  10              Rx   d 8 16 F5 28 00 0D 00 32 00
 203.338053 1  14              Rx   d 8 78 63 7C 4F 00 00 00 00
 203.338308 1  16              Rx   d 8 00 00 00 00 00 00 00 00
 203.338988 1  11              Rx   d 8 7D B3 28 00 02 00 31 00
 203.339250 1  18              Rx   d 8 00 00 00 00 00 00 00 00
 203.339250 1  18              Rx   d 8 00 00 00 00 00 00 00 00
 205.230012 1  15              Rx   d 8 44 40 00 00 05 04 00 00
 205.230709 1  10              Rx   d 8 17 F5 28 00 09 00 32 00
 205.258288 1  14              Rx   d 8 78 63 7C 4F 00 00 00 00
 205.258539 1  16              Rx   d 8 00 00 00 00 00 00 00 00
 205.259220 1  11              Rx   d 8 7E B3 28 00 02 00 31 00
 205.259481 1  18              Rx   d 8 00 00 00 00 00 00 00 00
 205.259481 1  18              Rx   d 8 00 00 00 00 00 00 00 00
 207.130232 1  15              Rx   d 8 4C 40 00 00 05 04 00 00
 207.130936 1  10              Rx   d 8 15 F5 28 00 09 00 32 00
 207.158505 1  14              Rx   d 8 78 63 38 4F 00 00 00 00
 207.158757 1  16              Rx   d 8 00 00 00 00 00 00 00 00
 207.159437 1  11              Rx   d 8 7D B3 28 00 01 00 32 00
 207.159699 1  18              Rx   d 8 00 00 00 00 00 00 00 00
 207.159699 1  18              Rx   d 8 00 00 00 00 00 00 00 00
 209.050358 1  15              Rx   d 8 44 40 00 00 05 04 00 00
 209.051054 1  10              Rx   d 8 17 F5 28 00 0B 00 32 00
 209.078622 1  14              Rx   d 8 78 63 7C 4F 00 00 00 00
 209.078883 1  16              Rx   d 8 00 00 00 00 00 00 00 00
 209.079561 1  11              Rx   d 8 7D B3 28 00 02 00 31 00
 209.079817 1  18              Rx   d 8 00 00 00 00 00 00 00 00
 209.079817 1  18              Rx   d 8 00 00 00 00 00 00 00 00
 210.970538 1  15              Rx   d 8 44 40 00 00 05 04 00 00
 210.971234 1  10              Rx   d 8 1C F5 28 00 0B 00 32 00
 210.998810 1  14              Rx   d 8 78 63 7C 4F 00 00 00 00
 210.999072 1  16              Rx   d 8 00 00 00 00 00 00 00 00
 210.999751 1  11              Rx   d 8 7F B3 28 00 01 00 32 00
 211.000010 1  18              Rx   d 8 00 00 00 00 00 00 00 00
 211.000010 1  18              Rx   d 8 00 00 00 00 00 00 00 00
 212.890586 1  15              Rx   d 8 44 40 00 00 05 04 00 00
 212.891282 1  10              Rx   d 8 1D F5 28 00 09 00 32 00
 212.918850 1  14              Rx   d 8 78 63 38 4F 00 00 00 00
 212.919105 1  16              Rx   d 8 00 00 00 00 00 00 00 00
 212.919787 1  11              Rx   d 8 7E B3 28 00 02 00 32 00
 212.920047 1  18              Rx   d 8 00 00 00 00 00 00 00 00
 212.920047 1  18              Rx   d 8 00 00 00 00 00 00 00 00
 214.810787 1  15              Rx   d 8 44 40 00 00 05 04 00 00
 214.811485 1  10              Rx   d 8 1D F5 28 00 0D 00 31 00
 214.839061 1  14              Rx   d 8 78 63 7C 4F 00 00 00 00
 214.839322 1  16              Rx   d 8 00 00 00 00 00 00 00 00
 214.840002 1  11              Rx   d 8 7F B3 28 00 02 00 31 00
 214.840263 1  18              Rx   d 8 00 00 00 00 00 00 00 00
 214.840263 1  18              Rx   d 8 00 00 00 00 00 00 00 00
 216.731109 1  15              Rx   d 8 44 40 00 00 05 04 00 00
 216.731803 1  10              Rx   d 8 24 F5 28 00 0D 00 32 00
 216.759381 1  14              Rx   d 8 70 63 7C 4F 00 00 00 00
 216.759632 1  16              Rx   d 8 00 00 00 00 00 00 00 00
 216.760317 1  11              Rx   d 8 80 B3 28 00 02 00 31 00
 216.760566 1  18              Rx   d 8 00 00 00 00 00 00 00 00
 216.760566 1  18              Rx   d 8 00 00 00 00 00 00 00 00
 218.651453 1  15              Rx   d 8 44 40 00 00 05 04 00 00
 218.652149 1  10              Rx   d 8 23 F5 28 00 0D 00 32 00
 218.679726 1  14              Rx   d 8 78 63 84 4F 00 00 00 00
 218.679978 1  16              Rx   d 8 00 00 00 00 00 00 00 00
 218.680659 1  11              Rx   d 8 80 B3 28 00 01 00 2F 00
 218.680917 1  18              Rx   d 8 00 00 00 00 00 00 00 00
 218.680917 1  18              Rx   d 8 00 00 00 00 00 00 00 00
 220.571853 1  15              Rx   d 8 44 40 00 00 05 04 00 00
 220.572551 1  10              Rx   d 8 27 F5 28 00 0E 00 32 00
 220.600128 1  14              Rx   d 8 70 63 38 4F 00 00 00 00
 220.600390 1  16              Rx   d 8 00 00 00 00 00 00 00 00
 220.601065 1  11              Rx   d 8 81 B3 28 00 02 00 31 00
 220.601326 1  18              Rx   d 8 00 00 00 00 00 00 00 00
 220.601326 1  18              Rx   d 8 00 00 00 00 00 00 00 00
 222.472419 1  15              Rx   d 8 4C 40 00 00 05 04 00 00
 222.473115 1  10              Rx   d 8 2B F5 28 00 0D 00 32 00
 222.500691 1  14              Rx   d 8 70 63 44 4F 00 00 00 00
 222.500942 1  16              Rx   d 8 00 00 00 00 00 00 00 00
 222.501620 1  11              Rx   d 8 81 B3 28 00 02 00 31 00
 222.501880 1  18              Rx   d 8 00 00 00 00 00 00 00 00
 222.501880 1  18              Rx   d 8 00 00 00 00 00 00 00 00
 224.392956 1  15              Rx   d 8 44 40 00 00 05 04 00 00
 224.393654 1  10              Rx   d 8 2D F5 28 00 10 00 32 00
 224.421232 1  14              Rx   d 8 70 63 44 4F 00 00 00 00
 224.421485 1  16              Rx   d 8 00 00 00 00 00 00 00 00
 224.422169 1  11              Rx   d 8 81 B3 28 00 01 00 32 00
 224.422420 1  18              Rx   d 8 00 00 00 00 00 00 00 00
 224.422420 1  18              Rx   d 8 00 00 00 00 00 00 00 00
 226.314308 1  15              Rx   d 8 00 00 00 00 05 04 00 00
 226.314994 1  10              Rx   d 8 27 F5 28 00 0C 00 32 00
 226.342702 1  14              Rx   d 8 70 63 44 4F 00 00 00 00
 226.342962 1  16              Rx   d 8 00 00 00 00 00 00 00 00
 226.343640 1  11              Rx   d 8 7F B3 28 00 02 00 32 00
 226.343893 1  18              Rx   d 8 00 00 00 00 00 00 00 00
 226.343893 1  18              Rx   d 8 00 00 00 00 00 00 00 00
 228.233835 1  15              Rx   d 8 44 40 00 00 05 04 00 00
 228.234540 1  10              Rx   d 8 2D F5 28 00 0F 00 32 00
 228.262106 1  14              Rx   d 8 78 63 84 4F 00 00 00 00
 228.262366 1  16              Rx   d 8 00 00 00 00 00 00 00 00
 228.263043 1  11              Rx   d 8 81 B3 28 00 02 00 30 00
 228.263297 1  18              Rx   d 8 00 00 00 00 00 00 00 00
 228.263297 1  18              Rx   d 8 00 00 00 00 00 00 00 00
 230.155091 1  15              Rx   d 8 00 00 00 00 05 04 00 00
 230.155780 1  10              Rx   d 8 2D F5 28 00 12 00 31 00
 230.183486 1  14              Rx   d 8 70 63 7C 4F 00 00 00 00
 230.183744 1  16              Rx   d 8 00 00 00 00 00 00 00 00
 230.184423 1  11              Rx   d 8 80 B3 28 00 02 00 31 00
 230.184682 1  18              Rx   d 8 00 00 00 00 00 00 00 00
 230.184682 1  18              Rx   d 8 00 00 00 00 00 00 00 00
 232.074481 1  15              Rx   d 8 44 40 00 00 05 04 00 00
 232.075178 1  10              Rx   d 8 34 F5 28 00 13 00 30 00
 232.102753 1  14              Rx   d 8 70 63 84 4F 00 00 00 00
 232.103013 1  16              Rx   d 8 00 00 00 00 00 00 00 00
 232.103688 1  11              Rx   d 8 82 B3 28 00 02 00 30 00
 232.103948 1  18              Rx   d 8 00 00 00 00 00 00 00 00
 232.103948 1  18              Rx   d 8 00 00 00 00 00 00 00 00
 233.994673 1  15              Rx   d 8 44 40 00 00 05 04 00 00
 233.995362 1  10              Rx   d 8 2A F5 28 00 0E 00 31 00
 234.022944 1  14              Rx   d 8 70 63 84 4F 00 00 00 00
 234.023199 1  16              Rx   d 8 00 00 00 00 00 00 00 00
 234.023882 1  11              Rx   d 8 7F B3 28 00 03 00 32 00
 234.024137 1  18              Rx   d 8 00 00 00 00 00 00 00 00
 234.024137 1  18              Rx   d 8 00 00 00 00 00 00 00 00
 235.914882 1  15              Rx   d 8 44 40 00 00 05 04 00 00
 235.915579 1  10              Rx   d 8 3E F5 28 00 15 00 32 00
 235.943145 1  14              Rx   d 8 6C 63 84 4F 00 00 00 00
 235.943405 1  16              Rx   d 8 00 00 00 00 00 00 00 00
 235.944083 1  11              Rx   d 8 84 B3 28 00 05 00 32 00
 235.944343 1  18              Rx   d 8 00 00 00 00 00 00 00 00
 235.944343 1  18              Rx   d 8 00 00 00 00 00 00 00 00
 237.835181 1  15              Rx   d 8 4C 40 00 00 05 04 00 00
 237.835877 1  10              Rx   d 8 34 F5 28 00 10 00 30 00
 237.863454 1  14              Rx   d 8 6C 63 84 4F 00 00 00 00
 237.863707 1  16              Rx   d 8 00 00 00 00 00 00 00 00
 237.864384 1  11              Rx   d 8 7E B3 28 00 02 00 31 00
 237.864644 1  18              Rx   d 8 00 00 00 00 00 00 00 00
 237.864644 1  18              Rx   d 8 00 00 00 00 00 00 00 00
 239.735487 1  15              Rx   d 8 44 40 00 00 05 04 00 00
 239.736192 1  10              Rx   d 8 3F F5 28 00 12 00 30 00
 239.763759 1  14              Rx   d 8 6C 63 84 4F 00 00 00 00
 239.764012 1  16              Rx   d 8 00 00 00 00 00 00 00 00
 239.764696 1  11              Rx   d 8 7E B3 28 00 02 00 32 00
 239.764957 1  18              Rx   d 8 00 00 00 00 00 00 00 00
 239.764957 1  18              Rx   d 8 00 00 00 00 00 00 00 00
 241.655833 1  15              Rx   d 8 44 40 00 00 05 04 00 00
 241.656531 1  10              Rx   d 8 40 F5 28 00 18 00 32 00
 241.684108 1  14              Rx   d 8 64 63 84 4F 00 00 00 00
 241.684361 1  16              Rx   d 8 00 00 00 00 00 00 00 00
 241.685045 1  11              Rx   d 8 7F B3 28 00 02 00 32 00
 241.685296 1  18              Rx   d 8 00 00 00 00 00 00 00 00
 241.685296 1  18              Rx   d 8 00 00 00 00 00 00 00 00
 243.576205 1  15              Rx   d 8 44 40 00 00 05 04 00 00
 243.576900 1  10              Rx   d 8 48 F5 28 00 16 00 32 00
 243.604470 1  14              Rx   d 8 64 63 84 4F 00 00 00 00
 243.604730 1  16              Rx   d 8 00 00 00 00 00 00 00 00
 243.605411 1  11              Rx   d 8 80 B3 28 00 01 00 31 00
 243.605669 1  18              Rx   d 8 00 00 00 00 00 00 00 00
 243.605669 1  18              Rx   d 8 00 00 00 00 00 00 00 00
 245.496450 1  15              Rx   d 8 44 40 00 00 05 04 00 00
 245.497146 1  10              Rx   d 8 43 F5 28 00 18 00 32 00
 245.524714 1  14              Rx   d 8 60 63 84 4F 00 00 00 00
 245.524967 1  16              Rx   d 8 00 00 00 00 00 00 00 00
 245.525649 1  11              Rx   d 8 7E B3 28 00 02 00 31 00
 245.525909 1  18              Rx   d 8 00 00 00 00 00 00 00 00
 245.525909 1  18              Rx   d 8 00 00 00 00 00 00 00 00
 247.416566 1  15              Rx   d 8 44 40 00 00 05 04 00 00
 247.417255 1  10              Rx   d 8 4A F5 28 00 19 00 31 00
 247.444832 1  14              Rx   d 8 60 63 84 4F 00 00 00 00
 247.445085 1  16              Rx   d 8 00 00 00 00 00 00 00 00
 247.445763 1  11              Rx   d 8 7F B3 28 00 01 00 31 00
 247.446021 1  18              Rx   d 8 00 00 00 00 00 00 00 00
 247.446021 1  18              Rx   d 8 00 00 00 00 00 00 00 00
 249.336648 1  15              Rx   d 8 44 40 00 00 05 04 00 00
 249.337344 1  10              Rx   d 8 4B F5 28 00 17 00 32 00
 249.364921 1  14              Rx   d 8 5C 63 84 4F 00 00 00 00
 249.365171 1  16              Rx   d 8 00 00 00 00 00 00 00 00
 249.365860 1  11              Rx   d 8 80 B3 28 00 02 00 31 00
 249.366112 1  18              Rx   d 8 00 00 00 00 00 00 00 00
 249.366112 1  18              Rx   d 8 00 00 00 00 00 00 00 00
 251.256891 1  15              Rx   d 8 44 40 00 00 05 04 00 00
 251.257594 1  10              Rx   d 8 5F F5 28 00 21 00 32 00
 251.285160 1  14              Rx   d 8 5C 63 84 4F 00 00 00 00
 251.285419 1  16              Rx   d 8 00 00 00 00 00 00 00 00
 251.286090 1  11              Rx   d 8 82 B3 28 00 01 00 32 00
 251.286349 1  18              Rx   d 8 00 00 00 00 00 00 00 00
 251.286349 1  18              Rx   d 8 00 00 00 00 00 00 00 00
 253.177199 1  15              Rx   d 8 44 40 00 00 05 04 00 00
 253.177895 1  10              Rx   d 8 6F F5 28 00 1D 00 32 00
 253.205463 1  14              Rx   d 8 5C 63 84 4F 00 00 00 00
 253.205723 1  16              Rx   d 8 00 00 00 00 00 00 00 00
 253.206400 1  11              Rx   d 8 83 B3 28 00 02 00 31 00
 253.206660 1  18              Rx   d 8 00 00 00 00 00 00 00 00
 253.206660 1  18              Rx   d 8 00 00 00 00 00 00 00 00
 255.077438 1  15              Rx   d 8 44 40 00 00 05 04 00 00
 255.078134 1  10              Rx   d 8 5A F5 28 00 1B 00 31 00
 255.105703 1  14              Rx   d 8 54 63 84 4F 00 00 00 00
 255.105964 1  16              Rx   d 8 00 00 00 00 00 00 00 00
 255.106639 1  11              Rx   d 8 82 B3 28 00 02 00 31 00
 255.106899 1  18              Rx   d 8 00 00 00 00 00 00 00 00
 255.106899 1  18              Rx   d 8 00 00 00 00 00 00 00 00
 256.997646 1  15              Rx   d 8 44 40 00 00 05 04 00 00
 256.998351 1  10              Rx   d 8 63 F5 28 00 1A 00 32 00
 257.025918 1  14              Rx   d 8 5C 63 84 4F 00 00 00 00
 257.026171 1  16              Rx   d 8 00 00 00 00 00 00 00 00
 257.026846 1  11              Rx   d 8 82 B3 28 00 02 00 30 00
 257.027109 1  18              Rx   d 8 00 00 00 00 00 00 00 00
 257.027109 1  18              Rx   d 8 00 00 00 00 00 00 00 00
 258.917815 1  15              Rx   d 8 44 40 00 00 05 04 00 00
 258.918509 1  10              Rx   d 8 57 F5 28 00 19 00 32 00
 258.946084 1  14              Rx   d 8 5C 63 84 4F 00 00 00 00
 258.946337 1  16              Rx   d 8 00 00 00 00 00 00 00 00
 258.947018 1  11              Rx   d 8 81 B3 28 00 02 00 31 00
 258.947271 1  18              Rx   d 8 00 00 00 00 00 00 00 00
 258.947271 1  18              Rx   d 8 00 00 00 00 00 00 00 00
 260.838070 1  15              Rx   d 8 44 40 00 00 05 04 00 00
 260.838759 1  10              Rx   d 8 4E F5 28 00 16 00 31 00
 260.866343 1  14              Rx   d 8 60 63 C4 4F 00 00 00 00
 260.866596 1  16              Rx   d 8 00 00 00 00 00 00 00 00
 260.867273 1  11              Rx   d 8 82 B3 28 00 01 00 32 00
 260.867534 1  18              Rx   d 8 00 00 00 00 00 00 00 00
 260.867534 1  18              Rx   d 8 00 00 00 00 00 00 00 00
 262.758312 1  15              Rx   d 8 44 40 00 00 05 04 00 00
 262.759007 1  10              Rx   d 8 61 F5 28 00 19 00 32 00
 262.786583 1  14              Rx   d 8 5C 63 C4 4F 00 00 00 00
 262.786836 1  16              Rx   d 8 00 00 00 00 00 00 00 00
 262.787519 1  11              Rx   d 8 81 B3 28 00 02 00 32 00
 262.787779 1  18              Rx   d 8 00 00 00 00 00 00 00 00
 262.787779 1  18              Rx   d 8 00 00 00 00 00 00 00 00
 264.678571 1  15              Rx   d 8 44 40 00 00 05 04 00 00
 264.679275 1  10              Rx   d 8 55 F5 28 00 16 00 32 00
 264.706841 1  14              Rx   d 8 5C 63 C4 4F 00 00 00 00
 264.707094 1  16              Rx   d 8 00 00 00 00 00 00 00 00
 264.707772 1  11              Rx   d 8 80 B3 28 00 02 00 31 00
 264.708034 1  18              Rx   d 8 00 00 00 00 00 00 00 00
 264.708034 1  18              Rx   d 8 00 00 00 00 00 00 00 00
 266.598909 1  15              Rx   d 8 44 40 00 00 05 04 00 00
 266.599605 1  10              Rx   d 8 56 F5 28 00 17 00 32 00
 266.627189 1  14              Rx   d 8 5C 63 C4 4F 00 00 00 00
 266.627449 1  16              Rx   d 8 00 00 00 00 00 00 00 00
 266.628113 1  11              Rx   d 8 80 B3 28 00 01 00 2E 00
 266.628373 1  18              Rx   d 8 00 00 00 00 00 00 00 00
 266.628373 1  18              Rx   d 8 00 00 00 00 00 00 00 00
 266.628373 1  18              Rx   d 8 00 00 00 00 00 00 00 00
 266.628373 1  18              Rx   d 8 00 00 00 00 00 00 00 00
 266.628373 1  18              Rx   d 8 00 00 00 00 00 00 00 00
 271.090597 1  ErrorFrame
 271.090597 1  ErrorFrame
 271.090597 1  ErrorFrame
 271.090597 1  ErrorFrame
 271.090597 1  ErrorFrame
 271.090597 1  ErrorFrame
 271.090597 1  ErrorFrame
 271.090597 1  ErrorFrame
 271.090597 1  ErrorFrame
 279.220998 1  ErrorFrame
 279.220998 1  ErrorFrame
 280.405672 1  ErrorFrame
 280.646140 1  ErrorFrame
 280.646177 1  10              Rx   d 8 49 54 00 00 01 00 00 00
 280.646190 1  ErrorFrame
 280.646190 1  ErrorFrame
 282.462935 1  ErrorFrame
 282.462971 1  15              Rx   d 8 44 40 00 00 03 03 00 00
 282.463630 1  ErrorFrame
 282.463667 1  10              Rx   d 8 B9 3D 29 00 01 00 31 00
 282.490955 1  14              Rx   d 8 48 63 08 50 00 00 00 00
 282.491215 1  16              Rx   d 8 00 00 00 00 00 00 00 00
 282.491903 1  11              Rx   d 8 18 D5 28 00 01 00 31 00
 282.492164 1  18              Rx   d 8 00 00 00 00 00 00 00 00
 282.492164 1  18              Rx   d 8 00 00 00 00 00 00 00 00
 284.383071 1  15              Rx   d 8 44 40 00 00 03 03 00 00
 284.383761 1  10              Rx   d 8 BB 3D 29 00 01 00 32 00
 284.411077 1  14              Rx   d 8 4C 63 08 50 00 00 00 00
 284.411331 1  16              Rx   d 8 00 00 00 00 00 00 00 00
 284.412010 1  11              Rx   d 8 18 D5 28 00 01 00 32 00
 284.412263 1  18              Rx   d 8 00 00 00 00 00 00 00 00
 284.412263 1  18              Rx   d 8 00 00 00 00 00 00 00 00
 286.303145 1  15              Rx   d 8 44 40 00 00 03 03 00 00
 286.303839 1  10              Rx   d 8 BE 3D 29 00 01 00 32 00
 286.331147 1  14              Rx   d 8 4C 63 08 50 00 00 00 00
 286.331399 1  16              Rx   d 8 00 00 00 00 00 00 00 00
 286.332085 1  11              Rx   d 8 19 D5 28 00 01 00 32 00
 286.332345 1  18              Rx   d 8 00 00 00 00 00 00 00 00
 286.332345 1  18              Rx   d 8 00 00 00 00 00 00 00 00
 288.224065 1  15              Rx   d 8 00 00 00 00 03 03 00 00
 288.224744 1  10              Rx   d 8 C0 3D 29 00 01 00 32 00
 288.252200 1  14              Rx   d 8 5C 63 08 50 00 00 00 00
 288.252453 1  16              Rx   d 8 00 00 00 00 00 00 00 00
 288.253138 1  11              Rx   d 8 19 D5 28 00 01 00 32 00
 288.253389 1  18              Rx   d 8 00 00 00 00 00 00 00 00
 288.253389 1  18              Rx   d 8 00 00 00 00 00 00 00 00
 290.143316 1  15              Rx   d 8 44 40 00 00 03 03 00 00
 290.144002 1  10              Rx   d 8 C1 3D 29 00 01 00 32 00
 290.171318 1  14              Rx   d 8 5C 63 08 50 00 00 00 00
 290.171579 1  16              Rx   d 8 00 00 00 00 00 00 00 00
 290.172258 1  11              Rx   d 8 18 D5 28 00 01 00 31 00
 290.172516 1  18              Rx   d 8 00 00 00 00 00 00 00 00
 290.172516 1  18              Rx   d 8 00 00 00 00 00 00 00 00
 292.063382 1  15              Rx   d 8 44 40 00 00 03 03 00 00
 292.064070 1  10              Rx   d 8 C3 3D 29 00 01 00 32 00
 292.091378 1  14              Rx   d 8 60 63 08 50 00 00 00 00
 292.091638 1  16              Rx   d 8 00 00 00 00 00 00 00 00
 292.092317 1  11              Rx   d 8 19 D5 28 00 01 00 32 00
 292.092576 1  18              Rx   d 8 00 00 00 00 00 00 00 00
 292.092576 1  18              Rx   d 8 00 00 00 00 00 00 00 00
 293.983526 1  15              Rx   d 8 4C 40 00 00 03 03 00 00
 293.984214 1  10              Rx   d 8 C5 3D 29 00 01 00 32 00
 294.011530 1  14              Rx   d 8 5C 63 08 50 00 00 00 00
 294.011790 1  16              Rx   d 8 00 00 00 00 00 00 00 00
 294.012470 1  11              Rx   d 8 18 D5 28 00 01 00 32 00
 294.012730 1  18              Rx   d 8 00 00 00 00 00 00 00 00
 294.012730 1  18              Rx   d 8 00 00 00 00 00 00 00 00
 295.883771 1  15              Rx   d 8 44 40 00 00 03 03 00 00
 295.884458 1  10              Rx   d 8 C6 3D 29 00 01 00 32 00
 295.911782 1  14              Rx   d 8 60 63 08 50 00 00 00 00
 295.912033 1  16              Rx   d 8 00 00 00 00 00 00 00 00
 295.912716 1  11              Rx   d 8 18 D5 28 00 01 00 32 00
 295.912967 1  18              Rx   d 8 00 00 00 00 00 00 00 00
 295.912967 1  18              Rx   d 8 00 00 00 00 00 00 00 00
 297.804049 1  15              Rx   d 8 44 40 00 00 03 03 00 00
 297.804734 1  10              Rx   d 8 C8 3D 29 00 01 00 32 00
 297.832048 1  14              Rx   d 8 60 63 08 50 00 00 00 00
 297.832308 1  16              Rx   d 8 00 00 00 00 00 00 00 00
 297.832986 1  11              Rx   d 8 18 D5 28 00 01 00 30 00
 297.833245 1  18              Rx   d 8 00 00 00 00 00 00 00 00
 297.833245 1  18              Rx   d 8 00 00 00 00 00 00 00 00
 299.725085 1  15              Rx   d 8 00 00 00 00 03 03 00 00
 299.725762 1  10              Rx   d 8 CA 3D 29 00 01 00 32 00
 299.753208 1  14              Rx   d 8 60 63 08 50 00 00 00 00
 299.753460 1  16              Rx   d 8 00 00 00 00 00 00 00 00
 299.754147 1  11              Rx   d 8 18 D5 28 00 01 00 32 00
 299.754405 1  18              Rx   d 8 00 00 00 00 00 00 00 00
 299.754405 1  18              Rx   d 8 00 00 00 00 00 00 00 00
 301.644392 1  15              Rx   d 8 44 40 00 00 03 03 00 00
 301.645069 1  10              Rx   d 8 CB 3D 29 00 01 00 32 00
 301.672401 1  14              Rx   d 8 60 63 08 50 00 00 00 00
 301.672653 1  16              Rx   d 8 00 00 00 00 00 00 00 00
 301.673340 1  11              Rx   d 8 17 D5 28 00 01 00 30 00
 301.673601 1  18              Rx   d 8 00 00 00 00 00 00 00 00
 301.673601 1  18              Rx   d 8 00 00 00 00 00 00 00 00
 303.564582 1  15              Rx   d 8 44 40 00 00 03 03 00 00
 303.565277 1  10              Rx   d 8 CD 3D 29 00 01 00 32 00
 303.592589 1  14              Rx   d 8 60 63 08 50 00 00 00 00
 303.592840 1  16              Rx   d 8 00 00 00 00 00 00 00 00
 303.593529 1  11              Rx   d 8 17 D5 28 00 01 00 30 00
 303.593790 1  18              Rx   d 8 00 00 00 00 00 00 00 00
 303.593790 1  18              Rx   d 8 00 00 00 00 00 00 00 00
 305.484859 1  15              Rx   d 8 44 40 00 00 03 03 00 00
 305.485548 1  10              Rx   d 8 CF 3D 29 00 01 00 32 00
 305.512869 1  14              Rx   d 8 60 63 C4 4F 00 00 00 00
 305.513131 1  16              Rx   d 8 00 00 00 00 00 00 00 00
 305.513812 1  11              Rx   d 8 18 D5 28 00 01 00 32 00
 305.514063 1  18              Rx   d 8 00 00 00 00 00 00 00 00
 305.514063 1  18              Rx   d 8 00 00 00 00 00 00 00 00
 307.405159 1  15              Rx   d 8 44 40 00 00 03 03 00 00
 307.405837 1  10              Rx   d 8 D1 3D 29 00 01 00 32 00
 307.433161 1  14              Rx   d 8 60 63 C4 4F 00 00 00 00
 307.433421 1  16              Rx   d 8 00 00 00 00 00 00 00 00
 307.434095 1  11              Rx   d 8 18 D5 28 00 01 00 32 00
 307.434356 1  18              Rx   d 8 00 00 00 00 00 00 00 00
 307.434356 1  18              Rx   d 8 00 00 00 00 00 00 00 00
 309.325343 1  15              Rx   d 8 4C 40 00 00 03 03 00 00
 309.326021 1  10              Rx   d 8 D3 3D 29 00 01 00 32 00
 309.353344 1  14              Rx   d 8 60 63 C4 4F 00 00 00 00
 309.353595 1  16              Rx   d 8 00 00 00 00 00 00 00 00
 309.354276 1  11              Rx   d 8 19 D5 28 00 01 00 31 00
 309.354536 1  18              Rx   d 8 00 00 00 00 00 00 00 00
 309.354536 1  18              Rx   d 8 00 00 00 00 00 00 00 00
 311.225607 1  15              Rx   d 8 44 40 00 00 03 03 00 00
 311.226288 1  10              Rx   d 8 D4 3D 29 00 01 00 32 00
 311.253613 1  14              Rx   d 8 6C 63 84 4F 00 00 00 00
 311.253873 1  16              Rx   d 8 00 00 00 00 00 00 00 00
 311.254550 1  11              Rx   d 8 18 D5 28 00 01 00 32 00
 311.254810 1  18              Rx   d 8 00 00 00 00 00 00 00 00
 311.254810 1  18              Rx   d 8 00 00 00 00 00 00 00 00
 313.145849 1  15              Rx   d 8 44 40 00 00 03 03 00 00
 313.146536 1  10              Rx   d 8 D7 3D 29 00 01 00 32 00
 313.173851 1  14              Rx   d 8 64 63 84 4F 00 00 00 00
 313.174106 1  16              Rx   d 8 00 00 00 00 00 00 00 00
 313.174784 1  11              Rx   d 8 18 D5 28 00 01 00 32 00
 313.175045 1  18              Rx   d 8 00 00 00 00 00 00 00 00
 313.175045 1  18              Rx   d 8 00 00 00 00 00 00 00 00
 315.066939 1  15              Rx   d 8 00 00 00 00 03 03 00 00
 315.067619 1  10              Rx   d 8 D8 3D 29 00 01 00 32 00
 315.095066 1  14              Rx   d 8 64 63 84 4F 00 00 00 00
 315.095320 1  16              Rx   d 8 00 00 00 00 00 00 00 00
 315.096002 1  11              Rx   d 8 19 D5 28 00 01 00 32 00
 315.096255 1  18              Rx   d 8 00 00 00 00 00 00 00 00
 315.096255 1  18              Rx   d 8 00 00 00 00 00 00 00 00
 316.986176 1  15              Rx   d 8 44 40 00 00 03 03 00 00
 316.986864 1  10              Rx   d 8 DB 3D 29 00 01 00 32 00
 317.014173 1  14              Rx   d 8 64 63 C4 4F 00 00 00 00
 317.014433 1  16              Rx   d 8 00 00 00 00 00 00 00 00
 317.015109 1  11              Rx   d 8 19 D5 28 00 01 00 31 00
 317.015371 1  18              Rx   d 8 00 00 00 00 00 00 00 00
 317.015371 1  18              Rx   d 8 00 00 00 00 00 00 00 00
 318.906351 1  15              Rx   d 8 44 40 00 00 03 03 00 00
 318.907037 1  10              Rx   d 8 DC 3D 29 00 01 00 32 00
 318.934355 1  14              Rx   d 8 6C 63 84 4F 00 00 00 00
 318.934608 1  16              Rx   d 8 00 00 00 00 00 00 00 00
 318.935290 1  11              Rx   d 8 1A D5 28 00 01 00 32 00
 318.935541 1  18              Rx   d 8 00 00 00 00 00 00 00 00
 318.935541 1  18              Rx   d 8 00 00 00 00 00 00 00 00
 320.826482 1  15              Rx   d 8 44 40 00 00 03 03 00 00
 320.827161 1  10              Rx   d 8 DD 3D 29 00 01 00 32 00
 320.854484 1  14              Rx   d 8 70 63 84 4F 00 00 00 00
 320.854737 1  16              Rx   d 8 00 00 00 00 00 00 00 00
 320.855419 1  11              Rx   d 8 1A D5 28 00 01 00 32 00
 320.855677 1  18              Rx   d 8 00 00 00 00 00 00 00 00
 320.855677 1  18              Rx   d 8 00 00 00 00 00 00 00 00
 322.746477 1  15              Rx   d 8 44 40 00 00 03 03 00 00
 322.747156 1  10              Rx   d 8 DE 3D 29 00 01 00 32 00
 322.774481 1  14              Rx   d 8 70 63 C4 4F 00 00 00 00
 322.774742 1  16              Rx   d 8 00 00 00 00 00 00 00 00
 322.775417 1  11              Rx   d 8 1A D5 28 00 01 00 32 00
 322.775674 1  18              Rx   d 8 00 00 00 00 00 00 00 00
 322.775674 1  18              Rx   d 8 00 00 00 00 00 00 00 00
 324.666371 1  15              Rx   d 8 44 40 00 00 03 03 00 00
 324.667056 1  10              Rx   d 8 E0 3D 29 00 01 00 32 00
 324.694372 1  14              Rx   d 8 70 63 C4 4F 00 00 00 00
 324.694625 1  16              Rx   d 8 00 00 00 00 00 00 00 00
 324.695309 1  11              Rx   d 8 1B D5 28 00 01 00 32 00
 324.695564 1  18              Rx   d 8 00 00 00 00 00 00 00 00
 324.695564 1  18              Rx   d 8 00 00 00 00 00 00 00 00
 326.566394 1  15              Rx   d 8 4C 40 00 00 03 03 00 00
 326.567082 1  10              Rx   d 8 E1 3D 29 00 01 00 32 00
 326.594407 1  14              Rx   d 8 70 63 84 4F 00 00 00 00
 326.594660 1  16              Rx   d 8 00 00 00 00 00 00 00 00
 326.595346 1  11              Rx   d 8 1A D5 28 00 01 00 31 00
 326.595596 1  18              Rx   d 8 00 00 00 00 00 00 00 00
 326.595596 1  18              Rx   d 8 00 00 00 00 00 00 00 00
 328.486541 1  15              Rx   d 8 44 40 00 00 03 03 00 00
 328.487228 1  10              Rx   d 8 E3 3D 29 00 01 00 32 00
 328.514544 1  14              Rx   d 8 70 63 84 4F 00 00 00 00
 328.514797 1  16              Rx   d 8 00 00 00 00 00 00 00 00
 328.515481 1  11              Rx   d 8 1E D5 28 00 03 00 32 00
 328.515737 1  18              Rx   d 8 00 00 00 00 00 00 00 00
 328.515737 1  18              Rx   d 8 00 00 00 00 00 00 00 00
 330.407594 1  15              Rx   d 8 00 00 00 00 03 03 00 00
 330.408273 1  10              Rx   d 8 E5 3D 29 00 01 00 32 00
 330.435729 1  14              Rx   d 8 70 63 84 4F 00 00 00 00
 330.435977 1  16              Rx   d 8 00 00 00 00 00 00 00 00
 330.436659 1  11              Rx   d 8 1C D5 28 00 01 00 31 00
 330.436919 1  18              Rx   d 8 00 00 00 00 00 00 00 00
 330.436919 1  18              Rx   d 8 00 00 00 00 00 00 00 00
 332.326931 1  15              Rx   d 8 44 40 00 00 03 03 00 00
 332.327610 1  10              Rx   d 8 E6 3D 29 00 01 00 32 00
 332.354942 1  14              Rx   d 8 70 63 84 4F 00 00 00 00
 332.355195 1  16              Rx   d 8 00 00 00 00 00 00 00 00
 332.355881 1  11              Rx   d 8 1B D5 28 00 01 00 32 00
 332.356139 1  18              Rx   d 8 00 00 00 00 00 00 00 00
 332.356139 1  18              Rx   d 8 00 00 00 00 00 00 00 00
 334.247048 1  15              Rx   d 8 44 40 00 00 03 03 00 00
 334.247737 1  10              Rx   d 8 E8 3D 29 00 01 00 32 00
 334.275043 1  14              Rx   d 8 78 63 84 4F 00 00 00 00
 334.275298 1  16              Rx   d 8 00 00 00 00 00 00 00 00
 334.275983 1  11              Rx   d 8 1A D5 28 00 02 00 30 00
 334.276244 1  18              Rx   d 8 00 00 00 00 00 00 00 00
 334.276244 1  18              Rx   d 8 00 00 00 00 00 00 00 00
 336.167333 1  15              Rx   d 8 44 40 00 00 03 03 00 00
 336.168021 1  10              Rx   d 8 EB 3D 29 00 01 00 32 00
 336.195343 1  14              Rx   d 8 78 63 7C 4F 00 00 00 00
 336.195595 1  16              Rx   d 8 00 00 00 00 00 00 00 00
 336.196277 1  11              Rx   d 8 1A D5 28 00 01 00 32 00
 336.196529 1  18              Rx   d 8 00 00 00 00 00 00 00 00
 336.196529 1  18              Rx   d 8 00 00 00 00 00 00 00 00
 338.087588 1  15              Rx   d 8 44 40 00 00 03 03 00 00
 338.088276 1  10              Rx   d 8 EC 3D 29 00 01 00 32 00
 338.115589 1  14              Rx   d 8 78 63 38 4F 00 00 00 00
 338.115840 1  16              Rx   d 8 00 00 00 00 00 00 00 00
 338.116516 1  11              Rx   d 8 1A D5 28 00 01 00 32 00
 338.116778 1  18              Rx   d 8 00 00 00 00 00 00 00 00
 338.116778 1  18              Rx   d 8 00 00 00 00 00 00 00 00
 340.007650 1  15              Rx   d 8 44 40 00 00 03 03 00 00
 340.008331 1  10              Rx   d 8 EE 3D 29 00 01 00 32 00
 340.035648 1  14              Rx   d 8 70 63 38 4F 00 00 00 00
 340.035899 1  16              Rx   d 8 00 00 00 00 00 00 00 00
 340.036587 1  11              Rx   d 8 1B D5 28 00 01 00 31 00
 340.036840 1  18              Rx   d 8 00 00 00 00 00 00 00 00
 340.036840 1  18              Rx   d 8 00 00 00 00 00 00 00 00
 341.928544 1  15              Rx   d 8 00 00 00 00 03 03 00 00
 341.929231 1  10              Rx   d 8 EF 3D 29 00 01 00 32 00
 341.956674 1  14              Rx   d 8 70 63 00 4F 00 00 00 00
 341.956936 1  16              Rx   d 8 00 00 00 00 00 00 00 00
 341.957609 1  11              Rx   d 8 1A D5 28 00 01 00 32 00
 341.957862 1  18              Rx   d 8 00 00 00 00 00 00 00 00
 341.957862 1  18              Rx   d 8 00 00 00 00 00 00 00 00
 343.827692 1  15              Rx   d 8 44 40 00 00 03 03 00 00
 343.828380 1  10              Rx   d 8 F1 3D 29 00 01 00 32 00
 343.855693 1  14              Rx   d 8 70 63 44 4F 00 00 00 00
 343.855952 1  16              Rx   d 8 00 00 00 00 00 00 00 00
 343.856634 1  11              Rx   d 8 1B D5 28 00 02 00 31 00
 343.856893 1  18              Rx   d 8 00 00 00 00 00 00 00 00
 343.856893 1  18              Rx   d 8 00 00 00 00 00 00 00 00
 345.747799 1  15              Rx   d 8 44 40 00 00 03 03 00 00
 345.748488 1  10              Rx   d 8 F3 3D 29 00 01 00 32 00
 345.775794 1  14              Rx   d 8 78 63 44 4F 00 00 00 00
 345.776055 1  16              Rx   d 8 00 00 00 00 00 00 00 00
 345.776730 1  11              Rx   d 8 16 D5 28 00 02 00 32 00
 345.776990 1  18              Rx   d 8 00 00 00 00 00 00 00 00
 345.776990 1  18              Rx   d 8 00 00 00 00 00 00 00 00
 347.667876 1  15              Rx   d 8 44 40 00 00 03 03 00 00
 347.668557 1  10              Rx   d 8 F4 3D 29 00 01 00 32 00
 347.695880 1  14              Rx   d 8 78 63 38 4F 00 00 00 00
 347.696133 1  16              Rx   d 8 00 00 00 00 00 00 00 00
 347.696817 1  11              Rx   d 8 17 D5 28 00 01 00 32 00
 347.697078 1  18              Rx   d 8 00 00 00 00 00 00 00 00
 347.697078 1  18              Rx   d 8 00 00 00 00 00 00 00 00
 349.588151 1  15              Rx   d 8 44 40 00 00 03 03 00 00
 349.588830 1  10              Rx   d 8 F6 3D 29 00 01 00 32 00
 349.616155 1  14              Rx   d 8 78 63 38 4F 00 00 00 00
 349.616408 1  16              Rx   d 8 00 00 00 00 00 00 00 00
 349.617095 1  11              Rx   d 8 18 D5 28 00 01 00 31 00
 349.617348 1  18              Rx   d 8 00 00 00 00 00 00 00 00
 349.617348 1  18              Rx   d 8 00 00 00 00 00 00 00 00
 351.508337 1  15              Rx   d 8 44 40 00 00 03 03 00 00
 351.509014 1  10              Rx   d 8 F7 3D 29 00 01 00 32 00
 351.536333 1  14              Rx   d 8 78 63 38 4F 00 00 00 00
 351.536584 1  16              Rx   d 8 00 00 00 00 00 00 00 00
 351.537269 1  11              Rx   d 8 18 D5 28 00 01 00 32 00
 351.537527 1  18              Rx   d 8 00 00 00 00 00 00 00 00
 351.537527 1  18              Rx   d 8 00 00 00 00 00 00 00 00
 353.429324 1  15              Rx   d 8 00 00 00 00 03 03 00 00
 353.430012 1  10              Rx   d 8 F9 3D 29 00 01 00 32 00
 353.457460 1  14              Rx   d 8 78 63 38 4F 00 00 00 00
 353.457712 1  16              Rx   d 8 00 00 00 00 00 00 00 00
 353.458391 1  11              Rx   d 8 19 D5 28 00 01 00 31 00
 353.458649 1  18              Rx   d 8 00 00 00 00 00 00 00 00
 353.458649 1  18              Rx   d 8 00 00 00 00 00 00 00 00
 355.348659 1  15              Rx   d 8 44 40 00 00 03 03 00 00
 355.349355 1  10              Rx   d 8 FB 3D 29 00 01 00 32 00
 355.376670 1  14              Rx   d 8 70 63 38 4F 00 00 00 00
 355.376923 1  16              Rx   d 8 00 00 00 00 00 00 00 00
 355.377609 1  11              Rx   d 8 18 D5 28 00 01 00 32 00
 355.377867 1  18              Rx   d 8 00 00 00 00 00 00 00 00
 355.377867 1  18              Rx   d 8 00 00 00 00 00 00 00 00
 357.268791 1  15              Rx   d 8 4C 40 00 00 03 03 00 00
 357.269479 1  10              Rx   d 8 FD 3D 29 00 01 00 32 00
 357.296795 1  14              Rx   d 8 70 63 00 4F 00 00 00 00
 357.297048 1  16              Rx   d 8 00 00 00 00 00 00 00 00
 357.297731 1  11              Rx   d 8 18 D5 28 00 01 00 32 00
 357.297989 1  18              Rx   d 8 00 00 00 00 00 00 00 00
 357.297989 1  18              Rx   d 8 00 00 00 00 00 00 00 00
 359.168840 1  15              Rx   d 8 44 40 00 00 03 03 00 00
 359.169529 1  10              Rx   d 8 FD 3D 29 00 01 00 32 00
 359.196848 1  14              Rx   d 8 70 63 00 4F 00 00 00 00
 359.197112 1  16              Rx   d 8 00 00 00 00 00 00 00 00
 359.197790 1  11              Rx   d 8 18 D5 28 00 01 00 32 00
 359.198040 1  18              Rx   d 8 00 00 00 00 00 00 00 00
 359.198040 1  18              Rx   d 8 00 00 00 00 00 00 00 00
 361.088959 1  15              Rx   d 8 44 40 00 00 03 03 00 00
 361.089646 1  10              Rx   d 8 FE 3D 29 00 01 00 32 00
 361.116960 1  14              Rx   d 8 70 63 44 4F 00 00 00 00
 361.117223 1  16              Rx   d 8 00 00 00 00 00 00 00 00
 361.117897 1  11              Rx   d 8 18 D5 28 00 01 00 32 00
 361.118157 1  18              Rx   d 8 00 00 00 00 00 00 00 00
 361.118157 1  18              Rx   d 8 00 00 00 00 00 00 00 00
 363.008927 1  15              Rx   d 8 44 40 00 00 03 03 00 00
 363.009616 1  10              Rx   d 8 00 3E 29 00 01 00 32 00
 363.036928 1  14              Rx   d 8 6C 63 44 4F 00 00 00 00
 363.037190 1  16              Rx   d 8 00 00 00 00 00 00 00 00
 363.037867 1  11              Rx   d 8 19 D5 28 00 01 00 32 00
 363.038122 1  18              Rx   d 8 00 00 00 00 00 00 00 00
 363.038122 1  18              Rx   d 8 00 00 00 00 00 00 00 00
 364.929110 1  15              Rx   d 8 44 40 00 00 03 03 00 00
 364.929803 1  10              Rx   d 8 01 3E 29 00 01 00 32 00
 364.957116 1  14              Rx   d 8 70 63 44 4F 00 00 00 00
 364.957375 1  16              Rx   d 8 00 00 00 00 00 00 00 00
 364.958052 1  11              Rx   d 8 18 D5 28 00 01 00 31 00
 364.958314 1  18              Rx   d 8 00 00 00 00 00 00 00 00
 364.958314 1  18              Rx   d 8 00 00 00 00 00 00 00 00
 366.849387 1  15              Rx   d 8 44 40 00 00 03 03 00 00
 366.850083 1  10              Rx   d 8 02 3E 29 00 01 00 32 00
 366.877389 1  14              Rx   d 8 6C 63 44 4F 00 00 00 00
 366.877650 1  16              Rx   d 8 00 00 00 00 00 00 00 00
 366.878336 1  11              Rx   d 8 18 D5 28 00 01 00 31 00
 366.878587 1  18              Rx   d 8 00 00 00 00 00 00 00 00
 366.878587 1  18              Rx   d 8 00 00 00 00 00 00 00 00
 368.770588 1  15              Rx   d 8 00 00 00 00 03 03 00 00
 368.771266 1  10              Rx   d 8 04 3E 29 00 01 00 32 00
 368.798710 1  14              Rx   d 8 6C 63 44 4F 00 00 00 00
 368.798970 1  16              Rx   d 8 00 00 00 00 00 00 00 00
 368.799651 1  11              Rx   d 8 19 D5 28 00 01 00 31 00
 368.799912 1  18              Rx   d 8 00 00 00 00 00 00 00 00
 368.799912 1  18              Rx   d 8 00 00 00 00 00 00 00 00
 370.689898 1  15              Rx   d 8 44 40 00 00 03 03 00 00
 370.690586 1  10              Rx   d 8 05 3E 29 00 01 00 32 00
 370.717907 1  14              Rx   d 8 6C 63 44 4F 00 00 00 00
 370.718162 1  16              Rx   d 8 00 00 00 00 00 00 00 00
 370.718844 1  11              Rx   d 8 18 D5 28 00 01 00 32 00
 370.719097 1  18              Rx   d 8 00 00 00 00 00 00 00 00
 370.719097 1  18              Rx   d 8 00 00 00 00 00 00 00 00
 372.610175 1  15              Rx   d 8 44 40 00 00 03 03 00 00
 372.610869 1  10              Rx   d 8 06 3E 29 00 01 00 32 00
 372.638186 1  14              Rx   d 8 64 63 44 4F 00 00 00 00
 372.638446 1  16              Rx   d 8 00 00 00 00 00 00 00 00
 372.639133 1  11              Rx   d 8 18 D5 28 00 01 00 31 00
 372.639384 1  18              Rx   d 8 00 00 00 00 00 00 00 00
 372.639384 1  18              Rx   d 8 00 00 00 00 00 00 00 00
 374.510640 1  15              Rx   d 8 4C 40 00 00 03 03 00 00
 374.511327 1  10              Rx   d 8 08 3E 29 00 01 00 32 00
 374.538651 1  14              Rx   d 8 64 63 44 4F 00 00 00 00
 374.538902 1  16              Rx   d 8 00 00 00 00 00 00 00 00
 374.539584 1  11              Rx   d 8 18 D5 28 00 01 00 32 00
 374.539846 1  18              Rx   d 8 00 00 00 00 00 00 00 00
 374.539846 1  18              Rx   d 8 00 00 00 00 00 00 00 00
 376.430973 1  15              Rx   d 8 44 40 00 00 03 03 00 00
 376.431663 1  10              Rx   d 8 08 3E 29 00 01 00 32 00
 376.458970 1  14              Rx   d 8 6C 63 44 4F 00 00 00 00
 376.459225 1  16              Rx   d 8 00 00 00 00 00 00 00 00
 376.459910 1  11              Rx   d 8 18 D5 28 00 01 00 31 00
 376.460173 1  18              Rx   d 8 00 00 00 00 00 00 00 00
 376.460173 1  18              Rx   d 8 00 00 00 00 00 00 00 00
 378.351211 1  15              Rx   d 8 44 40 00 00 03 03 00 00
 378.351897 1  10              Rx   d 8 0A 3E 29 00 01 00 32 00
 378.379215 1  14              Rx   d 8 6C 63 44 4F 00 00 00 00
 378.379475 1  16              Rx   d 8 00 00 00 00 00 00 00 00
 378.380153 1  11              Rx   d 8 18 D5 28 00 01 00 32 00
 378.380406 1  18              Rx   d 8 00 00 00 00 00 00 00 00
 378.380406 1  18              Rx   d 8 00 00 00 00 00 00 00 00
 380.271489 1  15              Rx   d 8 44 40 00 00 03 03 00 00
 380.272178 1  10              Rx   d 8 0B 3E 29 00 01 00 32 00
 380.299494 1  14              Rx   d 8 70 63 44 4F 00 00 00 00
 380.299756 1  16              Rx   d 8 00 00 00 00 00 00 00 00
 380.300435 1  11              Rx   d 8 19 D5 28 00 01 00 31 00
 380.300693 1  18              Rx   d 8 00 00 00 00 00 00 00 00
 380.300693 1  18              Rx   d 8 00 00 00 00 00 00 00 00
 382.191728 1  15              Rx   d 8 44 40 00 00 03 03 00 00
 382.192426 1  10              Rx   d 8 0D 3E 29 00 01 00 32 00
 382.219734 1  14              Rx   d 8 6C 63 44 4F 00 00 00 00
 382.219985 1  16              Rx   d 8 00 00 00 00 00 00 00 00
 382.220667 1  11              Rx   d 8 1A D5 28 00 01 00 32 00
 382.220918 1  18              Rx   d 8 00 00 00 00 00 00 00 00
 382.220918 1  18              Rx   d 8 00 00 00 00 00 00 00 00
 384.112798 1  15              Rx   d 8 00 00 00 00 03 03 00 00
 384.113479 1  10              Rx   d 8 0F 3E 29 00 01 00 32 00
 384.140926 1  14              Rx   d 8 6C 63 44 4F 00 00 00 00
 384.141188 1  16              Rx   d 8 00 00 00 00 00 00 00 00
 384.141863 1  11              Rx   d 8 1B D5 28 00 01 00 31 00
 384.142121 1  18              Rx   d 8 00 00 00 00 00 00 00 00
 384.142121 1  18              Rx   d 8 00 00 00 00 00 00 00 00
 386.032153 1  15              Rx   d 8 44 40 00 00 03 03 00 00
 386.032847 1  10              Rx   d 8 10 3E 29 00 01 00 32 00
 386.060163 1  14              Rx   d 8 6C 63 44 4F 00 00 00 00
 386.060416 1  16              Rx   d 8 00 00 00 00 00 00 00 00
 386.061106 1  11              Rx   d 8 1B D5 28 00 01 00 30 00
 386.061357 1  18              Rx   d 8 00 00 00 00 00 00 00 00
 386.061357 1  18              Rx   d 8 00 00 00 00 00 00 00 00
 387.952466 1  15              Rx   d 8 44 40 00 00 03 03 00 00
 387.953154 1  10              Rx   d 8 11 3E 29 00 01 00 32 00
 387.980470 1  14              Rx   d 8 70 63 44 4F 00 00 00 00
 387.980722 1  16              Rx   d 8 00 00 00 00 00 00 00 00
 387.981408 1  11              Rx   d 8 1B D5 28 00 01 00 32 00
 387.981666 1  18              Rx   d 8 00 00 00 00 00 00 00 00
 387.981666 1  18              Rx   d 8 00 00 00 00 00 00 00 00
 389.872660 1  15              Rx   d 8 4C 40 00 00 03 03 00 00
 389.873349 1  10              Rx   d 8 12 3E 29 00 01 00 32 00
 389.900664 1  14              Rx   d 8 6C 63 44 4F 00 00 00 00
 389.900917 1  16              Rx   d 8 00 00 00 00 00 00 00 00
 389.901614 1  11              Rx   d 8 23 D5 28 00 32 00 31 00
 389.901865 1  18              Rx   d 8 00 00 00 00 00 00 00 00
 389.901865 1  18              Rx   d 8 00 00 00 00 00 00 00 00
 391.772904 1  15              Rx   d 8 44 40 00 00 03 03 00 00
 391.773594 1  10              Rx   d 8 12 3E 29 00 01 00 32 00
 391.800918 1  14              Rx   d 8 70 63 00 4F 00 00 00 00
 391.801169 1  16              Rx   d 8 00 00 00 00 00 00 00 00
 391.801849 1  11              Rx   d 8 1C D5 28 00 01 00 31 00
 391.802112 1  18              Rx   d 8 00 00 00 00 00 00 00 00
 391.802112 1  18              Rx   d 8 00 00 00 00 00 00 00 00
 393.693179 1  15              Rx   d 8 44 40 00 00 03 03 00 00
 393.693874 1  10              Rx   d 8 13 3E 29 00 01 00 32 00
 393.721196 1  14              Rx   d 8 70 63 C0 4E 00 00 00 00
 393.721449 1  16              Rx   d 8 00 00 00 00 00 00 00 00
 393.722125 1  11              Rx   d 8 1C D5 28 00 01 00 32 00
 393.722383 1  18              Rx   d 8 00 00 00 00 00 00 00 00
 393.722383 1  18              Rx   d 8 00 00 00 00 00 00 00 00
 395.614354 1  15              Rx   d 8 00 00 00 00 03 03 00 00
 395.615040 1  10              Rx   d 8 14 3E 29 00 01 00 32 00
 395.642496 1  14              Rx   d 8 70 63 C0 4E 00 00 00 00
 395.642747 1  16              Rx   d 8 00 00 00 00 00 00 00 00
 395.643438 1  11              Rx   d 8 1B D5 28 00 01 00 31 00
 395.643689 1  18              Rx   d 8 00 00 00 00 00 00 00 00
 395.643689 1  18              Rx   d 8 00 00 00 00 00 00 00 00
 397.533737 1  15              Rx   d 8 44 40 00 00 03 03 00 00
 397.534426 1  10              Rx   d 8 15 3E 29 00 01 00 32 00
 397.561749 1  14              Rx   d 8 6C 63 C0 4E 00 00 00 00
 397.562000 1  16              Rx   d 8 00 00 00 00 00 00 00 00
 397.562677 1  11              Rx   d 8 1A D5 28 00 01 00 32 00
 397.562939 1  18              Rx   d 8 00 00 00 00 00 00 00 00
 397.562939 1  18              Rx   d 8 00 00 00 00 00 00 00 00
 399.453988 1  15              Rx   d 8 44 40 00 00 03 03 00 00
 399.454676 1  10              Rx   d 8 17 3E 29 00 01 00 32 00
 399.481998 1  14              Rx   d 8 70 63 00 4F 00 00 00 00
 399.482251 1  16              Rx   d 8 00 00 00 00 00 00 00 00
 399.482931 1  11              Rx   d 8 1A D5 28 00 01 00 32 00
 399.483186 1  18              Rx   d 8 00 00 00 00 00 00 00 00
 399.483186 1  18              Rx   d 8 00 00 00 00 00 00 00 00
 401.374116 1  15              Rx   d 8 44 40 00 00 03 03 00 00
 401.374802 1  10              Rx   d 8 18 3E 29 00 01 00 32 00
 401.402118 1  14              Rx   d 8 6C 63 00 4F 00 00 00 00
 401.402370 1  16              Rx   d 8 00 00 00 00 00 00 00 00
 401.403057 1  11              Rx   d 8 1B D5 28 00 01 00 32 00
 401.403310 1  18              Rx   d 8 00 00 00 00 00 00 00 00
 401.403310 1  18              Rx   d 8 00 00 00 00 00 00 00 00
 403.294326 1  15              Rx   d 8 44 40 00 00 03 03 00 00
 403.295022 1  10              Rx   d 8 19 3E 29 00 01 00 32 00
 403.322339 1  14              Rx   d 8 70 63 00 4F 00 00 00 00
 403.322590 1  16              Rx   d 8 00 00 00 00 00 00 00 00
 403.323277 1  11              Rx   d 8 1A D5 28 00 01 00 31 00
 403.323528 1  18              Rx   d 8 00 00 00 00 00 00 00 00
 403.323528 1  18              Rx   d 8 00 00 00 00 00 00 00 00
 405.214572 1  15              Rx   d 8 4C 40 00 00 03 03 00 00
 405.215253 1  10              Rx   d 8 1A 3E 29 00 01 00 32 00
 405.242574 1  14              Rx   d 8 6C 63 00 4F 00 00 00 00
 405.242833 1  16              Rx   d 8 00 00 00 00 00 00 00 00
 405.243511 1  11              Rx   d 8 1A D5 28 00 01 00 32 00
 405.243772 1  18              Rx   d 8 00 00 00 00 00 00 00 00
 405.243772 1  18              Rx   d 8 00 00 00 00 00 00 00 00
 407.114771 1  15              Rx   d 8 44 40 00 00 03 03 00 00
 407.115460 1  10              Rx   d 8 1C 3E 29 00 01 00 32 00
 407.142767 1  14              Rx   d 8 6C 63 00 4F 00 00 00 00
 407.143028 1  16              Rx   d 8 00 00 00 00 00 00 00 00
 407.143705 1  11              Rx   d 8 19 D5 28 00 01 00 32 00
 407.143965 1  18              Rx   d 8 00 00 00 00 00 00 00 00
 407.143965 1  18              Rx   d 8 00 00 00 00 00 00 00 00
 409.034957 1  15              Rx   d 8 44 40 00 00 03 03 00 00
 409.035646 1  10              Rx   d 8 1D 3E 29 00 01 00 32 00
 409.062961 1  14              Rx   d 8 6C 63 00 4F 00 00 00 00
 409.063215 1  16              Rx   d 8 00 00 00 00 00 00 00 00
 409.063894 1  11              Rx   d 8 1A D5 28 00 01 00 32 00
 409.064147 1  18              Rx   d 8 00 00 00 00 00 00 00 00
 409.064147 1  18              Rx   d 8 00 00 00 00 00 00 00 00
 410.955970 1  15              Rx   d 8 00 00 00 00 03 03 00 00
 410.956659 1  10              Rx   d 8 1E 3E 29 00 01 00 32 00
 410.984107 1  14              Rx   d 8 64 63 00 4F 00 00 00 00
 410.984360 1  16              Rx   d 8 00 00 00 00 00 00 00 00
 410.985044 1  11              Rx   d 8 19 D5 28 00 01 00 32 00
 410.985300 1  18              Rx   d 8 00 00 00 00 00 00 00 00
 410.985300 1  18              Rx   d 8 00 00 00 00 00 00 00 00
 412.875330 1  15              Rx   d 8 44 40 00 00 03 03 00 00
 412.876025 1  10              Rx   d 8 21 3E 29 00 01 00 32 00
 412.903343 1  14              Rx   d 8 60 63 44 4F 00 00 00 00
 412.903595 1  16              Rx   d 8 00 00 00 00 00 00 00 00
 412.904273 1  11              Rx   d 8 1A D5 28 00 01 00 32 00
 412.904531 1  18              Rx   d 8 00 00 00 00 00 00 00 00
 412.904531 1  18              Rx   d 8 00 00 00 00 00 00 00 00
 414.795489 1  15              Rx   d 8 44 40 00 00 03 03 00 00
 414.796177 1  10              Rx   d 8 21 3E 29 00 01 00 32 00
 414.823485 1  14              Rx   d 8 60 63 44 4F 00 00 00 00
 414.823745 1  16              Rx   d 8 00 00 00 00 00 00 00 00
 414.824427 1  11              Rx   d 8 19 D5 28 00 01 00 32 00
 414.824678 1  18              Rx   d 8 00 00 00 00 00 00 00 00
 414.824678 1  18              Rx   d 8 00 00 00 00 00 00 00 00
 416.715683 1  15              Rx   d 8 44 40 00 00 03 03 00 00
 416.716381 1  10              Rx   d 8 22 3E 29 00 01 00 32 00
 416.743689 1  14              Rx   d 8 60 63 00 4F 00 00 00 00
 416.743950 1  16              Rx   d 8 00 00 00 00 00 00 00 00
 416.744627 1  11              Rx   d 8 19 D5 28 00 01 00 32 00
 416.744886 1  18              Rx   d 8 00 00 00 00 00 00 00 00
 416.744886 1  18              Rx   d 8 00 00 00 00 00 00 00 00
 418.635731 1  15              Rx   d 8 44 40 00 00 03 03 00 00
 418.636420 1  10              Rx   d 8 22 3E 29 00 01 00 32 00
 418.663727 1  14              Rx   d 8 6C 63 00 4F 00 00 00 00
 418.663987 1  16              Rx   d 8 00 00 00 00 00 00 00 00
 418.664667 1  11              Rx   d 8 19 D5 28 00 01 00 32 00
 418.664927 1  18              Rx   d 8 00 00 00 00 00 00 00 00
 418.664927 1  18              Rx   d 8 00 00 00 00 00 00 00 00
 420.555801 1  15              Rx   d 8 44 40 00 00 03 03 00 00
 420.556490 1  10              Rx   d 8 23 3E 29 00 01 00 32 00
 420.583806 1  14              Rx   d 8 64 63 00 4F 00 00 00 00
 420.584068 1  16              Rx   d 8 00 00 00 00 00 00 00 00
 420.584743 1  11              Rx   d 8 1A D5 28 00 01 00 32 00
 420.585001 1  18              Rx   d 8 00 00 00 00 00 00 00 00
 420.585001 1  18              Rx   d 8 00 00 00 00 00 00 00 00
 422.456038 1  15              Rx   d 8 4C 40 00 00 03 03 00 00
 422.456725 1  10              Rx   d 8 24 3E 29 00 01 00 32 00
 422.484049 1  14              Rx   d 8 64 63 44 4F 00 00 00 00
 422.484302 1  16              Rx   d 8 00 00 00 00 00 00 00 00
 422.484977 1  11              Rx   d 8 1A D5 28 00 01 00 31 00
 422.485238 1  18              Rx   d 8 00 00 00 00 00 00 00 00
 422.485238 1  18              Rx   d 8 00 00 00 00 00 00 00 00
 424.376299 1  15              Rx   d 8 44 40 00 00 03 03 00 00
 424.376990 1  10              Rx   d 8 26 3E 29 00 01 00 32 00
 424.404298 1  14              Rx   d 8 64 63 44 4F 00 00 00 00
 424.404562 1  16              Rx   d 8 00 00 00 00 00 00 00 00
 424.405233 1  11              Rx   d 8 1A D5 28 00 01 00 32 00
 424.405493 1  18              Rx   d 8 00 00 00 00 00 00 00 00
 424.405493 1  18              Rx   d 8 00 00 00 00 00 00 00 00
 426.297304 1  15              Rx   d 8 00 00 00 00 03 03 00 00
 426.297997 1  10              Rx   d 8 27 3E 29 00 01 00 32 00
 426.325435 1  14              Rx   d 8 6C 63 44 4F 00 00 00 00
 426.325694 1  16              Rx   d 8 00 00 00 00 00 00 00 00
 426.326366 1  11              Rx   d 8 1A D5 28 00 01 00 32 00
 426.326629 1  18              Rx   d 8 00 00 00 00 00 00 00 00
 426.326629 1  18              Rx   d 8 00 00 00 00 00 00 00 00
 428.216533 1  15              Rx   d 8 44 40 00 00 03 03 00 00
 428.217222 1  10              Rx   d 8 28 3E 29 00 01 00 32 00
 428.244536 1  14              Rx   d 8 64 63 44 4F 00 00 00 00
 428.244788 1  16              Rx   d 8 00 00 00 00 00 00 00 00
 428.245464 1  11              Rx   d 8 1B D5 28 00 01 00 32 00
 428.245726 1  18              Rx   d 8 00 00 00 00 00 00 00 00
 428.245726 1  18              Rx   d 8 00 00 00 00 00 00 00 00
 430.136639 1  15              Rx   d 8 44 40 00 00 03 03 00 00
 430.137320 1  10              Rx   d 8 29 3E 29 00 01 00 32 00
 430.164641 1  14              Rx   d 8 6C 63 44 4F 00 00 00 00
 430.164894 1  16              Rx   d 8 00 00 00 00 00 00 00 00
 430.165574 1  11              Rx   d 8 1B D5 28 00 01 00 32 00
 430.165834 1  18              Rx   d 8 00 00 00 00 00 00 00 00
 430.165834 1  18              Rx   d 8 00 00 00 00 00 00 00 00
 432.056914 1  15              Rx   d 8 44 40 00 00 03 03 00 00
 432.057593 1  10              Rx   d 8 2A 3E 29 00 01 00 32 00
 432.084916 1  14              Rx   d 8 6C 63 44 4F 00 00 00 00
 432.085169 1  16              Rx   d 8 00 00 00 00 00 00 00 00
 432.085854 1  11              Rx   d 8 1B D5 28 00 01 00 30 00
 432.086115 1  18              Rx   d 8 00 00 00 00 00 00 00 00
 432.086115 1  18              Rx   d 8 00 00 00 00 00 00 00 00
 433.977185 1  15              Rx   d 8 44 40 00 00 03 03 00 00
 433.977870 1  10              Rx   d 8 2B 3E 29 00 01 00 32 00
 434.005198 1  14              Rx   d 8 6C 63 00 4F 00 00 00 00
 434.005450 1  16              Rx   d 8 00 00 00 00 00 00 00 00
 434.006129 1  11              Rx   d 8 1B D5 28 00 01 00 32 00
 434.006389 1  18              Rx   d 8 00 00 00 00 00 00 00 00
 434.006389 1  18              Rx   d 8 00 00 00 00 00 00 00 00
 435.897559 1  15              Rx   d 8 44 40 00 00 03 03 00 00
 435.898246 1  10              Rx   d 8 2C 3E 29 00 01 00 32 00
 435.925561 1  14              Rx   d 8 6C 63 44 4F 00 00 00 00
 435.925822 1  16              Rx   d 8 00 00 00 00 00 00 00 00
 435.926501 1  11              Rx   d 8 1C D5 28 00 01 00 32 00
 435.926762 1  18              Rx   d 8 00 00 00 00 00 00 00 00
 435.926762 1  18              Rx   d 8 00 00 00 00 00 00 00 00
 437.797854 1  15              Rx   d 8 4C 40 00 00 03 03 00 00
 437.798542 1  10              Rx   d 8 2C 3E 29 00 01 00 32 00
 437.825857 1  14              Rx   d 8 64 63 44 4F 00 00 00 00
 437.826119 1  16              Rx   d 8 00 00 00 00 00 00 00 00
 437.826796 1  11              Rx   d 8 1B D5 28 00 01 00 31 00
 437.827058 1  18              Rx   d 8 00 00 00 00 00 00 00 00
 437.827058 1  18              Rx   d 8 00 00 00 00 00 00 00 00
 439.718120 1  15              Rx   d 8 44 40 00 00 03 03 00 00
 439.718808 1  10              Rx   d 8 2D 3E 29 00 01 00 32 00
 439.746117 1  14              Rx   d 8 64 63 44 4F 00 00 00 00
